# vsim -c -coverage -sv_seed 44930692 "+UVM_TESTNAME=bridge_read_priority_test" "+UVM_VERBOSITY=UVM_HIGH" -l report/logs/bridge_read_priority_test_run_2_seed_44930692.log -wlf report/wlf/bridge_read_priority_test_run_2_seed_44930692.wlf -do "coverage save -onexit report/coverage/bridge_read_priority_test_run_2_seed_44930692.ucdb; run -all; quit -f" work.opt_bridge_tb_top 
# Start time: 09:15:48 on Sep 28,2026
# //  Questa Sim-64
# //  Version 10.6b linux_x86_64 May 25 2017
# //
# //  Copyright 1991-2017 Mentor Graphics Corporation
# //  All Rights Reserved.
# //
# //  QuestaSim and its associated documentation contain trade
# //  secrets and commercial or financial information that are the property of
# //  Mentor Graphics Corporation and are privileged, confidential,
# //  and exempt from disclosure under the Freedom of Information Act,
# //  5 U.S.C. Section 552. Furthermore, this information
# //  is prohibited from disclosure under the Trade Secrets Act,
# //  18 U.S.C. Section 1905.
# //
# Loading sv_std.std
# Loading work.axi4_if(fast)
# Loading work.ahb_if(fast)
# Loading mtiUvm.uvm_pkg
# Loading work.bridge_vip_pkg(fast)
# Loading work.bridge_seq_pkg(fast)
# Loading work.bridge_test_pkg(fast)
# Loading work.bridge_tb_top(fast)
# Loading work.axi4_if(fast)
# Loading work.ahb_if(fast)
# Loading work.axi_ahblite_bridge(fast)
# Loading work.ahb_skid_buf(fast)
# Loading work.axi_slv_if(fast)
# Loading work.ahb_mstr_if(fast)
# Loading work.time_out(fast)
# Loading work.axi4_sva(fast)
# Loading work.ahb_sva(fast)
# Loading mtiUvm.questa_uvm_pkg(fast)
# Loading /cadtools/mentor/Questa_10.6b/questasim/uvm-1.1d/linux_x86_64/uvm_dpi.so
# coverage save -onexit report/coverage/bridge_read_priority_test_run_2_seed_44930692.ucdb
#  run -all
# ----------------------------------------------------------------
# UVM-1.1d
# (C) 2007-2013 Mentor Graphics Corporation
# (C) 2007-2013 Cadence Design Systems, Inc.
# (C) 2006-2013 Synopsys, Inc.
# (C) 2011-2013 Cypress Semiconductor Corp.
# ----------------------------------------------------------------
# 
#   ***********       IMPORTANT RELEASE NOTES         ************
# 
#   You are using a version of the UVM library that has been compiled
#   with `UVM_NO_DEPRECATED undefined.
#   See http://www.eda.org/svdb/view.php?id=3313 for more details.
# 
#   You are using a version of the UVM library that has been compiled
#   with `UVM_OBJECT_MUST_HAVE_CONSTRUCTOR undefined.
#   See http://www.eda.org/svdb/view.php?id=3770 for more details.
# 
#       (Specify +UVM_NO_RELNOTES to turn off this notice)
# 
# UVM_INFO verilog_src/questa_uvm_pkg-1.2/src/questa_uvm_pkg.sv(215) @ 0: reporter [Questa UVM] QUESTA_UVM-1.2.3
# UVM_INFO verilog_src/questa_uvm_pkg-1.2/src/questa_uvm_pkg.sv(217) @ 0: reporter [Questa UVM]  questa_uvm::init(+struct)
# UVM_INFO @ 0: reporter [RNTST] Running test bridge_read_priority_test...
# UVM_INFO @ 0: reporter [UVMTOP] UVM testbench topology:
# -------------------------------------------------------------------------
# Name                       Type                               Size  Value
# -------------------------------------------------------------------------
# uvm_test_top               bridge_read_priority_test          -     @490 
#   env                      vip_env                            -     @508 
#     ahb_agent              ahb_slv_agent                      -     @529 
#       ap                   uvm_analysis_port                  -     @667 
#       cov                  ahb_slv_coverage                   -     @693 
#         analysis_imp       uvm_analysis_imp                   -     @700 
#         trans_export       uvm_analysis_imp_ahb_trans         -     @841 
#       drv                  ahb_slv_driver                     -     @818 
#         rsp_port           uvm_analysis_port                  -     @833 
#         seq_item_port      uvm_seq_item_pull_port             -     @825 
#       mon                  ahb_slv_monitor                    -     @686 
#         ap                 uvm_analysis_port                  -     @850 
#         trans_ap           uvm_analysis_port                  -     @858 
#       sqr                  ahb_slv_sequencer                  -     @709 
#         rsp_export         uvm_analysis_export                -     @716 
#         seq_item_export    uvm_seq_item_pull_imp              -     @810 
#         arbitration_queue  array                              0     -    
#         lock_queue         array                              0     -    
#         num_last_reqs      integral                           32    'd1  
#         num_last_rsps      integral                           32    'd1  
#       trans_ap             uvm_analysis_port                  -     @675 
#     axi_agent              axi4_mst_agent                     -     @522 
#       ap                   uvm_analysis_port                  -     @881 
#       cov                  axi4_mst_coverage                  -     @899 
#         analysis_imp       uvm_analysis_imp                   -     @906 
#       drv                  axi4_mst_driver                    -     @1024
#         rsp_port           uvm_analysis_port                  -     @1039
#         seq_item_port      uvm_seq_item_pull_port             -     @1031
#       mon                  axi4_mst_monitor                   -     @892 
#         ap                 uvm_analysis_port                  -     @1056
#         req_ap             uvm_analysis_port                  -     @1048
#       req_ap               uvm_analysis_port                  -     @873 
#       sqr                  axi4_mst_sequencer                 -     @915 
#         rsp_export         uvm_analysis_export                -     @922 
#         seq_item_export    uvm_seq_item_pull_imp              -     @1016
#         arbitration_queue  array                              0     -    
#         lock_queue         array                              0     -    
#         num_last_reqs      integral                           32    'd1  
#         num_last_rsps      integral                           32    'd1  
#     cov                    e2e_cov                            -     @659 
#       actual_ahb_export    uvm_analysis_imp_e2e_actual_ahb    -     @1086
#       axi_req_export       uvm_analysis_imp_e2e_axi_req       -     @1070
#       axi_rsp_export       uvm_analysis_imp_e2e_axi_rsp       -     @1094
#       expected_ahb_export  uvm_analysis_imp_e2e_expected_ahb  -     @1078
#     pred                   predictor                          -     @645 
#       axi_request_export   uvm_analysis_imp_axi_request       -     @1102
#       expected_ahb_ap      uvm_analysis_port                  -     @1110
#       expected_axi_ap      uvm_analysis_port                  -     @1118
#     scb                    scoreboard                         -     @652 
#       actual_ahb_export    uvm_analysis_imp_actual_ahb        -     @1134
#       actual_axi_export    uvm_analysis_imp_actual_axi        -     @1150
#       expected_ahb_export  uvm_analysis_imp_expected_ahb      -     @1126
#       expected_axi_export  uvm_analysis_imp_expected_axi      -     @1142
#     vseqr                  virtual_sequencer                  -     @536 
#       rsp_export           uvm_analysis_export                -     @543 
#       seq_item_export      uvm_seq_item_pull_imp              -     @637 
#       arbitration_queue    array                              0     -    
#       lock_queue           array                              0     -    
#       num_last_reqs        integral                           32    'd1  
#       num_last_rsps        integral                           32    'd1  
# -------------------------------------------------------------------------
# 
# UVM_INFO verilog_src/questa_uvm_pkg-1.2/src/questa_uvm_pkg.sv(277) @ 0: reporter [Questa UVM] End Of Elaboration
# UVM_INFO ../10_tb/bridge_tb_top.sv(47) @ 95000: reporter [BRIDGE_TB_TOP] Power-on reset released
# UVM_INFO ../10_tb/seq/axi4_mst_seq/axi4_mst_read_priority_seq.sv(110) @ 95000: uvm_test_top.env.axi_agent.sqr@@axi_seq [axi4_mst_read_priority_seq] Read priority: 17 contended pairs
# UVM_INFO ../10_tb/axi4_mst/axi4_mst_driver.sv(105) @ 95000: uvm_test_top.env.axi_agent.drv [axi4_mst_driver] [DRV][AXI][REQ] AXI4 AXI4_WRITE id=0x3 addr=0x1000 burst=AXI4_BURST_INCR beats=1 size=4B lock=0 | outstanding=1
# UVM_INFO ../10_tb/axi4_mst/axi4_mst_driver.sv(105) @ 95000: uvm_test_top.env.axi_agent.drv [axi4_mst_driver] [DRV][AXI][REQ] AXI4 AXI4_READ id=0xe addr=0x1080 burst=AXI4_BURST_INCR beats=1 size=4B lock=0 | outstanding=2
# UVM_INFO ../10_tb/axi4_mst/axi4_mst_driver.sv(225) @ 125000: uvm_test_top.env.axi_agent.drv [axi4_mst_driver] [DRV][AXI][AR] id=0xe addr=0x1080 burst=AXI4_BURST_INCR beats=1 size=4B
# UVM_INFO ../10_tb/axi4_mst/axi4_mst_monitor.sv(211) @ 125000: uvm_test_top.env.axi_agent.mon [axi4_mst_monitor] [MON][AXI][REQ] AXI4 AXI4_READ id=0xe addr=0x1080 burst=AXI4_BURST_INCR beats=1 size=4B lock=0
# UVM_INFO ../10_tb/env/predictor.sv(75) @ 125000: uvm_test_top.env.pred [predictor] [PRED][AXI][IN] AXI4 AXI4_READ id=0xe addr=0x1080 burst=AXI4_BURST_INCR beats=1 size=4B lock=0 | queued=1
# UVM_INFO ../10_tb/env/predictor.sv(138) @ 125000: uvm_test_top.env.pred [predictor] [PRED][MAP] AXI4 AXI4_READ id=0xe addr=0x1080 burst=AXI4_BURST_INCR beats=1 size=4B lock=0 -> AHB burst=AHB_BURST_SINGLE size=4B crosses_1kb=0
# UVM_INFO ../10_tb/env/predictor.sv(175) @ 125000: uvm_test_top.env.pred [predictor] [PRED][AHB] beat=1/1 | AHB AHB_READ addr=0x1080 trans=AHB_TRANS_NONSEQ burst=AHB_BURST_SINGLE size=4B mastlock=0 resp=AHB_RESP_OKAY waits=0
# UVM_INFO ../10_tb/ahb_slv/ahb_slv_driver.sv(87) @ 135000: uvm_test_top.env.ahb_agent.drv [ahb_slv_driver] [DRV][AHB][REQ] AHB_READ addr=0x1080 trans=AHB_TRANS_NONSEQ burst=AHB_BURST_SINGLE size=4B
# UVM_INFO ../10_tb/seq/ahb_slv_seq/ahb_slv_response_mapping_seq.sv(54) @ 135000: uvm_test_top.env.ahb_agent.sqr@@ahb_seq [ahb_slv_response_mapping_seq] [RSP][AHB] AHB_READ addr=0x1080 resp=AHB_RESP_OKAY waits=0
# UVM_INFO ../10_tb/ahb_slv/ahb_slv_driver.sv(201) @ 145000: uvm_test_top.env.ahb_agent.drv [ahb_slv_driver] [DRV][AHB][RSP] AHB_READ addr=0x1080 data=0xffffef7f resp=AHB_RESP_OKAY ready_delay=0
# UVM_INFO ../10_tb/ahb_slv/ahb_slv_monitor.sv(119) @ 145000: uvm_test_top.env.ahb_agent.mon [ahb_slv_monitor] [MON][AHB][TR] AHB AHB_READ addr=0x1080 trans=AHB_TRANS_NONSEQ burst=AHB_BURST_SINGLE size=4B mastlock=0 resp=AHB_RESP_OKAY waits=0 | data=0xffffef7f
# UVM_INFO ../10_tb/env/scoreboard.sv(359) @ 145000: uvm_test_top.env.scb [scoreboard] [SCB][AHB][PASS] AHB AHB_READ addr=0x1080 trans=AHB_TRANS_NONSEQ burst=AHB_BURST_SINGLE size=4B mastlock=0 resp=AHB_RESP_OKAY waits=0 | data=0xffffef7f | total=1
# UVM_INFO ../10_tb/axi4_mst/axi4_mst_driver.sv(290) @ 165000: uvm_test_top.env.axi_agent.drv [axi4_mst_driver] [DRV][AXI][R] id=0xe beat=1/1 data=0xffffef7f resp=AXI4_RESP_OKAY last=1
# UVM_INFO ../10_tb/axi4_mst/axi4_mst_monitor.sv(256) @ 165000: uvm_test_top.env.axi_agent.mon [axi4_mst_monitor] [MON][AXI][R] id=0xe beat=1/1 data=0xffffef7f resp=AXI4_RESP_OKAY last=1
# UVM_INFO ../10_tb/axi4_mst/axi4_mst_monitor.sv(262) @ 165000: uvm_test_top.env.axi_agent.mon [axi4_mst_monitor] [MON][AXI][RSP] READ id=0xe beats=1
# UVM_INFO ../10_tb/env/scoreboard.sv(506) @ 165000: uvm_test_top.env.scb [scoreboard] [SCB][AXI][PASS] AXI4 AXI4_READ id=0xe addr=0x1080 burst=AXI4_BURST_INCR beats=1 size=4B lock=0 | read beats=1 | total=1
# UVM_INFO ../10_tb/axi4_mst/axi4_mst_driver.sv(178) @ 175000: uvm_test_top.env.axi_agent.drv [axi4_mst_driver] [DRV][AXI][AW] id=0x3 addr=0x1000 burst=AXI4_BURST_INCR beats=1 size=4B
# UVM_INFO ../10_tb/axi4_mst/axi4_mst_driver.sv(198) @ 175000: uvm_test_top.env.axi_agent.drv [axi4_mst_driver] [DRV][AXI][W] id=0x3 beat=1/1 data=0xa3a2a1a0 strb=0xf last=1
# UVM_INFO ../10_tb/axi4_mst/axi4_mst_monitor.sv(151) @ 175000: uvm_test_top.env.axi_agent.mon [axi4_mst_monitor] [MON][AXI][REQ] AXI4 AXI4_WRITE id=0x3 addr=0x1000 burst=AXI4_BURST_INCR beats=1 size=4B lock=0
# UVM_INFO ../10_tb/env/predictor.sv(75) @ 175000: uvm_test_top.env.pred [predictor] [PRED][AXI][IN] AXI4 AXI4_WRITE id=0x3 addr=0x1000 burst=AXI4_BURST_INCR beats=1 size=4B lock=0 | queued=1
# UVM_INFO ../10_tb/env/predictor.sv(138) @ 175000: uvm_test_top.env.pred [predictor] [PRED][MAP] AXI4 AXI4_WRITE id=0x3 addr=0x1000 burst=AXI4_BURST_INCR beats=1 size=4B lock=0 -> AHB burst=AHB_BURST_SINGLE size=4B crosses_1kb=0
# UVM_INFO ../10_tb/env/predictor.sv(169) @ 175000: uvm_test_top.env.pred [predictor] [PRED][AHB] beat=1/1 | AHB AHB_WRITE addr=0x1000 trans=AHB_TRANS_NONSEQ burst=AHB_BURST_SINGLE size=4B mastlock=0 resp=AHB_RESP_OKAY waits=0 | wdata=0xa3a2a1a0
# UVM_INFO ../10_tb/ahb_slv/ahb_slv_driver.sv(87) @ 185000: uvm_test_top.env.ahb_agent.drv [ahb_slv_driver] [DRV][AHB][REQ] AHB_WRITE addr=0x1000 trans=AHB_TRANS_NONSEQ burst=AHB_BURST_SINGLE size=4B
# UVM_INFO ../10_tb/seq/ahb_slv_seq/ahb_slv_response_mapping_seq.sv(54) @ 185000: uvm_test_top.env.ahb_agent.sqr@@ahb_seq [ahb_slv_response_mapping_seq] [RSP][AHB] AHB_WRITE addr=0x1000 resp=AHB_RESP_OKAY waits=0
# UVM_INFO ../10_tb/ahb_slv/ahb_slv_driver.sv(201) @ 195000: uvm_test_top.env.ahb_agent.drv [ahb_slv_driver] [DRV][AHB][RSP] AHB_WRITE addr=0x1000 data=0xa3a2a1a0 resp=AHB_RESP_OKAY ready_delay=0
# UVM_INFO ../10_tb/ahb_slv/ahb_slv_monitor.sv(119) @ 195000: uvm_test_top.env.ahb_agent.mon [ahb_slv_monitor] [MON][AHB][TR] AHB AHB_WRITE addr=0x1000 trans=AHB_TRANS_NONSEQ burst=AHB_BURST_SINGLE size=4B mastlock=0 resp=AHB_RESP_OKAY waits=0 | data=0xa3a2a1a0
# UVM_INFO ../10_tb/env/scoreboard.sv(359) @ 195000: uvm_test_top.env.scb [scoreboard] [SCB][AHB][PASS] AHB AHB_WRITE addr=0x1000 trans=AHB_TRANS_NONSEQ burst=AHB_BURST_SINGLE size=4B mastlock=0 resp=AHB_RESP_OKAY waits=0 | data=0xa3a2a1a0 | total=2
# UVM_INFO ../10_tb/axi4_mst/axi4_mst_driver.sv(250) @ 205000: uvm_test_top.env.axi_agent.drv [axi4_mst_driver] [DRV][AXI][B] id=0x3 resp=AXI4_RESP_OKAY
# UVM_INFO ../10_tb/axi4_mst/axi4_mst_monitor.sv(177) @ 205000: uvm_test_top.env.axi_agent.mon [axi4_mst_monitor] [MON][AXI][RSP] WRITE id=0x3 resp=AXI4_RESP_OKAY
# UVM_INFO ../10_tb/env/scoreboard.sv(499) @ 205000: uvm_test_top.env.scb [scoreboard] [SCB][AXI][PASS] AXI4 AXI4_WRITE id=0x3 addr=0x1000 burst=AXI4_BURST_INCR beats=1 size=4B lock=0 | bresp=AXI4_RESP_OKAY | total=2
# UVM_INFO ../10_tb/axi4_mst/axi4_mst_driver.sv(105) @ 205000: uvm_test_top.env.axi_agent.drv [axi4_mst_driver] [DRV][AXI][REQ] AXI4 AXI4_WRITE id=0x6 addr=0x1100 burst=AXI4_BURST_INCR beats=4 size=4B lock=0 | outstanding=1
# UVM_INFO ../10_tb/axi4_mst/axi4_mst_driver.sv(105) @ 205000: uvm_test_top.env.axi_agent.drv [axi4_mst_driver] [DRV][AXI][REQ] AXI4 AXI4_READ id=0x3 addr=0x1180 burst=AXI4_BURST_INCR beats=4 size=4B lock=0 | outstanding=2
# UVM_INFO ../10_tb/axi4_mst/axi4_mst_driver.sv(225) @ 235000: uvm_test_top.env.axi_agent.drv [axi4_mst_driver] [DRV][AXI][AR] id=0x3 addr=0x1180 burst=AXI4_BURST_INCR beats=4 size=4B
# UVM_INFO ../10_tb/axi4_mst/axi4_mst_monitor.sv(211) @ 235000: uvm_test_top.env.axi_agent.mon [axi4_mst_monitor] [MON][AXI][REQ] AXI4 AXI4_READ id=0x3 addr=0x1180 burst=AXI4_BURST_INCR beats=4 size=4B lock=0
# UVM_INFO ../10_tb/env/predictor.sv(75) @ 235000: uvm_test_top.env.pred [predictor] [PRED][AXI][IN] AXI4 AXI4_READ id=0x3 addr=0x1180 burst=AXI4_BURST_INCR beats=4 size=4B lock=0 | queued=1
# UVM_INFO ../10_tb/env/predictor.sv(138) @ 235000: uvm_test_top.env.pred [predictor] [PRED][MAP] AXI4 AXI4_READ id=0x3 addr=0x1180 burst=AXI4_BURST_INCR beats=4 size=4B lock=0 -> AHB burst=AHB_BURST_INCR4 size=4B crosses_1kb=0
# UVM_INFO ../10_tb/env/predictor.sv(175) @ 235000: uvm_test_top.env.pred [predictor] [PRED][AHB] beat=1/4 | AHB AHB_READ addr=0x1180 trans=AHB_TRANS_NONSEQ burst=AHB_BURST_INCR4 size=4B mastlock=0 resp=AHB_RESP_OKAY waits=0
# UVM_INFO ../10_tb/env/predictor.sv(175) @ 235000: uvm_test_top.env.pred [predictor] [PRED][AHB] beat=2/4 | AHB AHB_READ addr=0x1184 trans=AHB_TRANS_SEQ burst=AHB_BURST_INCR4 size=4B mastlock=0 resp=AHB_RESP_OKAY waits=0
# UVM_INFO ../10_tb/env/predictor.sv(175) @ 235000: uvm_test_top.env.pred [predictor] [PRED][AHB] beat=3/4 | AHB AHB_READ addr=0x1188 trans=AHB_TRANS_SEQ burst=AHB_BURST_INCR4 size=4B mastlock=0 resp=AHB_RESP_OKAY waits=0
# UVM_INFO ../10_tb/env/predictor.sv(175) @ 235000: uvm_test_top.env.pred [predictor] [PRED][AHB] beat=4/4 | AHB AHB_READ addr=0x118c trans=AHB_TRANS_SEQ burst=AHB_BURST_INCR4 size=4B mastlock=0 resp=AHB_RESP_OKAY waits=0
# UVM_INFO ../10_tb/ahb_slv/ahb_slv_driver.sv(87) @ 245000: uvm_test_top.env.ahb_agent.drv [ahb_slv_driver] [DRV][AHB][REQ] AHB_READ addr=0x1180 trans=AHB_TRANS_NONSEQ burst=AHB_BURST_INCR4 size=4B
# UVM_INFO ../10_tb/seq/ahb_slv_seq/ahb_slv_response_mapping_seq.sv(54) @ 245000: uvm_test_top.env.ahb_agent.sqr@@ahb_seq [ahb_slv_response_mapping_seq] [RSP][AHB] AHB_READ addr=0x1180 resp=AHB_RESP_OKAY waits=0
# UVM_INFO ../10_tb/ahb_slv/ahb_slv_driver.sv(201) @ 255000: uvm_test_top.env.ahb_agent.drv [ahb_slv_driver] [DRV][AHB][RSP] AHB_READ addr=0x1180 data=0xffffee7f resp=AHB_RESP_OKAY ready_delay=0
# UVM_INFO ../10_tb/ahb_slv/ahb_slv_monitor.sv(119) @ 255000: uvm_test_top.env.ahb_agent.mon [ahb_slv_monitor] [MON][AHB][TR] AHB AHB_READ addr=0x1180 trans=AHB_TRANS_NONSEQ burst=AHB_BURST_INCR4 size=4B mastlock=0 resp=AHB_RESP_OKAY waits=0 | data=0xffffee7f
# UVM_INFO ../10_tb/env/scoreboard.sv(359) @ 255000: uvm_test_top.env.scb [scoreboard] [SCB][AHB][PASS] AHB AHB_READ addr=0x1180 trans=AHB_TRANS_NONSEQ burst=AHB_BURST_INCR4 size=4B mastlock=0 resp=AHB_RESP_OKAY waits=0 | data=0xffffee7f | total=3
# UVM_INFO ../10_tb/ahb_slv/ahb_slv_driver.sv(87) @ 265000: uvm_test_top.env.ahb_agent.drv [ahb_slv_driver] [DRV][AHB][REQ] AHB_READ addr=0x1184 trans=AHB_TRANS_SEQ burst=AHB_BURST_INCR4 size=4B
# UVM_INFO ../10_tb/seq/ahb_slv_seq/ahb_slv_response_mapping_seq.sv(54) @ 265000: uvm_test_top.env.ahb_agent.sqr@@ahb_seq [ahb_slv_response_mapping_seq] [RSP][AHB] AHB_READ addr=0x1184 resp=AHB_RESP_OKAY waits=0
# UVM_INFO ../10_tb/ahb_slv/ahb_slv_driver.sv(201) @ 275000: uvm_test_top.env.ahb_agent.drv [ahb_slv_driver] [DRV][AHB][RSP] AHB_READ addr=0x1184 data=0xffffee7b resp=AHB_RESP_OKAY ready_delay=0
# UVM_INFO ../10_tb/ahb_slv/ahb_slv_monitor.sv(119) @ 275000: uvm_test_top.env.ahb_agent.mon [ahb_slv_monitor] [MON][AHB][TR] AHB AHB_READ addr=0x1184 trans=AHB_TRANS_SEQ burst=AHB_BURST_INCR4 size=4B mastlock=0 resp=AHB_RESP_OKAY waits=0 | data=0xffffee7b
# UVM_INFO ../10_tb/env/scoreboard.sv(359) @ 275000: uvm_test_top.env.scb [scoreboard] [SCB][AHB][PASS] AHB AHB_READ addr=0x1184 trans=AHB_TRANS_SEQ burst=AHB_BURST_INCR4 size=4B mastlock=0 resp=AHB_RESP_OKAY waits=0 | data=0xffffee7b | total=4
# UVM_INFO ../10_tb/axi4_mst/axi4_mst_driver.sv(290) @ 275000: uvm_test_top.env.axi_agent.drv [axi4_mst_driver] [DRV][AXI][R] id=0x3 beat=1/4 data=0xffffee7f resp=AXI4_RESP_OKAY last=0
# UVM_INFO ../10_tb/axi4_mst/axi4_mst_monitor.sv(256) @ 275000: uvm_test_top.env.axi_agent.mon [axi4_mst_monitor] [MON][AXI][R] id=0x3 beat=1/4 data=0xffffee7f resp=AXI4_RESP_OKAY last=0
# UVM_INFO ../10_tb/ahb_slv/ahb_slv_driver.sv(87) @ 285000: uvm_test_top.env.ahb_agent.drv [ahb_slv_driver] [DRV][AHB][REQ] AHB_READ addr=0x1188 trans=AHB_TRANS_SEQ burst=AHB_BURST_INCR4 size=4B
# UVM_INFO ../10_tb/seq/ahb_slv_seq/ahb_slv_response_mapping_seq.sv(54) @ 285000: uvm_test_top.env.ahb_agent.sqr@@ahb_seq [ahb_slv_response_mapping_seq] [RSP][AHB] AHB_READ addr=0x1188 resp=AHB_RESP_OKAY waits=0
# UVM_INFO ../10_tb/ahb_slv/ahb_slv_driver.sv(201) @ 295000: uvm_test_top.env.ahb_agent.drv [ahb_slv_driver] [DRV][AHB][RSP] AHB_READ addr=0x1188 data=0xffffee77 resp=AHB_RESP_OKAY ready_delay=0
# UVM_INFO ../10_tb/ahb_slv/ahb_slv_monitor.sv(119) @ 295000: uvm_test_top.env.ahb_agent.mon [ahb_slv_monitor] [MON][AHB][TR] AHB AHB_READ addr=0x1188 trans=AHB_TRANS_SEQ burst=AHB_BURST_INCR4 size=4B mastlock=0 resp=AHB_RESP_OKAY waits=0 | data=0xffffee77
# UVM_INFO ../10_tb/env/scoreboard.sv(359) @ 295000: uvm_test_top.env.scb [scoreboard] [SCB][AHB][PASS] AHB AHB_READ addr=0x1188 trans=AHB_TRANS_SEQ burst=AHB_BURST_INCR4 size=4B mastlock=0 resp=AHB_RESP_OKAY waits=0 | data=0xffffee77 | total=5
# UVM_INFO ../10_tb/axi4_mst/axi4_mst_driver.sv(290) @ 295000: uvm_test_top.env.axi_agent.drv [axi4_mst_driver] [DRV][AXI][R] id=0x3 beat=2/4 data=0xffffee7b resp=AXI4_RESP_OKAY last=0
# UVM_INFO ../10_tb/axi4_mst/axi4_mst_monitor.sv(256) @ 295000: uvm_test_top.env.axi_agent.mon [axi4_mst_monitor] [MON][AXI][R] id=0x3 beat=2/4 data=0xffffee7b resp=AXI4_RESP_OKAY last=0
# UVM_INFO ../10_tb/ahb_slv/ahb_slv_driver.sv(87) @ 305000: uvm_test_top.env.ahb_agent.drv [ahb_slv_driver] [DRV][AHB][REQ] AHB_READ addr=0x118c trans=AHB_TRANS_SEQ burst=AHB_BURST_INCR4 size=4B
# UVM_INFO ../10_tb/seq/ahb_slv_seq/ahb_slv_response_mapping_seq.sv(54) @ 305000: uvm_test_top.env.ahb_agent.sqr@@ahb_seq [ahb_slv_response_mapping_seq] [RSP][AHB] AHB_READ addr=0x118c resp=AHB_RESP_OKAY waits=0
# UVM_INFO ../10_tb/ahb_slv/ahb_slv_driver.sv(201) @ 315000: uvm_test_top.env.ahb_agent.drv [ahb_slv_driver] [DRV][AHB][RSP] AHB_READ addr=0x118c data=0xffffee73 resp=AHB_RESP_OKAY ready_delay=0
# UVM_INFO ../10_tb/ahb_slv/ahb_slv_monitor.sv(119) @ 315000: uvm_test_top.env.ahb_agent.mon [ahb_slv_monitor] [MON][AHB][TR] AHB AHB_READ addr=0x118c trans=AHB_TRANS_SEQ burst=AHB_BURST_INCR4 size=4B mastlock=0 resp=AHB_RESP_OKAY waits=0 | data=0xffffee73
# UVM_INFO ../10_tb/env/scoreboard.sv(359) @ 315000: uvm_test_top.env.scb [scoreboard] [SCB][AHB][PASS] AHB AHB_READ addr=0x118c trans=AHB_TRANS_SEQ burst=AHB_BURST_INCR4 size=4B mastlock=0 resp=AHB_RESP_OKAY waits=0 | data=0xffffee73 | total=6
# UVM_INFO ../10_tb/axi4_mst/axi4_mst_driver.sv(290) @ 315000: uvm_test_top.env.axi_agent.drv [axi4_mst_driver] [DRV][AXI][R] id=0x3 beat=3/4 data=0xffffee77 resp=AXI4_RESP_OKAY last=0
# UVM_INFO ../10_tb/axi4_mst/axi4_mst_monitor.sv(256) @ 315000: uvm_test_top.env.axi_agent.mon [axi4_mst_monitor] [MON][AXI][R] id=0x3 beat=3/4 data=0xffffee77 resp=AXI4_RESP_OKAY last=0
# UVM_INFO ../10_tb/axi4_mst/axi4_mst_driver.sv(290) @ 335000: uvm_test_top.env.axi_agent.drv [axi4_mst_driver] [DRV][AXI][R] id=0x3 beat=4/4 data=0xffffee73 resp=AXI4_RESP_OKAY last=1
# UVM_INFO ../10_tb/axi4_mst/axi4_mst_monitor.sv(256) @ 335000: uvm_test_top.env.axi_agent.mon [axi4_mst_monitor] [MON][AXI][R] id=0x3 beat=4/4 data=0xffffee73 resp=AXI4_RESP_OKAY last=1
# UVM_INFO ../10_tb/axi4_mst/axi4_mst_monitor.sv(262) @ 335000: uvm_test_top.env.axi_agent.mon [axi4_mst_monitor] [MON][AXI][RSP] READ id=0x3 beats=4
# UVM_INFO ../10_tb/env/scoreboard.sv(506) @ 335000: uvm_test_top.env.scb [scoreboard] [SCB][AXI][PASS] AXI4 AXI4_READ id=0x3 addr=0x1180 burst=AXI4_BURST_INCR beats=4 size=4B lock=0 | read beats=4 | total=3
# UVM_INFO ../10_tb/axi4_mst/axi4_mst_driver.sv(178) @ 345000: uvm_test_top.env.axi_agent.drv [axi4_mst_driver] [DRV][AXI][AW] id=0x6 addr=0x1100 burst=AXI4_BURST_INCR beats=4 size=4B
# UVM_INFO ../10_tb/axi4_mst/axi4_mst_driver.sv(198) @ 345000: uvm_test_top.env.axi_agent.drv [axi4_mst_driver] [DRV][AXI][W] id=0x6 beat=1/4 data=0xa7a6a5a4 strb=0xf last=0
# UVM_INFO ../10_tb/ahb_slv/ahb_slv_driver.sv(87) @ 355000: uvm_test_top.env.ahb_agent.drv [ahb_slv_driver] [DRV][AHB][REQ] AHB_WRITE addr=0x1100 trans=AHB_TRANS_NONSEQ burst=AHB_BURST_INCR4 size=4B
# UVM_INFO ../10_tb/seq/ahb_slv_seq/ahb_slv_response_mapping_seq.sv(54) @ 355000: uvm_test_top.env.ahb_agent.sqr@@ahb_seq [ahb_slv_response_mapping_seq] [RSP][AHB] AHB_WRITE addr=0x1100 resp=AHB_RESP_OKAY waits=0
# UVM_INFO ../10_tb/ahb_slv/ahb_slv_driver.sv(201) @ 365000: uvm_test_top.env.ahb_agent.drv [ahb_slv_driver] [DRV][AHB][RSP] AHB_WRITE addr=0x1100 data=0xa7a6a5a4 resp=AHB_RESP_OKAY ready_delay=0
# UVM_INFO ../10_tb/ahb_slv/ahb_slv_monitor.sv(119) @ 365000: uvm_test_top.env.ahb_agent.mon [ahb_slv_monitor] [MON][AHB][TR] AHB AHB_WRITE addr=0x1100 trans=AHB_TRANS_NONSEQ burst=AHB_BURST_INCR4 size=4B mastlock=0 resp=AHB_RESP_OKAY waits=0 | data=0xa7a6a5a4
# UVM_INFO ../10_tb/ahb_slv/ahb_slv_driver.sv(87) @ 375000: uvm_test_top.env.ahb_agent.drv [ahb_slv_driver] [DRV][AHB][REQ] AHB_WRITE addr=0x1104 trans=AHB_TRANS_SEQ burst=AHB_BURST_INCR4 size=4B
# UVM_INFO ../10_tb/axi4_mst/axi4_mst_driver.sv(198) @ 375000: uvm_test_top.env.axi_agent.drv [axi4_mst_driver] [DRV][AXI][W] id=0x6 beat=2/4 data=0xa9a8a7a6 strb=0xf last=0
# UVM_INFO ../10_tb/seq/ahb_slv_seq/ahb_slv_response_mapping_seq.sv(54) @ 375000: uvm_test_top.env.ahb_agent.sqr@@ahb_seq [ahb_slv_response_mapping_seq] [RSP][AHB] AHB_WRITE addr=0x1104 resp=AHB_RESP_OKAY waits=0
# UVM_INFO ../10_tb/ahb_slv/ahb_slv_driver.sv(201) @ 385000: uvm_test_top.env.ahb_agent.drv [ahb_slv_driver] [DRV][AHB][RSP] AHB_WRITE addr=0x1104 data=0xa9a8a7a6 resp=AHB_RESP_OKAY ready_delay=0
# UVM_INFO ../10_tb/ahb_slv/ahb_slv_monitor.sv(119) @ 385000: uvm_test_top.env.ahb_agent.mon [ahb_slv_monitor] [MON][AHB][TR] AHB AHB_WRITE addr=0x1104 trans=AHB_TRANS_SEQ burst=AHB_BURST_INCR4 size=4B mastlock=0 resp=AHB_RESP_OKAY waits=0 | data=0xa9a8a7a6
# UVM_INFO ../10_tb/ahb_slv/ahb_slv_driver.sv(87) @ 395000: uvm_test_top.env.ahb_agent.drv [ahb_slv_driver] [DRV][AHB][REQ] AHB_WRITE addr=0x1108 trans=AHB_TRANS_SEQ burst=AHB_BURST_INCR4 size=4B
# UVM_INFO ../10_tb/axi4_mst/axi4_mst_driver.sv(198) @ 395000: uvm_test_top.env.axi_agent.drv [axi4_mst_driver] [DRV][AXI][W] id=0x6 beat=3/4 data=0xabaaa9a8 strb=0xf last=0
# UVM_INFO ../10_tb/seq/ahb_slv_seq/ahb_slv_response_mapping_seq.sv(54) @ 395000: uvm_test_top.env.ahb_agent.sqr@@ahb_seq [ahb_slv_response_mapping_seq] [RSP][AHB] AHB_WRITE addr=0x1108 resp=AHB_RESP_OKAY waits=0
# UVM_INFO ../10_tb/ahb_slv/ahb_slv_driver.sv(201) @ 405000: uvm_test_top.env.ahb_agent.drv [ahb_slv_driver] [DRV][AHB][RSP] AHB_WRITE addr=0x1108 data=0xabaaa9a8 resp=AHB_RESP_OKAY ready_delay=0
# UVM_INFO ../10_tb/ahb_slv/ahb_slv_monitor.sv(119) @ 405000: uvm_test_top.env.ahb_agent.mon [ahb_slv_monitor] [MON][AHB][TR] AHB AHB_WRITE addr=0x1108 trans=AHB_TRANS_SEQ burst=AHB_BURST_INCR4 size=4B mastlock=0 resp=AHB_RESP_OKAY waits=0 | data=0xabaaa9a8
# UVM_INFO ../10_tb/ahb_slv/ahb_slv_driver.sv(87) @ 415000: uvm_test_top.env.ahb_agent.drv [ahb_slv_driver] [DRV][AHB][REQ] AHB_WRITE addr=0x110c trans=AHB_TRANS_SEQ burst=AHB_BURST_INCR4 size=4B
# UVM_INFO ../10_tb/axi4_mst/axi4_mst_driver.sv(198) @ 415000: uvm_test_top.env.axi_agent.drv [axi4_mst_driver] [DRV][AXI][W] id=0x6 beat=4/4 data=0xadacabaa strb=0xf last=1
# UVM_INFO ../10_tb/seq/ahb_slv_seq/ahb_slv_response_mapping_seq.sv(54) @ 415000: uvm_test_top.env.ahb_agent.sqr@@ahb_seq [ahb_slv_response_mapping_seq] [RSP][AHB] AHB_WRITE addr=0x110c resp=AHB_RESP_OKAY waits=0
# UVM_INFO ../10_tb/axi4_mst/axi4_mst_monitor.sv(151) @ 415000: uvm_test_top.env.axi_agent.mon [axi4_mst_monitor] [MON][AXI][REQ] AXI4 AXI4_WRITE id=0x6 addr=0x1100 burst=AXI4_BURST_INCR beats=4 size=4B lock=0
# UVM_INFO ../10_tb/env/predictor.sv(75) @ 415000: uvm_test_top.env.pred [predictor] [PRED][AXI][IN] AXI4 AXI4_WRITE id=0x6 addr=0x1100 burst=AXI4_BURST_INCR beats=4 size=4B lock=0 | queued=1
# UVM_INFO ../10_tb/env/predictor.sv(138) @ 415000: uvm_test_top.env.pred [predictor] [PRED][MAP] AXI4 AXI4_WRITE id=0x6 addr=0x1100 burst=AXI4_BURST_INCR beats=4 size=4B lock=0 -> AHB burst=AHB_BURST_INCR4 size=4B crosses_1kb=0
# UVM_INFO ../10_tb/env/predictor.sv(169) @ 415000: uvm_test_top.env.pred [predictor] [PRED][AHB] beat=1/4 | AHB AHB_WRITE addr=0x1100 trans=AHB_TRANS_NONSEQ burst=AHB_BURST_INCR4 size=4B mastlock=0 resp=AHB_RESP_OKAY waits=0 | wdata=0xa7a6a5a4
# UVM_INFO ../10_tb/env/scoreboard.sv(359) @ 415000: uvm_test_top.env.scb [scoreboard] [SCB][AHB][PASS] AHB AHB_WRITE addr=0x1100 trans=AHB_TRANS_NONSEQ burst=AHB_BURST_INCR4 size=4B mastlock=0 resp=AHB_RESP_OKAY waits=0 | data=0xa7a6a5a4 | total=7
# UVM_INFO ../10_tb/env/predictor.sv(169) @ 415000: uvm_test_top.env.pred [predictor] [PRED][AHB] beat=2/4 | AHB AHB_WRITE addr=0x1104 trans=AHB_TRANS_SEQ burst=AHB_BURST_INCR4 size=4B mastlock=0 resp=AHB_RESP_OKAY waits=0 | wdata=0xa9a8a7a6
# UVM_INFO ../10_tb/env/scoreboard.sv(359) @ 415000: uvm_test_top.env.scb [scoreboard] [SCB][AHB][PASS] AHB AHB_WRITE addr=0x1104 trans=AHB_TRANS_SEQ burst=AHB_BURST_INCR4 size=4B mastlock=0 resp=AHB_RESP_OKAY waits=0 | data=0xa9a8a7a6 | total=8
# UVM_INFO ../10_tb/env/predictor.sv(169) @ 415000: uvm_test_top.env.pred [predictor] [PRED][AHB] beat=3/4 | AHB AHB_WRITE addr=0x1108 trans=AHB_TRANS_SEQ burst=AHB_BURST_INCR4 size=4B mastlock=0 resp=AHB_RESP_OKAY waits=0 | wdata=0xabaaa9a8
# UVM_INFO ../10_tb/env/scoreboard.sv(359) @ 415000: uvm_test_top.env.scb [scoreboard] [SCB][AHB][PASS] AHB AHB_WRITE addr=0x1108 trans=AHB_TRANS_SEQ burst=AHB_BURST_INCR4 size=4B mastlock=0 resp=AHB_RESP_OKAY waits=0 | data=0xabaaa9a8 | total=9
# UVM_INFO ../10_tb/env/predictor.sv(169) @ 415000: uvm_test_top.env.pred [predictor] [PRED][AHB] beat=4/4 | AHB AHB_WRITE addr=0x110c trans=AHB_TRANS_SEQ burst=AHB_BURST_INCR4 size=4B mastlock=0 resp=AHB_RESP_OKAY waits=0 | wdata=0xadacabaa
# UVM_INFO ../10_tb/ahb_slv/ahb_slv_driver.sv(201) @ 425000: uvm_test_top.env.ahb_agent.drv [ahb_slv_driver] [DRV][AHB][RSP] AHB_WRITE addr=0x110c data=0xadacabaa resp=AHB_RESP_OKAY ready_delay=0
# UVM_INFO ../10_tb/ahb_slv/ahb_slv_monitor.sv(119) @ 425000: uvm_test_top.env.ahb_agent.mon [ahb_slv_monitor] [MON][AHB][TR] AHB AHB_WRITE addr=0x110c trans=AHB_TRANS_SEQ burst=AHB_BURST_INCR4 size=4B mastlock=0 resp=AHB_RESP_OKAY waits=0 | data=0xadacabaa
# UVM_INFO ../10_tb/env/scoreboard.sv(359) @ 425000: uvm_test_top.env.scb [scoreboard] [SCB][AHB][PASS] AHB AHB_WRITE addr=0x110c trans=AHB_TRANS_SEQ burst=AHB_BURST_INCR4 size=4B mastlock=0 resp=AHB_RESP_OKAY waits=0 | data=0xadacabaa | total=10
# UVM_INFO ../10_tb/axi4_mst/axi4_mst_driver.sv(250) @ 435000: uvm_test_top.env.axi_agent.drv [axi4_mst_driver] [DRV][AXI][B] id=0x6 resp=AXI4_RESP_OKAY
# UVM_INFO ../10_tb/axi4_mst/axi4_mst_monitor.sv(177) @ 435000: uvm_test_top.env.axi_agent.mon [axi4_mst_monitor] [MON][AXI][RSP] WRITE id=0x6 resp=AXI4_RESP_OKAY
# UVM_INFO ../10_tb/env/scoreboard.sv(499) @ 435000: uvm_test_top.env.scb [scoreboard] [SCB][AXI][PASS] AXI4 AXI4_WRITE id=0x6 addr=0x1100 burst=AXI4_BURST_INCR beats=4 size=4B lock=0 | bresp=AXI4_RESP_OKAY | total=4
# UVM_INFO ../10_tb/axi4_mst/axi4_mst_driver.sv(105) @ 435000: uvm_test_top.env.axi_agent.drv [axi4_mst_driver] [DRV][AXI][REQ] AXI4 AXI4_WRITE id=0x4 addr=0x1200 burst=AXI4_BURST_INCR beats=1 size=4B lock=0 | outstanding=1
# UVM_INFO ../10_tb/axi4_mst/axi4_mst_driver.sv(105) @ 435000: uvm_test_top.env.axi_agent.drv [axi4_mst_driver] [DRV][AXI][REQ] AXI4 AXI4_READ id=0x5 addr=0x1280 burst=AXI4_BURST_INCR beats=4 size=4B lock=0 | outstanding=2
# UVM_INFO ../10_tb/axi4_mst/axi4_mst_driver.sv(225) @ 465000: uvm_test_top.env.axi_agent.drv [axi4_mst_driver] [DRV][AXI][AR] id=0x5 addr=0x1280 burst=AXI4_BURST_INCR beats=4 size=4B
# UVM_INFO ../10_tb/axi4_mst/axi4_mst_monitor.sv(211) @ 465000: uvm_test_top.env.axi_agent.mon [axi4_mst_monitor] [MON][AXI][REQ] AXI4 AXI4_READ id=0x5 addr=0x1280 burst=AXI4_BURST_INCR beats=4 size=4B lock=0
# UVM_INFO ../10_tb/env/predictor.sv(75) @ 465000: uvm_test_top.env.pred [predictor] [PRED][AXI][IN] AXI4 AXI4_READ id=0x5 addr=0x1280 burst=AXI4_BURST_INCR beats=4 size=4B lock=0 | queued=1
# UVM_INFO ../10_tb/env/predictor.sv(138) @ 465000: uvm_test_top.env.pred [predictor] [PRED][MAP] AXI4 AXI4_READ id=0x5 addr=0x1280 burst=AXI4_BURST_INCR beats=4 size=4B lock=0 -> AHB burst=AHB_BURST_INCR4 size=4B crosses_1kb=0
# UVM_INFO ../10_tb/env/predictor.sv(175) @ 465000: uvm_test_top.env.pred [predictor] [PRED][AHB] beat=1/4 | AHB AHB_READ addr=0x1280 trans=AHB_TRANS_NONSEQ burst=AHB_BURST_INCR4 size=4B mastlock=0 resp=AHB_RESP_OKAY waits=0
# UVM_INFO ../10_tb/env/predictor.sv(175) @ 465000: uvm_test_top.env.pred [predictor] [PRED][AHB] beat=2/4 | AHB AHB_READ addr=0x1284 trans=AHB_TRANS_SEQ burst=AHB_BURST_INCR4 size=4B mastlock=0 resp=AHB_RESP_OKAY waits=0
# UVM_INFO ../10_tb/env/predictor.sv(175) @ 465000: uvm_test_top.env.pred [predictor] [PRED][AHB] beat=3/4 | AHB AHB_READ addr=0x1288 trans=AHB_TRANS_SEQ burst=AHB_BURST_INCR4 size=4B mastlock=0 resp=AHB_RESP_OKAY waits=0
# UVM_INFO ../10_tb/env/predictor.sv(175) @ 465000: uvm_test_top.env.pred [predictor] [PRED][AHB] beat=4/4 | AHB AHB_READ addr=0x128c trans=AHB_TRANS_SEQ burst=AHB_BURST_INCR4 size=4B mastlock=0 resp=AHB_RESP_OKAY waits=0
# UVM_INFO ../10_tb/ahb_slv/ahb_slv_driver.sv(87) @ 475000: uvm_test_top.env.ahb_agent.drv [ahb_slv_driver] [DRV][AHB][REQ] AHB_READ addr=0x1280 trans=AHB_TRANS_NONSEQ burst=AHB_BURST_INCR4 size=4B
# UVM_INFO ../10_tb/seq/ahb_slv_seq/ahb_slv_response_mapping_seq.sv(54) @ 475000: uvm_test_top.env.ahb_agent.sqr@@ahb_seq [ahb_slv_response_mapping_seq] [RSP][AHB] AHB_READ addr=0x1280 resp=AHB_RESP_OKAY waits=0
# UVM_INFO ../10_tb/ahb_slv/ahb_slv_driver.sv(201) @ 485000: uvm_test_top.env.ahb_agent.drv [ahb_slv_driver] [DRV][AHB][RSP] AHB_READ addr=0x1280 data=0xffffed7f resp=AHB_RESP_OKAY ready_delay=0
# UVM_INFO ../10_tb/ahb_slv/ahb_slv_monitor.sv(119) @ 485000: uvm_test_top.env.ahb_agent.mon [ahb_slv_monitor] [MON][AHB][TR] AHB AHB_READ addr=0x1280 trans=AHB_TRANS_NONSEQ burst=AHB_BURST_INCR4 size=4B mastlock=0 resp=AHB_RESP_OKAY waits=0 | data=0xffffed7f
# UVM_INFO ../10_tb/env/scoreboard.sv(359) @ 485000: uvm_test_top.env.scb [scoreboard] [SCB][AHB][PASS] AHB AHB_READ addr=0x1280 trans=AHB_TRANS_NONSEQ burst=AHB_BURST_INCR4 size=4B mastlock=0 resp=AHB_RESP_OKAY waits=0 | data=0xffffed7f | total=11
# UVM_INFO ../10_tb/ahb_slv/ahb_slv_driver.sv(87) @ 495000: uvm_test_top.env.ahb_agent.drv [ahb_slv_driver] [DRV][AHB][REQ] AHB_READ addr=0x1284 trans=AHB_TRANS_SEQ burst=AHB_BURST_INCR4 size=4B
# UVM_INFO ../10_tb/seq/ahb_slv_seq/ahb_slv_response_mapping_seq.sv(54) @ 495000: uvm_test_top.env.ahb_agent.sqr@@ahb_seq [ahb_slv_response_mapping_seq] [RSP][AHB] AHB_READ addr=0x1284 resp=AHB_RESP_OKAY waits=0
# UVM_INFO ../10_tb/ahb_slv/ahb_slv_driver.sv(201) @ 505000: uvm_test_top.env.ahb_agent.drv [ahb_slv_driver] [DRV][AHB][RSP] AHB_READ addr=0x1284 data=0xffffed7b resp=AHB_RESP_OKAY ready_delay=0
# UVM_INFO ../10_tb/ahb_slv/ahb_slv_monitor.sv(119) @ 505000: uvm_test_top.env.ahb_agent.mon [ahb_slv_monitor] [MON][AHB][TR] AHB AHB_READ addr=0x1284 trans=AHB_TRANS_SEQ burst=AHB_BURST_INCR4 size=4B mastlock=0 resp=AHB_RESP_OKAY waits=0 | data=0xffffed7b
# UVM_INFO ../10_tb/env/scoreboard.sv(359) @ 505000: uvm_test_top.env.scb [scoreboard] [SCB][AHB][PASS] AHB AHB_READ addr=0x1284 trans=AHB_TRANS_SEQ burst=AHB_BURST_INCR4 size=4B mastlock=0 resp=AHB_RESP_OKAY waits=0 | data=0xffffed7b | total=12
# UVM_INFO ../10_tb/axi4_mst/axi4_mst_driver.sv(290) @ 505000: uvm_test_top.env.axi_agent.drv [axi4_mst_driver] [DRV][AXI][R] id=0x5 beat=1/4 data=0xffffed7f resp=AXI4_RESP_OKAY last=0
# UVM_INFO ../10_tb/axi4_mst/axi4_mst_monitor.sv(256) @ 505000: uvm_test_top.env.axi_agent.mon [axi4_mst_monitor] [MON][AXI][R] id=0x5 beat=1/4 data=0xffffed7f resp=AXI4_RESP_OKAY last=0
# UVM_INFO ../10_tb/ahb_slv/ahb_slv_driver.sv(87) @ 515000: uvm_test_top.env.ahb_agent.drv [ahb_slv_driver] [DRV][AHB][REQ] AHB_READ addr=0x1288 trans=AHB_TRANS_SEQ burst=AHB_BURST_INCR4 size=4B
# UVM_INFO ../10_tb/seq/ahb_slv_seq/ahb_slv_response_mapping_seq.sv(54) @ 515000: uvm_test_top.env.ahb_agent.sqr@@ahb_seq [ahb_slv_response_mapping_seq] [RSP][AHB] AHB_READ addr=0x1288 resp=AHB_RESP_OKAY waits=0
# UVM_INFO ../10_tb/ahb_slv/ahb_slv_driver.sv(201) @ 525000: uvm_test_top.env.ahb_agent.drv [ahb_slv_driver] [DRV][AHB][RSP] AHB_READ addr=0x1288 data=0xffffed77 resp=AHB_RESP_OKAY ready_delay=0
# UVM_INFO ../10_tb/ahb_slv/ahb_slv_monitor.sv(119) @ 525000: uvm_test_top.env.ahb_agent.mon [ahb_slv_monitor] [MON][AHB][TR] AHB AHB_READ addr=0x1288 trans=AHB_TRANS_SEQ burst=AHB_BURST_INCR4 size=4B mastlock=0 resp=AHB_RESP_OKAY waits=0 | data=0xffffed77
# UVM_INFO ../10_tb/env/scoreboard.sv(359) @ 525000: uvm_test_top.env.scb [scoreboard] [SCB][AHB][PASS] AHB AHB_READ addr=0x1288 trans=AHB_TRANS_SEQ burst=AHB_BURST_INCR4 size=4B mastlock=0 resp=AHB_RESP_OKAY waits=0 | data=0xffffed77 | total=13
# UVM_INFO ../10_tb/axi4_mst/axi4_mst_driver.sv(290) @ 525000: uvm_test_top.env.axi_agent.drv [axi4_mst_driver] [DRV][AXI][R] id=0x5 beat=2/4 data=0xffffed7b resp=AXI4_RESP_OKAY last=0
# UVM_INFO ../10_tb/axi4_mst/axi4_mst_monitor.sv(256) @ 525000: uvm_test_top.env.axi_agent.mon [axi4_mst_monitor] [MON][AXI][R] id=0x5 beat=2/4 data=0xffffed7b resp=AXI4_RESP_OKAY last=0
# UVM_INFO ../10_tb/ahb_slv/ahb_slv_driver.sv(87) @ 535000: uvm_test_top.env.ahb_agent.drv [ahb_slv_driver] [DRV][AHB][REQ] AHB_READ addr=0x128c trans=AHB_TRANS_SEQ burst=AHB_BURST_INCR4 size=4B
# UVM_INFO ../10_tb/seq/ahb_slv_seq/ahb_slv_response_mapping_seq.sv(54) @ 535000: uvm_test_top.env.ahb_agent.sqr@@ahb_seq [ahb_slv_response_mapping_seq] [RSP][AHB] AHB_READ addr=0x128c resp=AHB_RESP_OKAY waits=0
# UVM_INFO ../10_tb/ahb_slv/ahb_slv_driver.sv(201) @ 545000: uvm_test_top.env.ahb_agent.drv [ahb_slv_driver] [DRV][AHB][RSP] AHB_READ addr=0x128c data=0xffffed73 resp=AHB_RESP_OKAY ready_delay=0
# UVM_INFO ../10_tb/ahb_slv/ahb_slv_monitor.sv(119) @ 545000: uvm_test_top.env.ahb_agent.mon [ahb_slv_monitor] [MON][AHB][TR] AHB AHB_READ addr=0x128c trans=AHB_TRANS_SEQ burst=AHB_BURST_INCR4 size=4B mastlock=0 resp=AHB_RESP_OKAY waits=0 | data=0xffffed73
# UVM_INFO ../10_tb/env/scoreboard.sv(359) @ 545000: uvm_test_top.env.scb [scoreboard] [SCB][AHB][PASS] AHB AHB_READ addr=0x128c trans=AHB_TRANS_SEQ burst=AHB_BURST_INCR4 size=4B mastlock=0 resp=AHB_RESP_OKAY waits=0 | data=0xffffed73 | total=14
# UVM_INFO ../10_tb/axi4_mst/axi4_mst_driver.sv(290) @ 545000: uvm_test_top.env.axi_agent.drv [axi4_mst_driver] [DRV][AXI][R] id=0x5 beat=3/4 data=0xffffed77 resp=AXI4_RESP_OKAY last=0
# UVM_INFO ../10_tb/axi4_mst/axi4_mst_monitor.sv(256) @ 545000: uvm_test_top.env.axi_agent.mon [axi4_mst_monitor] [MON][AXI][R] id=0x5 beat=3/4 data=0xffffed77 resp=AXI4_RESP_OKAY last=0
# UVM_INFO ../10_tb/axi4_mst/axi4_mst_driver.sv(290) @ 565000: uvm_test_top.env.axi_agent.drv [axi4_mst_driver] [DRV][AXI][R] id=0x5 beat=4/4 data=0xffffed73 resp=AXI4_RESP_OKAY last=1
# UVM_INFO ../10_tb/axi4_mst/axi4_mst_monitor.sv(256) @ 565000: uvm_test_top.env.axi_agent.mon [axi4_mst_monitor] [MON][AXI][R] id=0x5 beat=4/4 data=0xffffed73 resp=AXI4_RESP_OKAY last=1
# UVM_INFO ../10_tb/axi4_mst/axi4_mst_monitor.sv(262) @ 565000: uvm_test_top.env.axi_agent.mon [axi4_mst_monitor] [MON][AXI][RSP] READ id=0x5 beats=4
# UVM_INFO ../10_tb/env/scoreboard.sv(506) @ 565000: uvm_test_top.env.scb [scoreboard] [SCB][AXI][PASS] AXI4 AXI4_READ id=0x5 addr=0x1280 burst=AXI4_BURST_INCR beats=4 size=4B lock=0 | read beats=4 | total=5
# UVM_INFO ../10_tb/axi4_mst/axi4_mst_driver.sv(178) @ 575000: uvm_test_top.env.axi_agent.drv [axi4_mst_driver] [DRV][AXI][AW] id=0x4 addr=0x1200 burst=AXI4_BURST_INCR beats=1 size=4B
# UVM_INFO ../10_tb/axi4_mst/axi4_mst_driver.sv(198) @ 575000: uvm_test_top.env.axi_agent.drv [axi4_mst_driver] [DRV][AXI][W] id=0x4 beat=1/1 data=0xabaaa9a8 strb=0xf last=1
# UVM_INFO ../10_tb/axi4_mst/axi4_mst_monitor.sv(151) @ 575000: uvm_test_top.env.axi_agent.mon [axi4_mst_monitor] [MON][AXI][REQ] AXI4 AXI4_WRITE id=0x4 addr=0x1200 burst=AXI4_BURST_INCR beats=1 size=4B lock=0
# UVM_INFO ../10_tb/env/predictor.sv(75) @ 575000: uvm_test_top.env.pred [predictor] [PRED][AXI][IN] AXI4 AXI4_WRITE id=0x4 addr=0x1200 burst=AXI4_BURST_INCR beats=1 size=4B lock=0 | queued=1
# UVM_INFO ../10_tb/env/predictor.sv(138) @ 575000: uvm_test_top.env.pred [predictor] [PRED][MAP] AXI4 AXI4_WRITE id=0x4 addr=0x1200 burst=AXI4_BURST_INCR beats=1 size=4B lock=0 -> AHB burst=AHB_BURST_SINGLE size=4B crosses_1kb=0
# UVM_INFO ../10_tb/env/predictor.sv(169) @ 575000: uvm_test_top.env.pred [predictor] [PRED][AHB] beat=1/1 | AHB AHB_WRITE addr=0x1200 trans=AHB_TRANS_NONSEQ burst=AHB_BURST_SINGLE size=4B mastlock=0 resp=AHB_RESP_OKAY waits=0 | wdata=0xabaaa9a8
# UVM_INFO ../10_tb/ahb_slv/ahb_slv_driver.sv(87) @ 585000: uvm_test_top.env.ahb_agent.drv [ahb_slv_driver] [DRV][AHB][REQ] AHB_WRITE addr=0x1200 trans=AHB_TRANS_NONSEQ burst=AHB_BURST_SINGLE size=4B
# UVM_INFO ../10_tb/seq/ahb_slv_seq/ahb_slv_response_mapping_seq.sv(54) @ 585000: uvm_test_top.env.ahb_agent.sqr@@ahb_seq [ahb_slv_response_mapping_seq] [RSP][AHB] AHB_WRITE addr=0x1200 resp=AHB_RESP_OKAY waits=0
# UVM_INFO ../10_tb/ahb_slv/ahb_slv_driver.sv(201) @ 595000: uvm_test_top.env.ahb_agent.drv [ahb_slv_driver] [DRV][AHB][RSP] AHB_WRITE addr=0x1200 data=0xabaaa9a8 resp=AHB_RESP_OKAY ready_delay=0
# UVM_INFO ../10_tb/ahb_slv/ahb_slv_monitor.sv(119) @ 595000: uvm_test_top.env.ahb_agent.mon [ahb_slv_monitor] [MON][AHB][TR] AHB AHB_WRITE addr=0x1200 trans=AHB_TRANS_NONSEQ burst=AHB_BURST_SINGLE size=4B mastlock=0 resp=AHB_RESP_OKAY waits=0 | data=0xabaaa9a8
# UVM_INFO ../10_tb/env/scoreboard.sv(359) @ 595000: uvm_test_top.env.scb [scoreboard] [SCB][AHB][PASS] AHB AHB_WRITE addr=0x1200 trans=AHB_TRANS_NONSEQ burst=AHB_BURST_SINGLE size=4B mastlock=0 resp=AHB_RESP_OKAY waits=0 | data=0xabaaa9a8 | total=15
# UVM_INFO ../10_tb/axi4_mst/axi4_mst_driver.sv(250) @ 605000: uvm_test_top.env.axi_agent.drv [axi4_mst_driver] [DRV][AXI][B] id=0x4 resp=AXI4_RESP_OKAY
# UVM_INFO ../10_tb/axi4_mst/axi4_mst_monitor.sv(177) @ 605000: uvm_test_top.env.axi_agent.mon [axi4_mst_monitor] [MON][AXI][RSP] WRITE id=0x4 resp=AXI4_RESP_OKAY
# UVM_INFO ../10_tb/env/scoreboard.sv(499) @ 605000: uvm_test_top.env.scb [scoreboard] [SCB][AXI][PASS] AXI4 AXI4_WRITE id=0x4 addr=0x1200 burst=AXI4_BURST_INCR beats=1 size=4B lock=0 | bresp=AXI4_RESP_OKAY | total=6
# UVM_INFO ../10_tb/axi4_mst/axi4_mst_driver.sv(105) @ 605000: uvm_test_top.env.axi_agent.drv [axi4_mst_driver] [DRV][AXI][REQ] AXI4 AXI4_WRITE id=0x6 addr=0x1300 burst=AXI4_BURST_INCR beats=4 size=4B lock=0 | outstanding=1
# UVM_INFO ../10_tb/axi4_mst/axi4_mst_driver.sv(105) @ 605000: uvm_test_top.env.axi_agent.drv [axi4_mst_driver] [DRV][AXI][REQ] AXI4 AXI4_READ id=0x0 addr=0x1380 burst=AXI4_BURST_INCR beats=1 size=4B lock=0 | outstanding=2
# UVM_INFO ../10_tb/axi4_mst/axi4_mst_driver.sv(225) @ 635000: uvm_test_top.env.axi_agent.drv [axi4_mst_driver] [DRV][AXI][AR] id=0x0 addr=0x1380 burst=AXI4_BURST_INCR beats=1 size=4B
# UVM_INFO ../10_tb/axi4_mst/axi4_mst_monitor.sv(211) @ 635000: uvm_test_top.env.axi_agent.mon [axi4_mst_monitor] [MON][AXI][REQ] AXI4 AXI4_READ id=0x0 addr=0x1380 burst=AXI4_BURST_INCR beats=1 size=4B lock=0
# UVM_INFO ../10_tb/env/predictor.sv(75) @ 635000: uvm_test_top.env.pred [predictor] [PRED][AXI][IN] AXI4 AXI4_READ id=0x0 addr=0x1380 burst=AXI4_BURST_INCR beats=1 size=4B lock=0 | queued=1
# UVM_INFO ../10_tb/env/predictor.sv(138) @ 635000: uvm_test_top.env.pred [predictor] [PRED][MAP] AXI4 AXI4_READ id=0x0 addr=0x1380 burst=AXI4_BURST_INCR beats=1 size=4B lock=0 -> AHB burst=AHB_BURST_SINGLE size=4B crosses_1kb=0
# UVM_INFO ../10_tb/env/predictor.sv(175) @ 635000: uvm_test_top.env.pred [predictor] [PRED][AHB] beat=1/1 | AHB AHB_READ addr=0x1380 trans=AHB_TRANS_NONSEQ burst=AHB_BURST_SINGLE size=4B mastlock=0 resp=AHB_RESP_OKAY waits=0
# UVM_INFO ../10_tb/ahb_slv/ahb_slv_driver.sv(87) @ 645000: uvm_test_top.env.ahb_agent.drv [ahb_slv_driver] [DRV][AHB][REQ] AHB_READ addr=0x1380 trans=AHB_TRANS_NONSEQ burst=AHB_BURST_SINGLE size=4B
# UVM_INFO ../10_tb/seq/ahb_slv_seq/ahb_slv_response_mapping_seq.sv(54) @ 645000: uvm_test_top.env.ahb_agent.sqr@@ahb_seq [ahb_slv_response_mapping_seq] [RSP][AHB] AHB_READ addr=0x1380 resp=AHB_RESP_OKAY waits=0
# UVM_INFO ../10_tb/ahb_slv/ahb_slv_driver.sv(201) @ 655000: uvm_test_top.env.ahb_agent.drv [ahb_slv_driver] [DRV][AHB][RSP] AHB_READ addr=0x1380 data=0xffffec7f resp=AHB_RESP_OKAY ready_delay=0
# UVM_INFO ../10_tb/ahb_slv/ahb_slv_monitor.sv(119) @ 655000: uvm_test_top.env.ahb_agent.mon [ahb_slv_monitor] [MON][AHB][TR] AHB AHB_READ addr=0x1380 trans=AHB_TRANS_NONSEQ burst=AHB_BURST_SINGLE size=4B mastlock=0 resp=AHB_RESP_OKAY waits=0 | data=0xffffec7f
# UVM_INFO ../10_tb/env/scoreboard.sv(359) @ 655000: uvm_test_top.env.scb [scoreboard] [SCB][AHB][PASS] AHB AHB_READ addr=0x1380 trans=AHB_TRANS_NONSEQ burst=AHB_BURST_SINGLE size=4B mastlock=0 resp=AHB_RESP_OKAY waits=0 | data=0xffffec7f | total=16
# UVM_INFO ../10_tb/axi4_mst/axi4_mst_driver.sv(290) @ 675000: uvm_test_top.env.axi_agent.drv [axi4_mst_driver] [DRV][AXI][R] id=0x0 beat=1/1 data=0xffffec7f resp=AXI4_RESP_OKAY last=1
# UVM_INFO ../10_tb/axi4_mst/axi4_mst_monitor.sv(256) @ 675000: uvm_test_top.env.axi_agent.mon [axi4_mst_monitor] [MON][AXI][R] id=0x0 beat=1/1 data=0xffffec7f resp=AXI4_RESP_OKAY last=1
# UVM_INFO ../10_tb/axi4_mst/axi4_mst_monitor.sv(262) @ 675000: uvm_test_top.env.axi_agent.mon [axi4_mst_monitor] [MON][AXI][RSP] READ id=0x0 beats=1
# UVM_INFO ../10_tb/env/scoreboard.sv(506) @ 675000: uvm_test_top.env.scb [scoreboard] [SCB][AXI][PASS] AXI4 AXI4_READ id=0x0 addr=0x1380 burst=AXI4_BURST_INCR beats=1 size=4B lock=0 | read beats=1 | total=7
# UVM_INFO ../10_tb/axi4_mst/axi4_mst_driver.sv(178) @ 685000: uvm_test_top.env.axi_agent.drv [axi4_mst_driver] [DRV][AXI][AW] id=0x6 addr=0x1300 burst=AXI4_BURST_INCR beats=4 size=4B
# UVM_INFO ../10_tb/axi4_mst/axi4_mst_driver.sv(198) @ 685000: uvm_test_top.env.axi_agent.drv [axi4_mst_driver] [DRV][AXI][W] id=0x6 beat=1/4 data=0xafaeadac strb=0xf last=0
# UVM_INFO ../10_tb/ahb_slv/ahb_slv_driver.sv(87) @ 695000: uvm_test_top.env.ahb_agent.drv [ahb_slv_driver] [DRV][AHB][REQ] AHB_WRITE addr=0x1300 trans=AHB_TRANS_NONSEQ burst=AHB_BURST_INCR4 size=4B
# UVM_INFO ../10_tb/seq/ahb_slv_seq/ahb_slv_response_mapping_seq.sv(54) @ 695000: uvm_test_top.env.ahb_agent.sqr@@ahb_seq [ahb_slv_response_mapping_seq] [RSP][AHB] AHB_WRITE addr=0x1300 resp=AHB_RESP_OKAY waits=0
# UVM_INFO ../10_tb/ahb_slv/ahb_slv_driver.sv(201) @ 705000: uvm_test_top.env.ahb_agent.drv [ahb_slv_driver] [DRV][AHB][RSP] AHB_WRITE addr=0x1300 data=0xafaeadac resp=AHB_RESP_OKAY ready_delay=0
# UVM_INFO ../10_tb/ahb_slv/ahb_slv_monitor.sv(119) @ 705000: uvm_test_top.env.ahb_agent.mon [ahb_slv_monitor] [MON][AHB][TR] AHB AHB_WRITE addr=0x1300 trans=AHB_TRANS_NONSEQ burst=AHB_BURST_INCR4 size=4B mastlock=0 resp=AHB_RESP_OKAY waits=0 | data=0xafaeadac
# UVM_INFO ../10_tb/ahb_slv/ahb_slv_driver.sv(87) @ 715000: uvm_test_top.env.ahb_agent.drv [ahb_slv_driver] [DRV][AHB][REQ] AHB_WRITE addr=0x1304 trans=AHB_TRANS_SEQ burst=AHB_BURST_INCR4 size=4B
# UVM_INFO ../10_tb/axi4_mst/axi4_mst_driver.sv(198) @ 715000: uvm_test_top.env.axi_agent.drv [axi4_mst_driver] [DRV][AXI][W] id=0x6 beat=2/4 data=0xb1b0afae strb=0xf last=0
# UVM_INFO ../10_tb/seq/ahb_slv_seq/ahb_slv_response_mapping_seq.sv(54) @ 715000: uvm_test_top.env.ahb_agent.sqr@@ahb_seq [ahb_slv_response_mapping_seq] [RSP][AHB] AHB_WRITE addr=0x1304 resp=AHB_RESP_OKAY waits=0
# UVM_INFO ../10_tb/ahb_slv/ahb_slv_driver.sv(201) @ 725000: uvm_test_top.env.ahb_agent.drv [ahb_slv_driver] [DRV][AHB][RSP] AHB_WRITE addr=0x1304 data=0xb1b0afae resp=AHB_RESP_OKAY ready_delay=0
# UVM_INFO ../10_tb/ahb_slv/ahb_slv_monitor.sv(119) @ 725000: uvm_test_top.env.ahb_agent.mon [ahb_slv_monitor] [MON][AHB][TR] AHB AHB_WRITE addr=0x1304 trans=AHB_TRANS_SEQ burst=AHB_BURST_INCR4 size=4B mastlock=0 resp=AHB_RESP_OKAY waits=0 | data=0xb1b0afae
# UVM_INFO ../10_tb/ahb_slv/ahb_slv_driver.sv(87) @ 735000: uvm_test_top.env.ahb_agent.drv [ahb_slv_driver] [DRV][AHB][REQ] AHB_WRITE addr=0x1308 trans=AHB_TRANS_SEQ burst=AHB_BURST_INCR4 size=4B
# UVM_INFO ../10_tb/axi4_mst/axi4_mst_driver.sv(198) @ 735000: uvm_test_top.env.axi_agent.drv [axi4_mst_driver] [DRV][AXI][W] id=0x6 beat=3/4 data=0xb3b2b1b0 strb=0xf last=0
# UVM_INFO ../10_tb/seq/ahb_slv_seq/ahb_slv_response_mapping_seq.sv(54) @ 735000: uvm_test_top.env.ahb_agent.sqr@@ahb_seq [ahb_slv_response_mapping_seq] [RSP][AHB] AHB_WRITE addr=0x1308 resp=AHB_RESP_OKAY waits=0
# UVM_INFO ../10_tb/ahb_slv/ahb_slv_driver.sv(201) @ 745000: uvm_test_top.env.ahb_agent.drv [ahb_slv_driver] [DRV][AHB][RSP] AHB_WRITE addr=0x1308 data=0xb3b2b1b0 resp=AHB_RESP_OKAY ready_delay=0
# UVM_INFO ../10_tb/ahb_slv/ahb_slv_monitor.sv(119) @ 745000: uvm_test_top.env.ahb_agent.mon [ahb_slv_monitor] [MON][AHB][TR] AHB AHB_WRITE addr=0x1308 trans=AHB_TRANS_SEQ burst=AHB_BURST_INCR4 size=4B mastlock=0 resp=AHB_RESP_OKAY waits=0 | data=0xb3b2b1b0
# UVM_INFO ../10_tb/ahb_slv/ahb_slv_driver.sv(87) @ 755000: uvm_test_top.env.ahb_agent.drv [ahb_slv_driver] [DRV][AHB][REQ] AHB_WRITE addr=0x130c trans=AHB_TRANS_SEQ burst=AHB_BURST_INCR4 size=4B
# UVM_INFO ../10_tb/axi4_mst/axi4_mst_driver.sv(198) @ 755000: uvm_test_top.env.axi_agent.drv [axi4_mst_driver] [DRV][AXI][W] id=0x6 beat=4/4 data=0xb5b4b3b2 strb=0xf last=1
# UVM_INFO ../10_tb/seq/ahb_slv_seq/ahb_slv_response_mapping_seq.sv(54) @ 755000: uvm_test_top.env.ahb_agent.sqr@@ahb_seq [ahb_slv_response_mapping_seq] [RSP][AHB] AHB_WRITE addr=0x130c resp=AHB_RESP_OKAY waits=0
# UVM_INFO ../10_tb/axi4_mst/axi4_mst_monitor.sv(151) @ 755000: uvm_test_top.env.axi_agent.mon [axi4_mst_monitor] [MON][AXI][REQ] AXI4 AXI4_WRITE id=0x6 addr=0x1300 burst=AXI4_BURST_INCR beats=4 size=4B lock=0
# UVM_INFO ../10_tb/env/predictor.sv(75) @ 755000: uvm_test_top.env.pred [predictor] [PRED][AXI][IN] AXI4 AXI4_WRITE id=0x6 addr=0x1300 burst=AXI4_BURST_INCR beats=4 size=4B lock=0 | queued=1
# UVM_INFO ../10_tb/env/predictor.sv(138) @ 755000: uvm_test_top.env.pred [predictor] [PRED][MAP] AXI4 AXI4_WRITE id=0x6 addr=0x1300 burst=AXI4_BURST_INCR beats=4 size=4B lock=0 -> AHB burst=AHB_BURST_INCR4 size=4B crosses_1kb=0
# UVM_INFO ../10_tb/env/predictor.sv(169) @ 755000: uvm_test_top.env.pred [predictor] [PRED][AHB] beat=1/4 | AHB AHB_WRITE addr=0x1300 trans=AHB_TRANS_NONSEQ burst=AHB_BURST_INCR4 size=4B mastlock=0 resp=AHB_RESP_OKAY waits=0 | wdata=0xafaeadac
# UVM_INFO ../10_tb/env/scoreboard.sv(359) @ 755000: uvm_test_top.env.scb [scoreboard] [SCB][AHB][PASS] AHB AHB_WRITE addr=0x1300 trans=AHB_TRANS_NONSEQ burst=AHB_BURST_INCR4 size=4B mastlock=0 resp=AHB_RESP_OKAY waits=0 | data=0xafaeadac | total=17
# UVM_INFO ../10_tb/env/predictor.sv(169) @ 755000: uvm_test_top.env.pred [predictor] [PRED][AHB] beat=2/4 | AHB AHB_WRITE addr=0x1304 trans=AHB_TRANS_SEQ burst=AHB_BURST_INCR4 size=4B mastlock=0 resp=AHB_RESP_OKAY waits=0 | wdata=0xb1b0afae
# UVM_INFO ../10_tb/env/scoreboard.sv(359) @ 755000: uvm_test_top.env.scb [scoreboard] [SCB][AHB][PASS] AHB AHB_WRITE addr=0x1304 trans=AHB_TRANS_SEQ burst=AHB_BURST_INCR4 size=4B mastlock=0 resp=AHB_RESP_OKAY waits=0 | data=0xb1b0afae | total=18
# UVM_INFO ../10_tb/env/predictor.sv(169) @ 755000: uvm_test_top.env.pred [predictor] [PRED][AHB] beat=3/4 | AHB AHB_WRITE addr=0x1308 trans=AHB_TRANS_SEQ burst=AHB_BURST_INCR4 size=4B mastlock=0 resp=AHB_RESP_OKAY waits=0 | wdata=0xb3b2b1b0
# UVM_INFO ../10_tb/env/scoreboard.sv(359) @ 755000: uvm_test_top.env.scb [scoreboard] [SCB][AHB][PASS] AHB AHB_WRITE addr=0x1308 trans=AHB_TRANS_SEQ burst=AHB_BURST_INCR4 size=4B mastlock=0 resp=AHB_RESP_OKAY waits=0 | data=0xb3b2b1b0 | total=19
# UVM_INFO ../10_tb/env/predictor.sv(169) @ 755000: uvm_test_top.env.pred [predictor] [PRED][AHB] beat=4/4 | AHB AHB_WRITE addr=0x130c trans=AHB_TRANS_SEQ burst=AHB_BURST_INCR4 size=4B mastlock=0 resp=AHB_RESP_OKAY waits=0 | wdata=0xb5b4b3b2
# UVM_INFO ../10_tb/ahb_slv/ahb_slv_driver.sv(201) @ 765000: uvm_test_top.env.ahb_agent.drv [ahb_slv_driver] [DRV][AHB][RSP] AHB_WRITE addr=0x130c data=0xb5b4b3b2 resp=AHB_RESP_OKAY ready_delay=0
# UVM_INFO ../10_tb/ahb_slv/ahb_slv_monitor.sv(119) @ 765000: uvm_test_top.env.ahb_agent.mon [ahb_slv_monitor] [MON][AHB][TR] AHB AHB_WRITE addr=0x130c trans=AHB_TRANS_SEQ burst=AHB_BURST_INCR4 size=4B mastlock=0 resp=AHB_RESP_OKAY waits=0 | data=0xb5b4b3b2
# UVM_INFO ../10_tb/env/scoreboard.sv(359) @ 765000: uvm_test_top.env.scb [scoreboard] [SCB][AHB][PASS] AHB AHB_WRITE addr=0x130c trans=AHB_TRANS_SEQ burst=AHB_BURST_INCR4 size=4B mastlock=0 resp=AHB_RESP_OKAY waits=0 | data=0xb5b4b3b2 | total=20
# UVM_INFO ../10_tb/axi4_mst/axi4_mst_driver.sv(250) @ 775000: uvm_test_top.env.axi_agent.drv [axi4_mst_driver] [DRV][AXI][B] id=0x6 resp=AXI4_RESP_OKAY
# UVM_INFO ../10_tb/axi4_mst/axi4_mst_monitor.sv(177) @ 775000: uvm_test_top.env.axi_agent.mon [axi4_mst_monitor] [MON][AXI][RSP] WRITE id=0x6 resp=AXI4_RESP_OKAY
# UVM_INFO ../10_tb/env/scoreboard.sv(499) @ 775000: uvm_test_top.env.scb [scoreboard] [SCB][AXI][PASS] AXI4 AXI4_WRITE id=0x6 addr=0x1300 burst=AXI4_BURST_INCR beats=4 size=4B lock=0 | bresp=AXI4_RESP_OKAY | total=8
# UVM_INFO ../10_tb/axi4_mst/axi4_mst_driver.sv(105) @ 775000: uvm_test_top.env.axi_agent.drv [axi4_mst_driver] [DRV][AXI][REQ] AXI4 AXI4_WRITE id=0x2 addr=0x1400 burst=AXI4_BURST_INCR beats=1 size=4B lock=0 | outstanding=1
# UVM_INFO ../10_tb/axi4_mst/axi4_mst_driver.sv(105) @ 775000: uvm_test_top.env.axi_agent.drv [axi4_mst_driver] [DRV][AXI][REQ] AXI4 AXI4_READ id=0xb addr=0x1480 burst=AXI4_BURST_INCR beats=1 size=4B lock=0 | outstanding=2
# UVM_INFO ../10_tb/axi4_mst/axi4_mst_driver.sv(225) @ 805000: uvm_test_top.env.axi_agent.drv [axi4_mst_driver] [DRV][AXI][AR] id=0xb addr=0x1480 burst=AXI4_BURST_INCR beats=1 size=4B
# UVM_INFO ../10_tb/axi4_mst/axi4_mst_monitor.sv(211) @ 805000: uvm_test_top.env.axi_agent.mon [axi4_mst_monitor] [MON][AXI][REQ] AXI4 AXI4_READ id=0xb addr=0x1480 burst=AXI4_BURST_INCR beats=1 size=4B lock=0
# UVM_INFO ../10_tb/env/predictor.sv(75) @ 805000: uvm_test_top.env.pred [predictor] [PRED][AXI][IN] AXI4 AXI4_READ id=0xb addr=0x1480 burst=AXI4_BURST_INCR beats=1 size=4B lock=0 | queued=1
# UVM_INFO ../10_tb/env/predictor.sv(138) @ 805000: uvm_test_top.env.pred [predictor] [PRED][MAP] AXI4 AXI4_READ id=0xb addr=0x1480 burst=AXI4_BURST_INCR beats=1 size=4B lock=0 -> AHB burst=AHB_BURST_SINGLE size=4B crosses_1kb=0
# UVM_INFO ../10_tb/env/predictor.sv(175) @ 805000: uvm_test_top.env.pred [predictor] [PRED][AHB] beat=1/1 | AHB AHB_READ addr=0x1480 trans=AHB_TRANS_NONSEQ burst=AHB_BURST_SINGLE size=4B mastlock=0 resp=AHB_RESP_OKAY waits=0
# UVM_INFO ../10_tb/ahb_slv/ahb_slv_driver.sv(87) @ 815000: uvm_test_top.env.ahb_agent.drv [ahb_slv_driver] [DRV][AHB][REQ] AHB_READ addr=0x1480 trans=AHB_TRANS_NONSEQ burst=AHB_BURST_SINGLE size=4B
# UVM_INFO ../10_tb/seq/ahb_slv_seq/ahb_slv_response_mapping_seq.sv(54) @ 815000: uvm_test_top.env.ahb_agent.sqr@@ahb_seq [ahb_slv_response_mapping_seq] [RSP][AHB] AHB_READ addr=0x1480 resp=AHB_RESP_OKAY waits=0
# UVM_INFO ../10_tb/ahb_slv/ahb_slv_driver.sv(201) @ 825000: uvm_test_top.env.ahb_agent.drv [ahb_slv_driver] [DRV][AHB][RSP] AHB_READ addr=0x1480 data=0xffffeb7f resp=AHB_RESP_OKAY ready_delay=0
# UVM_INFO ../10_tb/ahb_slv/ahb_slv_monitor.sv(119) @ 825000: uvm_test_top.env.ahb_agent.mon [ahb_slv_monitor] [MON][AHB][TR] AHB AHB_READ addr=0x1480 trans=AHB_TRANS_NONSEQ burst=AHB_BURST_SINGLE size=4B mastlock=0 resp=AHB_RESP_OKAY waits=0 | data=0xffffeb7f
# UVM_INFO ../10_tb/env/scoreboard.sv(359) @ 825000: uvm_test_top.env.scb [scoreboard] [SCB][AHB][PASS] AHB AHB_READ addr=0x1480 trans=AHB_TRANS_NONSEQ burst=AHB_BURST_SINGLE size=4B mastlock=0 resp=AHB_RESP_OKAY waits=0 | data=0xffffeb7f | total=21
# UVM_INFO ../10_tb/axi4_mst/axi4_mst_driver.sv(290) @ 845000: uvm_test_top.env.axi_agent.drv [axi4_mst_driver] [DRV][AXI][R] id=0xb beat=1/1 data=0xffffeb7f resp=AXI4_RESP_OKAY last=1
# UVM_INFO ../10_tb/axi4_mst/axi4_mst_monitor.sv(256) @ 845000: uvm_test_top.env.axi_agent.mon [axi4_mst_monitor] [MON][AXI][R] id=0xb beat=1/1 data=0xffffeb7f resp=AXI4_RESP_OKAY last=1
# UVM_INFO ../10_tb/axi4_mst/axi4_mst_monitor.sv(262) @ 845000: uvm_test_top.env.axi_agent.mon [axi4_mst_monitor] [MON][AXI][RSP] READ id=0xb beats=1
# UVM_INFO ../10_tb/env/scoreboard.sv(506) @ 845000: uvm_test_top.env.scb [scoreboard] [SCB][AXI][PASS] AXI4 AXI4_READ id=0xb addr=0x1480 burst=AXI4_BURST_INCR beats=1 size=4B lock=0 | read beats=1 | total=9
# UVM_INFO ../10_tb/axi4_mst/axi4_mst_driver.sv(198) @ 855000: uvm_test_top.env.axi_agent.drv [axi4_mst_driver] [DRV][AXI][W] id=0x2 beat=1/1 data=0xb3b2b1b0 strb=0xf last=1
# UVM_INFO ../10_tb/axi4_mst/axi4_mst_driver.sv(178) @ 855000: uvm_test_top.env.axi_agent.drv [axi4_mst_driver] [DRV][AXI][AW] id=0x2 addr=0x1400 burst=AXI4_BURST_INCR beats=1 size=4B
# UVM_INFO ../10_tb/axi4_mst/axi4_mst_monitor.sv(151) @ 855000: uvm_test_top.env.axi_agent.mon [axi4_mst_monitor] [MON][AXI][REQ] AXI4 AXI4_WRITE id=0x2 addr=0x1400 burst=AXI4_BURST_INCR beats=1 size=4B lock=0
# UVM_INFO ../10_tb/env/predictor.sv(75) @ 855000: uvm_test_top.env.pred [predictor] [PRED][AXI][IN] AXI4 AXI4_WRITE id=0x2 addr=0x1400 burst=AXI4_BURST_INCR beats=1 size=4B lock=0 | queued=1
# UVM_INFO ../10_tb/env/predictor.sv(138) @ 855000: uvm_test_top.env.pred [predictor] [PRED][MAP] AXI4 AXI4_WRITE id=0x2 addr=0x1400 burst=AXI4_BURST_INCR beats=1 size=4B lock=0 -> AHB burst=AHB_BURST_SINGLE size=4B crosses_1kb=0
# UVM_INFO ../10_tb/env/predictor.sv(169) @ 855000: uvm_test_top.env.pred [predictor] [PRED][AHB] beat=1/1 | AHB AHB_WRITE addr=0x1400 trans=AHB_TRANS_NONSEQ burst=AHB_BURST_SINGLE size=4B mastlock=0 resp=AHB_RESP_OKAY waits=0 | wdata=0xb3b2b1b0
# UVM_INFO ../10_tb/ahb_slv/ahb_slv_driver.sv(87) @ 865000: uvm_test_top.env.ahb_agent.drv [ahb_slv_driver] [DRV][AHB][REQ] AHB_WRITE addr=0x1400 trans=AHB_TRANS_NONSEQ burst=AHB_BURST_SINGLE size=4B
# UVM_INFO ../10_tb/seq/ahb_slv_seq/ahb_slv_response_mapping_seq.sv(54) @ 865000: uvm_test_top.env.ahb_agent.sqr@@ahb_seq [ahb_slv_response_mapping_seq] [RSP][AHB] AHB_WRITE addr=0x1400 resp=AHB_RESP_OKAY waits=0
# UVM_INFO ../10_tb/ahb_slv/ahb_slv_driver.sv(201) @ 875000: uvm_test_top.env.ahb_agent.drv [ahb_slv_driver] [DRV][AHB][RSP] AHB_WRITE addr=0x1400 data=0xb3b2b1b0 resp=AHB_RESP_OKAY ready_delay=0
# UVM_INFO ../10_tb/ahb_slv/ahb_slv_monitor.sv(119) @ 875000: uvm_test_top.env.ahb_agent.mon [ahb_slv_monitor] [MON][AHB][TR] AHB AHB_WRITE addr=0x1400 trans=AHB_TRANS_NONSEQ burst=AHB_BURST_SINGLE size=4B mastlock=0 resp=AHB_RESP_OKAY waits=0 | data=0xb3b2b1b0
# UVM_INFO ../10_tb/env/scoreboard.sv(359) @ 875000: uvm_test_top.env.scb [scoreboard] [SCB][AHB][PASS] AHB AHB_WRITE addr=0x1400 trans=AHB_TRANS_NONSEQ burst=AHB_BURST_SINGLE size=4B mastlock=0 resp=AHB_RESP_OKAY waits=0 | data=0xb3b2b1b0 | total=22
# UVM_INFO ../10_tb/axi4_mst/axi4_mst_driver.sv(250) @ 885000: uvm_test_top.env.axi_agent.drv [axi4_mst_driver] [DRV][AXI][B] id=0x2 resp=AXI4_RESP_OKAY
# UVM_INFO ../10_tb/axi4_mst/axi4_mst_monitor.sv(177) @ 885000: uvm_test_top.env.axi_agent.mon [axi4_mst_monitor] [MON][AXI][RSP] WRITE id=0x2 resp=AXI4_RESP_OKAY
# UVM_INFO ../10_tb/env/scoreboard.sv(499) @ 885000: uvm_test_top.env.scb [scoreboard] [SCB][AXI][PASS] AXI4 AXI4_WRITE id=0x2 addr=0x1400 burst=AXI4_BURST_INCR beats=1 size=4B lock=0 | bresp=AXI4_RESP_OKAY | total=10
# UVM_INFO ../10_tb/axi4_mst/axi4_mst_driver.sv(105) @ 885000: uvm_test_top.env.axi_agent.drv [axi4_mst_driver] [DRV][AXI][REQ] AXI4 AXI4_WRITE id=0x2 addr=0x1500 burst=AXI4_BURST_INCR beats=4 size=4B lock=0 | outstanding=1
# UVM_INFO ../10_tb/axi4_mst/axi4_mst_driver.sv(105) @ 885000: uvm_test_top.env.axi_agent.drv [axi4_mst_driver] [DRV][AXI][REQ] AXI4 AXI4_READ id=0x0 addr=0x1580 burst=AXI4_BURST_INCR beats=4 size=4B lock=0 | outstanding=2
# UVM_INFO ../10_tb/axi4_mst/axi4_mst_driver.sv(225) @ 915000: uvm_test_top.env.axi_agent.drv [axi4_mst_driver] [DRV][AXI][AR] id=0x0 addr=0x1580 burst=AXI4_BURST_INCR beats=4 size=4B
# UVM_INFO ../10_tb/axi4_mst/axi4_mst_monitor.sv(211) @ 915000: uvm_test_top.env.axi_agent.mon [axi4_mst_monitor] [MON][AXI][REQ] AXI4 AXI4_READ id=0x0 addr=0x1580 burst=AXI4_BURST_INCR beats=4 size=4B lock=0
# UVM_INFO ../10_tb/env/predictor.sv(75) @ 915000: uvm_test_top.env.pred [predictor] [PRED][AXI][IN] AXI4 AXI4_READ id=0x0 addr=0x1580 burst=AXI4_BURST_INCR beats=4 size=4B lock=0 | queued=1
# UVM_INFO ../10_tb/env/predictor.sv(138) @ 915000: uvm_test_top.env.pred [predictor] [PRED][MAP] AXI4 AXI4_READ id=0x0 addr=0x1580 burst=AXI4_BURST_INCR beats=4 size=4B lock=0 -> AHB burst=AHB_BURST_INCR4 size=4B crosses_1kb=0
# UVM_INFO ../10_tb/env/predictor.sv(175) @ 915000: uvm_test_top.env.pred [predictor] [PRED][AHB] beat=1/4 | AHB AHB_READ addr=0x1580 trans=AHB_TRANS_NONSEQ burst=AHB_BURST_INCR4 size=4B mastlock=0 resp=AHB_RESP_OKAY waits=0
# UVM_INFO ../10_tb/env/predictor.sv(175) @ 915000: uvm_test_top.env.pred [predictor] [PRED][AHB] beat=2/4 | AHB AHB_READ addr=0x1584 trans=AHB_TRANS_SEQ burst=AHB_BURST_INCR4 size=4B mastlock=0 resp=AHB_RESP_OKAY waits=0
# UVM_INFO ../10_tb/env/predictor.sv(175) @ 915000: uvm_test_top.env.pred [predictor] [PRED][AHB] beat=3/4 | AHB AHB_READ addr=0x1588 trans=AHB_TRANS_SEQ burst=AHB_BURST_INCR4 size=4B mastlock=0 resp=AHB_RESP_OKAY waits=0
# UVM_INFO ../10_tb/env/predictor.sv(175) @ 915000: uvm_test_top.env.pred [predictor] [PRED][AHB] beat=4/4 | AHB AHB_READ addr=0x158c trans=AHB_TRANS_SEQ burst=AHB_BURST_INCR4 size=4B mastlock=0 resp=AHB_RESP_OKAY waits=0
# UVM_INFO ../10_tb/ahb_slv/ahb_slv_driver.sv(87) @ 925000: uvm_test_top.env.ahb_agent.drv [ahb_slv_driver] [DRV][AHB][REQ] AHB_READ addr=0x1580 trans=AHB_TRANS_NONSEQ burst=AHB_BURST_INCR4 size=4B
# UVM_INFO ../10_tb/seq/ahb_slv_seq/ahb_slv_response_mapping_seq.sv(54) @ 925000: uvm_test_top.env.ahb_agent.sqr@@ahb_seq [ahb_slv_response_mapping_seq] [RSP][AHB] AHB_READ addr=0x1580 resp=AHB_RESP_OKAY waits=0
# UVM_INFO ../10_tb/ahb_slv/ahb_slv_driver.sv(201) @ 935000: uvm_test_top.env.ahb_agent.drv [ahb_slv_driver] [DRV][AHB][RSP] AHB_READ addr=0x1580 data=0xffffea7f resp=AHB_RESP_OKAY ready_delay=0
# UVM_INFO ../10_tb/ahb_slv/ahb_slv_monitor.sv(119) @ 935000: uvm_test_top.env.ahb_agent.mon [ahb_slv_monitor] [MON][AHB][TR] AHB AHB_READ addr=0x1580 trans=AHB_TRANS_NONSEQ burst=AHB_BURST_INCR4 size=4B mastlock=0 resp=AHB_RESP_OKAY waits=0 | data=0xffffea7f
# UVM_INFO ../10_tb/env/scoreboard.sv(359) @ 935000: uvm_test_top.env.scb [scoreboard] [SCB][AHB][PASS] AHB AHB_READ addr=0x1580 trans=AHB_TRANS_NONSEQ burst=AHB_BURST_INCR4 size=4B mastlock=0 resp=AHB_RESP_OKAY waits=0 | data=0xffffea7f | total=23
# UVM_INFO ../10_tb/ahb_slv/ahb_slv_driver.sv(87) @ 945000: uvm_test_top.env.ahb_agent.drv [ahb_slv_driver] [DRV][AHB][REQ] AHB_READ addr=0x1584 trans=AHB_TRANS_SEQ burst=AHB_BURST_INCR4 size=4B
# UVM_INFO ../10_tb/seq/ahb_slv_seq/ahb_slv_response_mapping_seq.sv(54) @ 945000: uvm_test_top.env.ahb_agent.sqr@@ahb_seq [ahb_slv_response_mapping_seq] [RSP][AHB] AHB_READ addr=0x1584 resp=AHB_RESP_OKAY waits=0
# UVM_INFO ../10_tb/ahb_slv/ahb_slv_driver.sv(201) @ 955000: uvm_test_top.env.ahb_agent.drv [ahb_slv_driver] [DRV][AHB][RSP] AHB_READ addr=0x1584 data=0xffffea7b resp=AHB_RESP_OKAY ready_delay=0
# UVM_INFO ../10_tb/ahb_slv/ahb_slv_monitor.sv(119) @ 955000: uvm_test_top.env.ahb_agent.mon [ahb_slv_monitor] [MON][AHB][TR] AHB AHB_READ addr=0x1584 trans=AHB_TRANS_SEQ burst=AHB_BURST_INCR4 size=4B mastlock=0 resp=AHB_RESP_OKAY waits=0 | data=0xffffea7b
# UVM_INFO ../10_tb/env/scoreboard.sv(359) @ 955000: uvm_test_top.env.scb [scoreboard] [SCB][AHB][PASS] AHB AHB_READ addr=0x1584 trans=AHB_TRANS_SEQ burst=AHB_BURST_INCR4 size=4B mastlock=0 resp=AHB_RESP_OKAY waits=0 | data=0xffffea7b | total=24
# UVM_INFO ../10_tb/axi4_mst/axi4_mst_driver.sv(290) @ 955000: uvm_test_top.env.axi_agent.drv [axi4_mst_driver] [DRV][AXI][R] id=0x0 beat=1/4 data=0xffffea7f resp=AXI4_RESP_OKAY last=0
# UVM_INFO ../10_tb/axi4_mst/axi4_mst_monitor.sv(256) @ 955000: uvm_test_top.env.axi_agent.mon [axi4_mst_monitor] [MON][AXI][R] id=0x0 beat=1/4 data=0xffffea7f resp=AXI4_RESP_OKAY last=0
# UVM_INFO ../10_tb/ahb_slv/ahb_slv_driver.sv(87) @ 965000: uvm_test_top.env.ahb_agent.drv [ahb_slv_driver] [DRV][AHB][REQ] AHB_READ addr=0x1588 trans=AHB_TRANS_SEQ burst=AHB_BURST_INCR4 size=4B
# UVM_INFO ../10_tb/seq/ahb_slv_seq/ahb_slv_response_mapping_seq.sv(54) @ 965000: uvm_test_top.env.ahb_agent.sqr@@ahb_seq [ahb_slv_response_mapping_seq] [RSP][AHB] AHB_READ addr=0x1588 resp=AHB_RESP_OKAY waits=0
# UVM_INFO ../10_tb/ahb_slv/ahb_slv_driver.sv(201) @ 975000: uvm_test_top.env.ahb_agent.drv [ahb_slv_driver] [DRV][AHB][RSP] AHB_READ addr=0x1588 data=0xffffea77 resp=AHB_RESP_OKAY ready_delay=0
# UVM_INFO ../10_tb/ahb_slv/ahb_slv_monitor.sv(119) @ 975000: uvm_test_top.env.ahb_agent.mon [ahb_slv_monitor] [MON][AHB][TR] AHB AHB_READ addr=0x1588 trans=AHB_TRANS_SEQ burst=AHB_BURST_INCR4 size=4B mastlock=0 resp=AHB_RESP_OKAY waits=0 | data=0xffffea77
# UVM_INFO ../10_tb/env/scoreboard.sv(359) @ 975000: uvm_test_top.env.scb [scoreboard] [SCB][AHB][PASS] AHB AHB_READ addr=0x1588 trans=AHB_TRANS_SEQ burst=AHB_BURST_INCR4 size=4B mastlock=0 resp=AHB_RESP_OKAY waits=0 | data=0xffffea77 | total=25
# UVM_INFO ../10_tb/axi4_mst/axi4_mst_driver.sv(290) @ 975000: uvm_test_top.env.axi_agent.drv [axi4_mst_driver] [DRV][AXI][R] id=0x0 beat=2/4 data=0xffffea7b resp=AXI4_RESP_OKAY last=0
# UVM_INFO ../10_tb/axi4_mst/axi4_mst_monitor.sv(256) @ 975000: uvm_test_top.env.axi_agent.mon [axi4_mst_monitor] [MON][AXI][R] id=0x0 beat=2/4 data=0xffffea7b resp=AXI4_RESP_OKAY last=0
# UVM_INFO ../10_tb/ahb_slv/ahb_slv_driver.sv(87) @ 985000: uvm_test_top.env.ahb_agent.drv [ahb_slv_driver] [DRV][AHB][REQ] AHB_READ addr=0x158c trans=AHB_TRANS_SEQ burst=AHB_BURST_INCR4 size=4B
# UVM_INFO ../10_tb/seq/ahb_slv_seq/ahb_slv_response_mapping_seq.sv(54) @ 985000: uvm_test_top.env.ahb_agent.sqr@@ahb_seq [ahb_slv_response_mapping_seq] [RSP][AHB] AHB_READ addr=0x158c resp=AHB_RESP_OKAY waits=0
# UVM_INFO ../10_tb/ahb_slv/ahb_slv_driver.sv(201) @ 995000: uvm_test_top.env.ahb_agent.drv [ahb_slv_driver] [DRV][AHB][RSP] AHB_READ addr=0x158c data=0xffffea73 resp=AHB_RESP_OKAY ready_delay=0
# UVM_INFO ../10_tb/ahb_slv/ahb_slv_monitor.sv(119) @ 995000: uvm_test_top.env.ahb_agent.mon [ahb_slv_monitor] [MON][AHB][TR] AHB AHB_READ addr=0x158c trans=AHB_TRANS_SEQ burst=AHB_BURST_INCR4 size=4B mastlock=0 resp=AHB_RESP_OKAY waits=0 | data=0xffffea73
# UVM_INFO ../10_tb/env/scoreboard.sv(359) @ 995000: uvm_test_top.env.scb [scoreboard] [SCB][AHB][PASS] AHB AHB_READ addr=0x158c trans=AHB_TRANS_SEQ burst=AHB_BURST_INCR4 size=4B mastlock=0 resp=AHB_RESP_OKAY waits=0 | data=0xffffea73 | total=26
# UVM_INFO ../10_tb/axi4_mst/axi4_mst_driver.sv(290) @ 995000: uvm_test_top.env.axi_agent.drv [axi4_mst_driver] [DRV][AXI][R] id=0x0 beat=3/4 data=0xffffea77 resp=AXI4_RESP_OKAY last=0
# UVM_INFO ../10_tb/axi4_mst/axi4_mst_monitor.sv(256) @ 995000: uvm_test_top.env.axi_agent.mon [axi4_mst_monitor] [MON][AXI][R] id=0x0 beat=3/4 data=0xffffea77 resp=AXI4_RESP_OKAY last=0
# UVM_INFO ../10_tb/axi4_mst/axi4_mst_driver.sv(290) @ 1015000: uvm_test_top.env.axi_agent.drv [axi4_mst_driver] [DRV][AXI][R] id=0x0 beat=4/4 data=0xffffea73 resp=AXI4_RESP_OKAY last=1
# UVM_INFO ../10_tb/axi4_mst/axi4_mst_monitor.sv(256) @ 1015000: uvm_test_top.env.axi_agent.mon [axi4_mst_monitor] [MON][AXI][R] id=0x0 beat=4/4 data=0xffffea73 resp=AXI4_RESP_OKAY last=1
# UVM_INFO ../10_tb/axi4_mst/axi4_mst_monitor.sv(262) @ 1015000: uvm_test_top.env.axi_agent.mon [axi4_mst_monitor] [MON][AXI][RSP] READ id=0x0 beats=4
# UVM_INFO ../10_tb/env/scoreboard.sv(506) @ 1015000: uvm_test_top.env.scb [scoreboard] [SCB][AXI][PASS] AXI4 AXI4_READ id=0x0 addr=0x1580 burst=AXI4_BURST_INCR beats=4 size=4B lock=0 | read beats=4 | total=11
# UVM_INFO ../10_tb/axi4_mst/axi4_mst_driver.sv(198) @ 1025000: uvm_test_top.env.axi_agent.drv [axi4_mst_driver] [DRV][AXI][W] id=0x2 beat=1/4 data=0xb7b6b5b4 strb=0xf last=0
# UVM_INFO ../10_tb/axi4_mst/axi4_mst_driver.sv(178) @ 1025000: uvm_test_top.env.axi_agent.drv [axi4_mst_driver] [DRV][AXI][AW] id=0x2 addr=0x1500 burst=AXI4_BURST_INCR beats=4 size=4B
# UVM_INFO ../10_tb/ahb_slv/ahb_slv_driver.sv(87) @ 1035000: uvm_test_top.env.ahb_agent.drv [ahb_slv_driver] [DRV][AHB][REQ] AHB_WRITE addr=0x1500 trans=AHB_TRANS_NONSEQ burst=AHB_BURST_INCR4 size=4B
# UVM_INFO ../10_tb/seq/ahb_slv_seq/ahb_slv_response_mapping_seq.sv(54) @ 1035000: uvm_test_top.env.ahb_agent.sqr@@ahb_seq [ahb_slv_response_mapping_seq] [RSP][AHB] AHB_WRITE addr=0x1500 resp=AHB_RESP_OKAY waits=0
# UVM_INFO ../10_tb/ahb_slv/ahb_slv_driver.sv(201) @ 1045000: uvm_test_top.env.ahb_agent.drv [ahb_slv_driver] [DRV][AHB][RSP] AHB_WRITE addr=0x1500 data=0xb7b6b5b4 resp=AHB_RESP_OKAY ready_delay=0
# UVM_INFO ../10_tb/ahb_slv/ahb_slv_monitor.sv(119) @ 1045000: uvm_test_top.env.ahb_agent.mon [ahb_slv_monitor] [MON][AHB][TR] AHB AHB_WRITE addr=0x1500 trans=AHB_TRANS_NONSEQ burst=AHB_BURST_INCR4 size=4B mastlock=0 resp=AHB_RESP_OKAY waits=0 | data=0xb7b6b5b4
# UVM_INFO ../10_tb/ahb_slv/ahb_slv_driver.sv(87) @ 1055000: uvm_test_top.env.ahb_agent.drv [ahb_slv_driver] [DRV][AHB][REQ] AHB_WRITE addr=0x1504 trans=AHB_TRANS_SEQ burst=AHB_BURST_INCR4 size=4B
# UVM_INFO ../10_tb/axi4_mst/axi4_mst_driver.sv(198) @ 1055000: uvm_test_top.env.axi_agent.drv [axi4_mst_driver] [DRV][AXI][W] id=0x2 beat=2/4 data=0xb9b8b7b6 strb=0xf last=0
# UVM_INFO ../10_tb/seq/ahb_slv_seq/ahb_slv_response_mapping_seq.sv(54) @ 1055000: uvm_test_top.env.ahb_agent.sqr@@ahb_seq [ahb_slv_response_mapping_seq] [RSP][AHB] AHB_WRITE addr=0x1504 resp=AHB_RESP_OKAY waits=0
# UVM_INFO ../10_tb/ahb_slv/ahb_slv_driver.sv(201) @ 1065000: uvm_test_top.env.ahb_agent.drv [ahb_slv_driver] [DRV][AHB][RSP] AHB_WRITE addr=0x1504 data=0xb9b8b7b6 resp=AHB_RESP_OKAY ready_delay=0
# UVM_INFO ../10_tb/ahb_slv/ahb_slv_monitor.sv(119) @ 1065000: uvm_test_top.env.ahb_agent.mon [ahb_slv_monitor] [MON][AHB][TR] AHB AHB_WRITE addr=0x1504 trans=AHB_TRANS_SEQ burst=AHB_BURST_INCR4 size=4B mastlock=0 resp=AHB_RESP_OKAY waits=0 | data=0xb9b8b7b6
# UVM_INFO ../10_tb/ahb_slv/ahb_slv_driver.sv(87) @ 1075000: uvm_test_top.env.ahb_agent.drv [ahb_slv_driver] [DRV][AHB][REQ] AHB_WRITE addr=0x1508 trans=AHB_TRANS_SEQ burst=AHB_BURST_INCR4 size=4B
# UVM_INFO ../10_tb/axi4_mst/axi4_mst_driver.sv(198) @ 1075000: uvm_test_top.env.axi_agent.drv [axi4_mst_driver] [DRV][AXI][W] id=0x2 beat=3/4 data=0xbbbab9b8 strb=0xf last=0
# UVM_INFO ../10_tb/seq/ahb_slv_seq/ahb_slv_response_mapping_seq.sv(54) @ 1075000: uvm_test_top.env.ahb_agent.sqr@@ahb_seq [ahb_slv_response_mapping_seq] [RSP][AHB] AHB_WRITE addr=0x1508 resp=AHB_RESP_OKAY waits=0
# UVM_INFO ../10_tb/ahb_slv/ahb_slv_driver.sv(201) @ 1085000: uvm_test_top.env.ahb_agent.drv [ahb_slv_driver] [DRV][AHB][RSP] AHB_WRITE addr=0x1508 data=0xbbbab9b8 resp=AHB_RESP_OKAY ready_delay=0
# UVM_INFO ../10_tb/ahb_slv/ahb_slv_monitor.sv(119) @ 1085000: uvm_test_top.env.ahb_agent.mon [ahb_slv_monitor] [MON][AHB][TR] AHB AHB_WRITE addr=0x1508 trans=AHB_TRANS_SEQ burst=AHB_BURST_INCR4 size=4B mastlock=0 resp=AHB_RESP_OKAY waits=0 | data=0xbbbab9b8
# UVM_INFO ../10_tb/ahb_slv/ahb_slv_driver.sv(87) @ 1095000: uvm_test_top.env.ahb_agent.drv [ahb_slv_driver] [DRV][AHB][REQ] AHB_WRITE addr=0x150c trans=AHB_TRANS_SEQ burst=AHB_BURST_INCR4 size=4B
# UVM_INFO ../10_tb/axi4_mst/axi4_mst_driver.sv(198) @ 1095000: uvm_test_top.env.axi_agent.drv [axi4_mst_driver] [DRV][AXI][W] id=0x2 beat=4/4 data=0xbdbcbbba strb=0xf last=1
# UVM_INFO ../10_tb/seq/ahb_slv_seq/ahb_slv_response_mapping_seq.sv(54) @ 1095000: uvm_test_top.env.ahb_agent.sqr@@ahb_seq [ahb_slv_response_mapping_seq] [RSP][AHB] AHB_WRITE addr=0x150c resp=AHB_RESP_OKAY waits=0
# UVM_INFO ../10_tb/axi4_mst/axi4_mst_monitor.sv(151) @ 1095000: uvm_test_top.env.axi_agent.mon [axi4_mst_monitor] [MON][AXI][REQ] AXI4 AXI4_WRITE id=0x2 addr=0x1500 burst=AXI4_BURST_INCR beats=4 size=4B lock=0
# UVM_INFO ../10_tb/env/predictor.sv(75) @ 1095000: uvm_test_top.env.pred [predictor] [PRED][AXI][IN] AXI4 AXI4_WRITE id=0x2 addr=0x1500 burst=AXI4_BURST_INCR beats=4 size=4B lock=0 | queued=1
# UVM_INFO ../10_tb/env/predictor.sv(138) @ 1095000: uvm_test_top.env.pred [predictor] [PRED][MAP] AXI4 AXI4_WRITE id=0x2 addr=0x1500 burst=AXI4_BURST_INCR beats=4 size=4B lock=0 -> AHB burst=AHB_BURST_INCR4 size=4B crosses_1kb=0
# UVM_INFO ../10_tb/env/predictor.sv(169) @ 1095000: uvm_test_top.env.pred [predictor] [PRED][AHB] beat=1/4 | AHB AHB_WRITE addr=0x1500 trans=AHB_TRANS_NONSEQ burst=AHB_BURST_INCR4 size=4B mastlock=0 resp=AHB_RESP_OKAY waits=0 | wdata=0xb7b6b5b4
# UVM_INFO ../10_tb/env/scoreboard.sv(359) @ 1095000: uvm_test_top.env.scb [scoreboard] [SCB][AHB][PASS] AHB AHB_WRITE addr=0x1500 trans=AHB_TRANS_NONSEQ burst=AHB_BURST_INCR4 size=4B mastlock=0 resp=AHB_RESP_OKAY waits=0 | data=0xb7b6b5b4 | total=27
# UVM_INFO ../10_tb/env/predictor.sv(169) @ 1095000: uvm_test_top.env.pred [predictor] [PRED][AHB] beat=2/4 | AHB AHB_WRITE addr=0x1504 trans=AHB_TRANS_SEQ burst=AHB_BURST_INCR4 size=4B mastlock=0 resp=AHB_RESP_OKAY waits=0 | wdata=0xb9b8b7b6
# UVM_INFO ../10_tb/env/scoreboard.sv(359) @ 1095000: uvm_test_top.env.scb [scoreboard] [SCB][AHB][PASS] AHB AHB_WRITE addr=0x1504 trans=AHB_TRANS_SEQ burst=AHB_BURST_INCR4 size=4B mastlock=0 resp=AHB_RESP_OKAY waits=0 | data=0xb9b8b7b6 | total=28
# UVM_INFO ../10_tb/env/predictor.sv(169) @ 1095000: uvm_test_top.env.pred [predictor] [PRED][AHB] beat=3/4 | AHB AHB_WRITE addr=0x1508 trans=AHB_TRANS_SEQ burst=AHB_BURST_INCR4 size=4B mastlock=0 resp=AHB_RESP_OKAY waits=0 | wdata=0xbbbab9b8
# UVM_INFO ../10_tb/env/scoreboard.sv(359) @ 1095000: uvm_test_top.env.scb [scoreboard] [SCB][AHB][PASS] AHB AHB_WRITE addr=0x1508 trans=AHB_TRANS_SEQ burst=AHB_BURST_INCR4 size=4B mastlock=0 resp=AHB_RESP_OKAY waits=0 | data=0xbbbab9b8 | total=29
# UVM_INFO ../10_tb/env/predictor.sv(169) @ 1095000: uvm_test_top.env.pred [predictor] [PRED][AHB] beat=4/4 | AHB AHB_WRITE addr=0x150c trans=AHB_TRANS_SEQ burst=AHB_BURST_INCR4 size=4B mastlock=0 resp=AHB_RESP_OKAY waits=0 | wdata=0xbdbcbbba
# UVM_INFO ../10_tb/ahb_slv/ahb_slv_driver.sv(201) @ 1105000: uvm_test_top.env.ahb_agent.drv [ahb_slv_driver] [DRV][AHB][RSP] AHB_WRITE addr=0x150c data=0xbdbcbbba resp=AHB_RESP_OKAY ready_delay=0
# UVM_INFO ../10_tb/ahb_slv/ahb_slv_monitor.sv(119) @ 1105000: uvm_test_top.env.ahb_agent.mon [ahb_slv_monitor] [MON][AHB][TR] AHB AHB_WRITE addr=0x150c trans=AHB_TRANS_SEQ burst=AHB_BURST_INCR4 size=4B mastlock=0 resp=AHB_RESP_OKAY waits=0 | data=0xbdbcbbba
# UVM_INFO ../10_tb/env/scoreboard.sv(359) @ 1105000: uvm_test_top.env.scb [scoreboard] [SCB][AHB][PASS] AHB AHB_WRITE addr=0x150c trans=AHB_TRANS_SEQ burst=AHB_BURST_INCR4 size=4B mastlock=0 resp=AHB_RESP_OKAY waits=0 | data=0xbdbcbbba | total=30
# UVM_INFO ../10_tb/axi4_mst/axi4_mst_driver.sv(250) @ 1115000: uvm_test_top.env.axi_agent.drv [axi4_mst_driver] [DRV][AXI][B] id=0x2 resp=AXI4_RESP_OKAY
# UVM_INFO ../10_tb/axi4_mst/axi4_mst_monitor.sv(177) @ 1115000: uvm_test_top.env.axi_agent.mon [axi4_mst_monitor] [MON][AXI][RSP] WRITE id=0x2 resp=AXI4_RESP_OKAY
# UVM_INFO ../10_tb/env/scoreboard.sv(499) @ 1115000: uvm_test_top.env.scb [scoreboard] [SCB][AXI][PASS] AXI4 AXI4_WRITE id=0x2 addr=0x1500 burst=AXI4_BURST_INCR beats=4 size=4B lock=0 | bresp=AXI4_RESP_OKAY | total=12
# UVM_INFO ../10_tb/axi4_mst/axi4_mst_driver.sv(105) @ 1115000: uvm_test_top.env.axi_agent.drv [axi4_mst_driver] [DRV][AXI][REQ] AXI4 AXI4_WRITE id=0x9 addr=0x1600 burst=AXI4_BURST_INCR beats=4 size=4B lock=0 | outstanding=1
# UVM_INFO ../10_tb/axi4_mst/axi4_mst_driver.sv(105) @ 1115000: uvm_test_top.env.axi_agent.drv [axi4_mst_driver] [DRV][AXI][REQ] AXI4 AXI4_READ id=0xb addr=0x1680 burst=AXI4_BURST_INCR beats=1 size=4B lock=0 | outstanding=2
# UVM_INFO ../10_tb/axi4_mst/axi4_mst_driver.sv(225) @ 1145000: uvm_test_top.env.axi_agent.drv [axi4_mst_driver] [DRV][AXI][AR] id=0xb addr=0x1680 burst=AXI4_BURST_INCR beats=1 size=4B
# UVM_INFO ../10_tb/axi4_mst/axi4_mst_monitor.sv(211) @ 1145000: uvm_test_top.env.axi_agent.mon [axi4_mst_monitor] [MON][AXI][REQ] AXI4 AXI4_READ id=0xb addr=0x1680 burst=AXI4_BURST_INCR beats=1 size=4B lock=0
# UVM_INFO ../10_tb/env/predictor.sv(75) @ 1145000: uvm_test_top.env.pred [predictor] [PRED][AXI][IN] AXI4 AXI4_READ id=0xb addr=0x1680 burst=AXI4_BURST_INCR beats=1 size=4B lock=0 | queued=1
# UVM_INFO ../10_tb/env/predictor.sv(138) @ 1145000: uvm_test_top.env.pred [predictor] [PRED][MAP] AXI4 AXI4_READ id=0xb addr=0x1680 burst=AXI4_BURST_INCR beats=1 size=4B lock=0 -> AHB burst=AHB_BURST_SINGLE size=4B crosses_1kb=0
# UVM_INFO ../10_tb/env/predictor.sv(175) @ 1145000: uvm_test_top.env.pred [predictor] [PRED][AHB] beat=1/1 | AHB AHB_READ addr=0x1680 trans=AHB_TRANS_NONSEQ burst=AHB_BURST_SINGLE size=4B mastlock=0 resp=AHB_RESP_OKAY waits=0
# UVM_INFO ../10_tb/ahb_slv/ahb_slv_driver.sv(87) @ 1155000: uvm_test_top.env.ahb_agent.drv [ahb_slv_driver] [DRV][AHB][REQ] AHB_READ addr=0x1680 trans=AHB_TRANS_NONSEQ burst=AHB_BURST_SINGLE size=4B
# UVM_INFO ../10_tb/seq/ahb_slv_seq/ahb_slv_response_mapping_seq.sv(54) @ 1155000: uvm_test_top.env.ahb_agent.sqr@@ahb_seq [ahb_slv_response_mapping_seq] [RSP][AHB] AHB_READ addr=0x1680 resp=AHB_RESP_OKAY waits=0
# UVM_INFO ../10_tb/ahb_slv/ahb_slv_driver.sv(201) @ 1165000: uvm_test_top.env.ahb_agent.drv [ahb_slv_driver] [DRV][AHB][RSP] AHB_READ addr=0x1680 data=0xffffe97f resp=AHB_RESP_OKAY ready_delay=0
# UVM_INFO ../10_tb/ahb_slv/ahb_slv_monitor.sv(119) @ 1165000: uvm_test_top.env.ahb_agent.mon [ahb_slv_monitor] [MON][AHB][TR] AHB AHB_READ addr=0x1680 trans=AHB_TRANS_NONSEQ burst=AHB_BURST_SINGLE size=4B mastlock=0 resp=AHB_RESP_OKAY waits=0 | data=0xffffe97f
# UVM_INFO ../10_tb/env/scoreboard.sv(359) @ 1165000: uvm_test_top.env.scb [scoreboard] [SCB][AHB][PASS] AHB AHB_READ addr=0x1680 trans=AHB_TRANS_NONSEQ burst=AHB_BURST_SINGLE size=4B mastlock=0 resp=AHB_RESP_OKAY waits=0 | data=0xffffe97f | total=31
# UVM_INFO ../10_tb/axi4_mst/axi4_mst_driver.sv(290) @ 1185000: uvm_test_top.env.axi_agent.drv [axi4_mst_driver] [DRV][AXI][R] id=0xb beat=1/1 data=0xffffe97f resp=AXI4_RESP_OKAY last=1
# UVM_INFO ../10_tb/axi4_mst/axi4_mst_monitor.sv(256) @ 1185000: uvm_test_top.env.axi_agent.mon [axi4_mst_monitor] [MON][AXI][R] id=0xb beat=1/1 data=0xffffe97f resp=AXI4_RESP_OKAY last=1
# UVM_INFO ../10_tb/axi4_mst/axi4_mst_monitor.sv(262) @ 1185000: uvm_test_top.env.axi_agent.mon [axi4_mst_monitor] [MON][AXI][RSP] READ id=0xb beats=1
# UVM_INFO ../10_tb/env/scoreboard.sv(506) @ 1185000: uvm_test_top.env.scb [scoreboard] [SCB][AXI][PASS] AXI4 AXI4_READ id=0xb addr=0x1680 burst=AXI4_BURST_INCR beats=1 size=4B lock=0 | read beats=1 | total=13
# UVM_INFO ../10_tb/axi4_mst/axi4_mst_driver.sv(198) @ 1195000: uvm_test_top.env.axi_agent.drv [axi4_mst_driver] [DRV][AXI][W] id=0x9 beat=1/4 data=0xbbbab9b8 strb=0xf last=0
# UVM_INFO ../10_tb/axi4_mst/axi4_mst_driver.sv(178) @ 1195000: uvm_test_top.env.axi_agent.drv [axi4_mst_driver] [DRV][AXI][AW] id=0x9 addr=0x1600 burst=AXI4_BURST_INCR beats=4 size=4B
# UVM_INFO ../10_tb/ahb_slv/ahb_slv_driver.sv(87) @ 1205000: uvm_test_top.env.ahb_agent.drv [ahb_slv_driver] [DRV][AHB][REQ] AHB_WRITE addr=0x1600 trans=AHB_TRANS_NONSEQ burst=AHB_BURST_INCR4 size=4B
# UVM_INFO ../10_tb/seq/ahb_slv_seq/ahb_slv_response_mapping_seq.sv(54) @ 1205000: uvm_test_top.env.ahb_agent.sqr@@ahb_seq [ahb_slv_response_mapping_seq] [RSP][AHB] AHB_WRITE addr=0x1600 resp=AHB_RESP_OKAY waits=0
# UVM_INFO ../10_tb/ahb_slv/ahb_slv_driver.sv(201) @ 1215000: uvm_test_top.env.ahb_agent.drv [ahb_slv_driver] [DRV][AHB][RSP] AHB_WRITE addr=0x1600 data=0xbbbab9b8 resp=AHB_RESP_OKAY ready_delay=0
# UVM_INFO ../10_tb/ahb_slv/ahb_slv_monitor.sv(119) @ 1215000: uvm_test_top.env.ahb_agent.mon [ahb_slv_monitor] [MON][AHB][TR] AHB AHB_WRITE addr=0x1600 trans=AHB_TRANS_NONSEQ burst=AHB_BURST_INCR4 size=4B mastlock=0 resp=AHB_RESP_OKAY waits=0 | data=0xbbbab9b8
# UVM_INFO ../10_tb/ahb_slv/ahb_slv_driver.sv(87) @ 1225000: uvm_test_top.env.ahb_agent.drv [ahb_slv_driver] [DRV][AHB][REQ] AHB_WRITE addr=0x1604 trans=AHB_TRANS_SEQ burst=AHB_BURST_INCR4 size=4B
# UVM_INFO ../10_tb/axi4_mst/axi4_mst_driver.sv(198) @ 1225000: uvm_test_top.env.axi_agent.drv [axi4_mst_driver] [DRV][AXI][W] id=0x9 beat=2/4 data=0xbdbcbbba strb=0xf last=0
# UVM_INFO ../10_tb/seq/ahb_slv_seq/ahb_slv_response_mapping_seq.sv(54) @ 1225000: uvm_test_top.env.ahb_agent.sqr@@ahb_seq [ahb_slv_response_mapping_seq] [RSP][AHB] AHB_WRITE addr=0x1604 resp=AHB_RESP_OKAY waits=0
# UVM_INFO ../10_tb/ahb_slv/ahb_slv_driver.sv(201) @ 1235000: uvm_test_top.env.ahb_agent.drv [ahb_slv_driver] [DRV][AHB][RSP] AHB_WRITE addr=0x1604 data=0xbdbcbbba resp=AHB_RESP_OKAY ready_delay=0
# UVM_INFO ../10_tb/ahb_slv/ahb_slv_monitor.sv(119) @ 1235000: uvm_test_top.env.ahb_agent.mon [ahb_slv_monitor] [MON][AHB][TR] AHB AHB_WRITE addr=0x1604 trans=AHB_TRANS_SEQ burst=AHB_BURST_INCR4 size=4B mastlock=0 resp=AHB_RESP_OKAY waits=0 | data=0xbdbcbbba
# UVM_INFO ../10_tb/ahb_slv/ahb_slv_driver.sv(87) @ 1245000: uvm_test_top.env.ahb_agent.drv [ahb_slv_driver] [DRV][AHB][REQ] AHB_WRITE addr=0x1608 trans=AHB_TRANS_SEQ burst=AHB_BURST_INCR4 size=4B
# UVM_INFO ../10_tb/axi4_mst/axi4_mst_driver.sv(198) @ 1245000: uvm_test_top.env.axi_agent.drv [axi4_mst_driver] [DRV][AXI][W] id=0x9 beat=3/4 data=0xbfbebdbc strb=0xf last=0
# UVM_INFO ../10_tb/seq/ahb_slv_seq/ahb_slv_response_mapping_seq.sv(54) @ 1245000: uvm_test_top.env.ahb_agent.sqr@@ahb_seq [ahb_slv_response_mapping_seq] [RSP][AHB] AHB_WRITE addr=0x1608 resp=AHB_RESP_OKAY waits=0
# UVM_INFO ../10_tb/ahb_slv/ahb_slv_driver.sv(201) @ 1255000: uvm_test_top.env.ahb_agent.drv [ahb_slv_driver] [DRV][AHB][RSP] AHB_WRITE addr=0x1608 data=0xbfbebdbc resp=AHB_RESP_OKAY ready_delay=0
# UVM_INFO ../10_tb/ahb_slv/ahb_slv_monitor.sv(119) @ 1255000: uvm_test_top.env.ahb_agent.mon [ahb_slv_monitor] [MON][AHB][TR] AHB AHB_WRITE addr=0x1608 trans=AHB_TRANS_SEQ burst=AHB_BURST_INCR4 size=4B mastlock=0 resp=AHB_RESP_OKAY waits=0 | data=0xbfbebdbc
# UVM_INFO ../10_tb/ahb_slv/ahb_slv_driver.sv(87) @ 1265000: uvm_test_top.env.ahb_agent.drv [ahb_slv_driver] [DRV][AHB][REQ] AHB_WRITE addr=0x160c trans=AHB_TRANS_SEQ burst=AHB_BURST_INCR4 size=4B
# UVM_INFO ../10_tb/axi4_mst/axi4_mst_driver.sv(198) @ 1265000: uvm_test_top.env.axi_agent.drv [axi4_mst_driver] [DRV][AXI][W] id=0x9 beat=4/4 data=0xc1c0bfbe strb=0xf last=1
# UVM_INFO ../10_tb/seq/ahb_slv_seq/ahb_slv_response_mapping_seq.sv(54) @ 1265000: uvm_test_top.env.ahb_agent.sqr@@ahb_seq [ahb_slv_response_mapping_seq] [RSP][AHB] AHB_WRITE addr=0x160c resp=AHB_RESP_OKAY waits=0
# UVM_INFO ../10_tb/axi4_mst/axi4_mst_monitor.sv(151) @ 1265000: uvm_test_top.env.axi_agent.mon [axi4_mst_monitor] [MON][AXI][REQ] AXI4 AXI4_WRITE id=0x9 addr=0x1600 burst=AXI4_BURST_INCR beats=4 size=4B lock=0
# UVM_INFO ../10_tb/env/predictor.sv(75) @ 1265000: uvm_test_top.env.pred [predictor] [PRED][AXI][IN] AXI4 AXI4_WRITE id=0x9 addr=0x1600 burst=AXI4_BURST_INCR beats=4 size=4B lock=0 | queued=1
# UVM_INFO ../10_tb/env/predictor.sv(138) @ 1265000: uvm_test_top.env.pred [predictor] [PRED][MAP] AXI4 AXI4_WRITE id=0x9 addr=0x1600 burst=AXI4_BURST_INCR beats=4 size=4B lock=0 -> AHB burst=AHB_BURST_INCR4 size=4B crosses_1kb=0
# UVM_INFO ../10_tb/env/predictor.sv(169) @ 1265000: uvm_test_top.env.pred [predictor] [PRED][AHB] beat=1/4 | AHB AHB_WRITE addr=0x1600 trans=AHB_TRANS_NONSEQ burst=AHB_BURST_INCR4 size=4B mastlock=0 resp=AHB_RESP_OKAY waits=0 | wdata=0xbbbab9b8
# UVM_INFO ../10_tb/env/scoreboard.sv(359) @ 1265000: uvm_test_top.env.scb [scoreboard] [SCB][AHB][PASS] AHB AHB_WRITE addr=0x1600 trans=AHB_TRANS_NONSEQ burst=AHB_BURST_INCR4 size=4B mastlock=0 resp=AHB_RESP_OKAY waits=0 | data=0xbbbab9b8 | total=32
# UVM_INFO ../10_tb/env/predictor.sv(169) @ 1265000: uvm_test_top.env.pred [predictor] [PRED][AHB] beat=2/4 | AHB AHB_WRITE addr=0x1604 trans=AHB_TRANS_SEQ burst=AHB_BURST_INCR4 size=4B mastlock=0 resp=AHB_RESP_OKAY waits=0 | wdata=0xbdbcbbba
# UVM_INFO ../10_tb/env/scoreboard.sv(359) @ 1265000: uvm_test_top.env.scb [scoreboard] [SCB][AHB][PASS] AHB AHB_WRITE addr=0x1604 trans=AHB_TRANS_SEQ burst=AHB_BURST_INCR4 size=4B mastlock=0 resp=AHB_RESP_OKAY waits=0 | data=0xbdbcbbba | total=33
# UVM_INFO ../10_tb/env/predictor.sv(169) @ 1265000: uvm_test_top.env.pred [predictor] [PRED][AHB] beat=3/4 | AHB AHB_WRITE addr=0x1608 trans=AHB_TRANS_SEQ burst=AHB_BURST_INCR4 size=4B mastlock=0 resp=AHB_RESP_OKAY waits=0 | wdata=0xbfbebdbc
# UVM_INFO ../10_tb/env/scoreboard.sv(359) @ 1265000: uvm_test_top.env.scb [scoreboard] [SCB][AHB][PASS] AHB AHB_WRITE addr=0x1608 trans=AHB_TRANS_SEQ burst=AHB_BURST_INCR4 size=4B mastlock=0 resp=AHB_RESP_OKAY waits=0 | data=0xbfbebdbc | total=34
# UVM_INFO ../10_tb/env/predictor.sv(169) @ 1265000: uvm_test_top.env.pred [predictor] [PRED][AHB] beat=4/4 | AHB AHB_WRITE addr=0x160c trans=AHB_TRANS_SEQ burst=AHB_BURST_INCR4 size=4B mastlock=0 resp=AHB_RESP_OKAY waits=0 | wdata=0xc1c0bfbe
# UVM_INFO ../10_tb/ahb_slv/ahb_slv_driver.sv(201) @ 1275000: uvm_test_top.env.ahb_agent.drv [ahb_slv_driver] [DRV][AHB][RSP] AHB_WRITE addr=0x160c data=0xc1c0bfbe resp=AHB_RESP_OKAY ready_delay=0
# UVM_INFO ../10_tb/ahb_slv/ahb_slv_monitor.sv(119) @ 1275000: uvm_test_top.env.ahb_agent.mon [ahb_slv_monitor] [MON][AHB][TR] AHB AHB_WRITE addr=0x160c trans=AHB_TRANS_SEQ burst=AHB_BURST_INCR4 size=4B mastlock=0 resp=AHB_RESP_OKAY waits=0 | data=0xc1c0bfbe
# UVM_INFO ../10_tb/env/scoreboard.sv(359) @ 1275000: uvm_test_top.env.scb [scoreboard] [SCB][AHB][PASS] AHB AHB_WRITE addr=0x160c trans=AHB_TRANS_SEQ burst=AHB_BURST_INCR4 size=4B mastlock=0 resp=AHB_RESP_OKAY waits=0 | data=0xc1c0bfbe | total=35
# UVM_INFO ../10_tb/axi4_mst/axi4_mst_driver.sv(250) @ 1285000: uvm_test_top.env.axi_agent.drv [axi4_mst_driver] [DRV][AXI][B] id=0x9 resp=AXI4_RESP_OKAY
# UVM_INFO ../10_tb/axi4_mst/axi4_mst_monitor.sv(177) @ 1285000: uvm_test_top.env.axi_agent.mon [axi4_mst_monitor] [MON][AXI][RSP] WRITE id=0x9 resp=AXI4_RESP_OKAY
# UVM_INFO ../10_tb/env/scoreboard.sv(499) @ 1285000: uvm_test_top.env.scb [scoreboard] [SCB][AXI][PASS] AXI4 AXI4_WRITE id=0x9 addr=0x1600 burst=AXI4_BURST_INCR beats=4 size=4B lock=0 | bresp=AXI4_RESP_OKAY | total=14
# UVM_INFO ../10_tb/axi4_mst/axi4_mst_driver.sv(105) @ 1285000: uvm_test_top.env.axi_agent.drv [axi4_mst_driver] [DRV][AXI][REQ] AXI4 AXI4_WRITE id=0xb addr=0x1700 burst=AXI4_BURST_INCR beats=4 size=4B lock=0 | outstanding=1
# UVM_INFO ../10_tb/axi4_mst/axi4_mst_driver.sv(105) @ 1285000: uvm_test_top.env.axi_agent.drv [axi4_mst_driver] [DRV][AXI][REQ] AXI4 AXI4_READ id=0xb addr=0x1780 burst=AXI4_BURST_INCR beats=4 size=4B lock=0 | outstanding=2
# UVM_INFO ../10_tb/axi4_mst/axi4_mst_driver.sv(225) @ 1315000: uvm_test_top.env.axi_agent.drv [axi4_mst_driver] [DRV][AXI][AR] id=0xb addr=0x1780 burst=AXI4_BURST_INCR beats=4 size=4B
# UVM_INFO ../10_tb/axi4_mst/axi4_mst_monitor.sv(211) @ 1315000: uvm_test_top.env.axi_agent.mon [axi4_mst_monitor] [MON][AXI][REQ] AXI4 AXI4_READ id=0xb addr=0x1780 burst=AXI4_BURST_INCR beats=4 size=4B lock=0
# UVM_INFO ../10_tb/env/predictor.sv(75) @ 1315000: uvm_test_top.env.pred [predictor] [PRED][AXI][IN] AXI4 AXI4_READ id=0xb addr=0x1780 burst=AXI4_BURST_INCR beats=4 size=4B lock=0 | queued=1
# UVM_INFO ../10_tb/env/predictor.sv(138) @ 1315000: uvm_test_top.env.pred [predictor] [PRED][MAP] AXI4 AXI4_READ id=0xb addr=0x1780 burst=AXI4_BURST_INCR beats=4 size=4B lock=0 -> AHB burst=AHB_BURST_INCR4 size=4B crosses_1kb=0
# UVM_INFO ../10_tb/env/predictor.sv(175) @ 1315000: uvm_test_top.env.pred [predictor] [PRED][AHB] beat=1/4 | AHB AHB_READ addr=0x1780 trans=AHB_TRANS_NONSEQ burst=AHB_BURST_INCR4 size=4B mastlock=0 resp=AHB_RESP_OKAY waits=0
# UVM_INFO ../10_tb/env/predictor.sv(175) @ 1315000: uvm_test_top.env.pred [predictor] [PRED][AHB] beat=2/4 | AHB AHB_READ addr=0x1784 trans=AHB_TRANS_SEQ burst=AHB_BURST_INCR4 size=4B mastlock=0 resp=AHB_RESP_OKAY waits=0
# UVM_INFO ../10_tb/env/predictor.sv(175) @ 1315000: uvm_test_top.env.pred [predictor] [PRED][AHB] beat=3/4 | AHB AHB_READ addr=0x1788 trans=AHB_TRANS_SEQ burst=AHB_BURST_INCR4 size=4B mastlock=0 resp=AHB_RESP_OKAY waits=0
# UVM_INFO ../10_tb/env/predictor.sv(175) @ 1315000: uvm_test_top.env.pred [predictor] [PRED][AHB] beat=4/4 | AHB AHB_READ addr=0x178c trans=AHB_TRANS_SEQ burst=AHB_BURST_INCR4 size=4B mastlock=0 resp=AHB_RESP_OKAY waits=0
# UVM_INFO ../10_tb/ahb_slv/ahb_slv_driver.sv(87) @ 1325000: uvm_test_top.env.ahb_agent.drv [ahb_slv_driver] [DRV][AHB][REQ] AHB_READ addr=0x1780 trans=AHB_TRANS_NONSEQ burst=AHB_BURST_INCR4 size=4B
# UVM_INFO ../10_tb/seq/ahb_slv_seq/ahb_slv_response_mapping_seq.sv(54) @ 1325000: uvm_test_top.env.ahb_agent.sqr@@ahb_seq [ahb_slv_response_mapping_seq] [RSP][AHB] AHB_READ addr=0x1780 resp=AHB_RESP_OKAY waits=1
# UVM_INFO ../10_tb/ahb_slv/ahb_slv_driver.sv(201) @ 1345000: uvm_test_top.env.ahb_agent.drv [ahb_slv_driver] [DRV][AHB][RSP] AHB_READ addr=0x1780 data=0xffffe87f resp=AHB_RESP_OKAY ready_delay=1
# UVM_INFO ../10_tb/ahb_slv/ahb_slv_monitor.sv(119) @ 1345000: uvm_test_top.env.ahb_agent.mon [ahb_slv_monitor] [MON][AHB][TR] AHB AHB_READ addr=0x1780 trans=AHB_TRANS_NONSEQ burst=AHB_BURST_INCR4 size=4B mastlock=0 resp=AHB_RESP_OKAY waits=1 | data=0xffffe87f
# UVM_INFO ../10_tb/env/scoreboard.sv(359) @ 1345000: uvm_test_top.env.scb [scoreboard] [SCB][AHB][PASS] AHB AHB_READ addr=0x1780 trans=AHB_TRANS_NONSEQ burst=AHB_BURST_INCR4 size=4B mastlock=0 resp=AHB_RESP_OKAY waits=1 | data=0xffffe87f | total=36
# UVM_INFO ../10_tb/ahb_slv/ahb_slv_driver.sv(87) @ 1355000: uvm_test_top.env.ahb_agent.drv [ahb_slv_driver] [DRV][AHB][REQ] AHB_READ addr=0x1784 trans=AHB_TRANS_SEQ burst=AHB_BURST_INCR4 size=4B
# UVM_INFO ../10_tb/seq/ahb_slv_seq/ahb_slv_response_mapping_seq.sv(54) @ 1355000: uvm_test_top.env.ahb_agent.sqr@@ahb_seq [ahb_slv_response_mapping_seq] [RSP][AHB] AHB_READ addr=0x1784 resp=AHB_RESP_OKAY waits=1
# UVM_INFO ../10_tb/axi4_mst/axi4_mst_driver.sv(290) @ 1365000: uvm_test_top.env.axi_agent.drv [axi4_mst_driver] [DRV][AXI][R] id=0xb beat=1/4 data=0xffffe87f resp=AXI4_RESP_OKAY last=0
# UVM_INFO ../10_tb/axi4_mst/axi4_mst_monitor.sv(256) @ 1365000: uvm_test_top.env.axi_agent.mon [axi4_mst_monitor] [MON][AXI][R] id=0xb beat=1/4 data=0xffffe87f resp=AXI4_RESP_OKAY last=0
# UVM_INFO ../10_tb/ahb_slv/ahb_slv_driver.sv(201) @ 1375000: uvm_test_top.env.ahb_agent.drv [ahb_slv_driver] [DRV][AHB][RSP] AHB_READ addr=0x1784 data=0xffffe87b resp=AHB_RESP_OKAY ready_delay=1
# UVM_INFO ../10_tb/ahb_slv/ahb_slv_monitor.sv(119) @ 1375000: uvm_test_top.env.ahb_agent.mon [ahb_slv_monitor] [MON][AHB][TR] AHB AHB_READ addr=0x1784 trans=AHB_TRANS_SEQ burst=AHB_BURST_INCR4 size=4B mastlock=0 resp=AHB_RESP_OKAY waits=1 | data=0xffffe87b
# UVM_INFO ../10_tb/env/scoreboard.sv(359) @ 1375000: uvm_test_top.env.scb [scoreboard] [SCB][AHB][PASS] AHB AHB_READ addr=0x1784 trans=AHB_TRANS_SEQ burst=AHB_BURST_INCR4 size=4B mastlock=0 resp=AHB_RESP_OKAY waits=1 | data=0xffffe87b | total=37
# UVM_INFO ../10_tb/ahb_slv/ahb_slv_driver.sv(87) @ 1385000: uvm_test_top.env.ahb_agent.drv [ahb_slv_driver] [DRV][AHB][REQ] AHB_READ addr=0x1788 trans=AHB_TRANS_SEQ burst=AHB_BURST_INCR4 size=4B
# UVM_INFO ../10_tb/seq/ahb_slv_seq/ahb_slv_response_mapping_seq.sv(54) @ 1385000: uvm_test_top.env.ahb_agent.sqr@@ahb_seq [ahb_slv_response_mapping_seq] [RSP][AHB] AHB_READ addr=0x1788 resp=AHB_RESP_OKAY waits=1
# UVM_INFO ../10_tb/axi4_mst/axi4_mst_driver.sv(290) @ 1395000: uvm_test_top.env.axi_agent.drv [axi4_mst_driver] [DRV][AXI][R] id=0xb beat=2/4 data=0xffffe87b resp=AXI4_RESP_OKAY last=0
# UVM_INFO ../10_tb/axi4_mst/axi4_mst_monitor.sv(256) @ 1395000: uvm_test_top.env.axi_agent.mon [axi4_mst_monitor] [MON][AXI][R] id=0xb beat=2/4 data=0xffffe87b resp=AXI4_RESP_OKAY last=0
# UVM_INFO ../10_tb/ahb_slv/ahb_slv_driver.sv(201) @ 1405000: uvm_test_top.env.ahb_agent.drv [ahb_slv_driver] [DRV][AHB][RSP] AHB_READ addr=0x1788 data=0xffffe877 resp=AHB_RESP_OKAY ready_delay=1
# UVM_INFO ../10_tb/ahb_slv/ahb_slv_monitor.sv(119) @ 1405000: uvm_test_top.env.ahb_agent.mon [ahb_slv_monitor] [MON][AHB][TR] AHB AHB_READ addr=0x1788 trans=AHB_TRANS_SEQ burst=AHB_BURST_INCR4 size=4B mastlock=0 resp=AHB_RESP_OKAY waits=1 | data=0xffffe877
# UVM_INFO ../10_tb/env/scoreboard.sv(359) @ 1405000: uvm_test_top.env.scb [scoreboard] [SCB][AHB][PASS] AHB AHB_READ addr=0x1788 trans=AHB_TRANS_SEQ burst=AHB_BURST_INCR4 size=4B mastlock=0 resp=AHB_RESP_OKAY waits=1 | data=0xffffe877 | total=38
# UVM_INFO ../10_tb/ahb_slv/ahb_slv_driver.sv(87) @ 1415000: uvm_test_top.env.ahb_agent.drv [ahb_slv_driver] [DRV][AHB][REQ] AHB_READ addr=0x178c trans=AHB_TRANS_SEQ burst=AHB_BURST_INCR4 size=4B
# UVM_INFO ../10_tb/seq/ahb_slv_seq/ahb_slv_response_mapping_seq.sv(54) @ 1415000: uvm_test_top.env.ahb_agent.sqr@@ahb_seq [ahb_slv_response_mapping_seq] [RSP][AHB] AHB_READ addr=0x178c resp=AHB_RESP_OKAY waits=1
# UVM_INFO ../10_tb/axi4_mst/axi4_mst_driver.sv(290) @ 1425000: uvm_test_top.env.axi_agent.drv [axi4_mst_driver] [DRV][AXI][R] id=0xb beat=3/4 data=0xffffe877 resp=AXI4_RESP_OKAY last=0
# UVM_INFO ../10_tb/axi4_mst/axi4_mst_monitor.sv(256) @ 1425000: uvm_test_top.env.axi_agent.mon [axi4_mst_monitor] [MON][AXI][R] id=0xb beat=3/4 data=0xffffe877 resp=AXI4_RESP_OKAY last=0
# UVM_INFO ../10_tb/ahb_slv/ahb_slv_driver.sv(201) @ 1435000: uvm_test_top.env.ahb_agent.drv [ahb_slv_driver] [DRV][AHB][RSP] AHB_READ addr=0x178c data=0xffffe873 resp=AHB_RESP_OKAY ready_delay=1
# UVM_INFO ../10_tb/ahb_slv/ahb_slv_monitor.sv(119) @ 1435000: uvm_test_top.env.ahb_agent.mon [ahb_slv_monitor] [MON][AHB][TR] AHB AHB_READ addr=0x178c trans=AHB_TRANS_SEQ burst=AHB_BURST_INCR4 size=4B mastlock=0 resp=AHB_RESP_OKAY waits=1 | data=0xffffe873
# UVM_INFO ../10_tb/env/scoreboard.sv(359) @ 1435000: uvm_test_top.env.scb [scoreboard] [SCB][AHB][PASS] AHB AHB_READ addr=0x178c trans=AHB_TRANS_SEQ burst=AHB_BURST_INCR4 size=4B mastlock=0 resp=AHB_RESP_OKAY waits=1 | data=0xffffe873 | total=39
# UVM_INFO ../10_tb/axi4_mst/axi4_mst_driver.sv(290) @ 1455000: uvm_test_top.env.axi_agent.drv [axi4_mst_driver] [DRV][AXI][R] id=0xb beat=4/4 data=0xffffe873 resp=AXI4_RESP_OKAY last=1
# UVM_INFO ../10_tb/axi4_mst/axi4_mst_monitor.sv(256) @ 1455000: uvm_test_top.env.axi_agent.mon [axi4_mst_monitor] [MON][AXI][R] id=0xb beat=4/4 data=0xffffe873 resp=AXI4_RESP_OKAY last=1
# UVM_INFO ../10_tb/axi4_mst/axi4_mst_monitor.sv(262) @ 1455000: uvm_test_top.env.axi_agent.mon [axi4_mst_monitor] [MON][AXI][RSP] READ id=0xb beats=4
# UVM_INFO ../10_tb/env/scoreboard.sv(506) @ 1455000: uvm_test_top.env.scb [scoreboard] [SCB][AXI][PASS] AXI4 AXI4_READ id=0xb addr=0x1780 burst=AXI4_BURST_INCR beats=4 size=4B lock=0 | read beats=4 | total=15
# UVM_INFO ../10_tb/axi4_mst/axi4_mst_driver.sv(178) @ 1465000: uvm_test_top.env.axi_agent.drv [axi4_mst_driver] [DRV][AXI][AW] id=0xb addr=0x1700 burst=AXI4_BURST_INCR beats=4 size=4B
# UVM_INFO ../10_tb/axi4_mst/axi4_mst_driver.sv(198) @ 1465000: uvm_test_top.env.axi_agent.drv [axi4_mst_driver] [DRV][AXI][W] id=0xb beat=1/4 data=0xbfbebdbc strb=0xf last=0
# UVM_INFO ../10_tb/ahb_slv/ahb_slv_driver.sv(87) @ 1475000: uvm_test_top.env.ahb_agent.drv [ahb_slv_driver] [DRV][AHB][REQ] AHB_WRITE addr=0x1700 trans=AHB_TRANS_NONSEQ burst=AHB_BURST_INCR4 size=4B
# UVM_INFO ../10_tb/seq/ahb_slv_seq/ahb_slv_response_mapping_seq.sv(54) @ 1475000: uvm_test_top.env.ahb_agent.sqr@@ahb_seq [ahb_slv_response_mapping_seq] [RSP][AHB] AHB_WRITE addr=0x1700 resp=AHB_RESP_OKAY waits=1
# UVM_INFO ../10_tb/ahb_slv/ahb_slv_driver.sv(201) @ 1495000: uvm_test_top.env.ahb_agent.drv [ahb_slv_driver] [DRV][AHB][RSP] AHB_WRITE addr=0x1700 data=0xbfbebdbc resp=AHB_RESP_OKAY ready_delay=1
# UVM_INFO ../10_tb/ahb_slv/ahb_slv_monitor.sv(119) @ 1495000: uvm_test_top.env.ahb_agent.mon [ahb_slv_monitor] [MON][AHB][TR] AHB AHB_WRITE addr=0x1700 trans=AHB_TRANS_NONSEQ burst=AHB_BURST_INCR4 size=4B mastlock=0 resp=AHB_RESP_OKAY waits=1 | data=0xbfbebdbc
# UVM_INFO ../10_tb/ahb_slv/ahb_slv_driver.sv(87) @ 1505000: uvm_test_top.env.ahb_agent.drv [ahb_slv_driver] [DRV][AHB][REQ] AHB_WRITE addr=0x1704 trans=AHB_TRANS_SEQ burst=AHB_BURST_INCR4 size=4B
# UVM_INFO ../10_tb/axi4_mst/axi4_mst_driver.sv(198) @ 1505000: uvm_test_top.env.axi_agent.drv [axi4_mst_driver] [DRV][AXI][W] id=0xb beat=2/4 data=0xc1c0bfbe strb=0xf last=0
# UVM_INFO ../10_tb/seq/ahb_slv_seq/ahb_slv_response_mapping_seq.sv(54) @ 1505000: uvm_test_top.env.ahb_agent.sqr@@ahb_seq [ahb_slv_response_mapping_seq] [RSP][AHB] AHB_WRITE addr=0x1704 resp=AHB_RESP_OKAY waits=1
# UVM_INFO ../10_tb/ahb_slv/ahb_slv_driver.sv(201) @ 1525000: uvm_test_top.env.ahb_agent.drv [ahb_slv_driver] [DRV][AHB][RSP] AHB_WRITE addr=0x1704 data=0xc1c0bfbe resp=AHB_RESP_OKAY ready_delay=1
# UVM_INFO ../10_tb/ahb_slv/ahb_slv_monitor.sv(119) @ 1525000: uvm_test_top.env.ahb_agent.mon [ahb_slv_monitor] [MON][AHB][TR] AHB AHB_WRITE addr=0x1704 trans=AHB_TRANS_SEQ burst=AHB_BURST_INCR4 size=4B mastlock=0 resp=AHB_RESP_OKAY waits=1 | data=0xc1c0bfbe
# UVM_INFO ../10_tb/ahb_slv/ahb_slv_driver.sv(87) @ 1535000: uvm_test_top.env.ahb_agent.drv [ahb_slv_driver] [DRV][AHB][REQ] AHB_WRITE addr=0x1708 trans=AHB_TRANS_SEQ burst=AHB_BURST_INCR4 size=4B
# UVM_INFO ../10_tb/axi4_mst/axi4_mst_driver.sv(198) @ 1535000: uvm_test_top.env.axi_agent.drv [axi4_mst_driver] [DRV][AXI][W] id=0xb beat=3/4 data=0xc3c2c1c0 strb=0xf last=0
# UVM_INFO ../10_tb/seq/ahb_slv_seq/ahb_slv_response_mapping_seq.sv(54) @ 1535000: uvm_test_top.env.ahb_agent.sqr@@ahb_seq [ahb_slv_response_mapping_seq] [RSP][AHB] AHB_WRITE addr=0x1708 resp=AHB_RESP_OKAY waits=1
# UVM_INFO ../10_tb/ahb_slv/ahb_slv_driver.sv(201) @ 1555000: uvm_test_top.env.ahb_agent.drv [ahb_slv_driver] [DRV][AHB][RSP] AHB_WRITE addr=0x1708 data=0xc3c2c1c0 resp=AHB_RESP_OKAY ready_delay=1
# UVM_INFO ../10_tb/ahb_slv/ahb_slv_monitor.sv(119) @ 1555000: uvm_test_top.env.ahb_agent.mon [ahb_slv_monitor] [MON][AHB][TR] AHB AHB_WRITE addr=0x1708 trans=AHB_TRANS_SEQ burst=AHB_BURST_INCR4 size=4B mastlock=0 resp=AHB_RESP_OKAY waits=1 | data=0xc3c2c1c0
# UVM_INFO ../10_tb/ahb_slv/ahb_slv_driver.sv(87) @ 1565000: uvm_test_top.env.ahb_agent.drv [ahb_slv_driver] [DRV][AHB][REQ] AHB_WRITE addr=0x170c trans=AHB_TRANS_SEQ burst=AHB_BURST_INCR4 size=4B
# UVM_INFO ../10_tb/axi4_mst/axi4_mst_driver.sv(198) @ 1565000: uvm_test_top.env.axi_agent.drv [axi4_mst_driver] [DRV][AXI][W] id=0xb beat=4/4 data=0xc5c4c3c2 strb=0xf last=1
# UVM_INFO ../10_tb/seq/ahb_slv_seq/ahb_slv_response_mapping_seq.sv(54) @ 1565000: uvm_test_top.env.ahb_agent.sqr@@ahb_seq [ahb_slv_response_mapping_seq] [RSP][AHB] AHB_WRITE addr=0x170c resp=AHB_RESP_OKAY waits=1
# UVM_INFO ../10_tb/axi4_mst/axi4_mst_monitor.sv(151) @ 1565000: uvm_test_top.env.axi_agent.mon [axi4_mst_monitor] [MON][AXI][REQ] AXI4 AXI4_WRITE id=0xb addr=0x1700 burst=AXI4_BURST_INCR beats=4 size=4B lock=0
# UVM_INFO ../10_tb/env/predictor.sv(75) @ 1565000: uvm_test_top.env.pred [predictor] [PRED][AXI][IN] AXI4 AXI4_WRITE id=0xb addr=0x1700 burst=AXI4_BURST_INCR beats=4 size=4B lock=0 | queued=1
# UVM_INFO ../10_tb/env/predictor.sv(138) @ 1565000: uvm_test_top.env.pred [predictor] [PRED][MAP] AXI4 AXI4_WRITE id=0xb addr=0x1700 burst=AXI4_BURST_INCR beats=4 size=4B lock=0 -> AHB burst=AHB_BURST_INCR4 size=4B crosses_1kb=0
# UVM_INFO ../10_tb/env/predictor.sv(169) @ 1565000: uvm_test_top.env.pred [predictor] [PRED][AHB] beat=1/4 | AHB AHB_WRITE addr=0x1700 trans=AHB_TRANS_NONSEQ burst=AHB_BURST_INCR4 size=4B mastlock=0 resp=AHB_RESP_OKAY waits=0 | wdata=0xbfbebdbc
# UVM_INFO ../10_tb/env/scoreboard.sv(359) @ 1565000: uvm_test_top.env.scb [scoreboard] [SCB][AHB][PASS] AHB AHB_WRITE addr=0x1700 trans=AHB_TRANS_NONSEQ burst=AHB_BURST_INCR4 size=4B mastlock=0 resp=AHB_RESP_OKAY waits=1 | data=0xbfbebdbc | total=40
# UVM_INFO ../10_tb/env/predictor.sv(169) @ 1565000: uvm_test_top.env.pred [predictor] [PRED][AHB] beat=2/4 | AHB AHB_WRITE addr=0x1704 trans=AHB_TRANS_SEQ burst=AHB_BURST_INCR4 size=4B mastlock=0 resp=AHB_RESP_OKAY waits=0 | wdata=0xc1c0bfbe
# UVM_INFO ../10_tb/env/scoreboard.sv(359) @ 1565000: uvm_test_top.env.scb [scoreboard] [SCB][AHB][PASS] AHB AHB_WRITE addr=0x1704 trans=AHB_TRANS_SEQ burst=AHB_BURST_INCR4 size=4B mastlock=0 resp=AHB_RESP_OKAY waits=1 | data=0xc1c0bfbe | total=41
# UVM_INFO ../10_tb/env/predictor.sv(169) @ 1565000: uvm_test_top.env.pred [predictor] [PRED][AHB] beat=3/4 | AHB AHB_WRITE addr=0x1708 trans=AHB_TRANS_SEQ burst=AHB_BURST_INCR4 size=4B mastlock=0 resp=AHB_RESP_OKAY waits=0 | wdata=0xc3c2c1c0
# UVM_INFO ../10_tb/env/scoreboard.sv(359) @ 1565000: uvm_test_top.env.scb [scoreboard] [SCB][AHB][PASS] AHB AHB_WRITE addr=0x1708 trans=AHB_TRANS_SEQ burst=AHB_BURST_INCR4 size=4B mastlock=0 resp=AHB_RESP_OKAY waits=1 | data=0xc3c2c1c0 | total=42
