# vsim -c -coverage -sv_seed 41614265 "+UVM_TESTNAME=bridge_random_stress_test" "+UVM_VERBOSITY=UVM_HIGH" -l report/logs/bridge_random_stress_test_run_3_seed_41614265.log -wlf report/wlf/bridge_random_stress_test_run_3_seed_41614265.wlf -do "coverage save -onexit report/coverage/bridge_random_stress_test_run_3_seed_41614265.ucdb; run -all; quit -f" work.opt_bridge_tb_top 
# Start time: 08:52:38 on Oct 01,2026
# //  Questa Sim-64
# //  Version 10.6b linux_x86_64 May 25 2017
# //
# //  Copyright 1991-2017 Mentor Graphics Corporation
# //  All Rights Reserved.
# //
# //  QuestaSim and its associated documentation contain trade
# //  secrets and commercial or financial information that are the property of
# //  Mentor Graphics Corporation and are privileged, confidential,
# //  and exempt from disclosure under the Freedom of Information Act,
# //  5 U.S.C. Section 552. Furthermore, this information
# //  is prohibited from disclosure under the Trade Secrets Act,
# //  18 U.S.C. Section 1905.
# //
# Loading sv_std.std
# Loading work.axi4_if(fast)
# Loading work.ahb_if(fast)
# Loading mtiUvm.uvm_pkg
# Loading work.bridge_vip_pkg(fast)
# Loading work.bridge_seq_pkg(fast)
# Loading work.bridge_test_pkg(fast)
# Loading work.bridge_tb_top(fast)
# Loading work.axi4_if(fast)
# Loading work.ahb_if(fast)
# Loading work.axi_ahblite_bridge(fast)
# Loading work.ahb_skid_buf(fast)
# Loading work.axi_slv_if(fast)
# Loading work.ahb_mstr_if(fast)
# Loading work.time_out(fast)
# Loading work.axi4_sva(fast)
# Loading work.ahb_sva(fast)
# Loading mtiUvm.questa_uvm_pkg(fast)
# Loading /cadtools/mentor/Questa_10.6b/questasim/uvm-1.1d/linux_x86_64/uvm_dpi.so
# coverage save -onexit report/coverage/bridge_random_stress_test_run_3_seed_41614265.ucdb
#  run -all
# ----------------------------------------------------------------
# UVM-1.1d
# (C) 2007-2013 Mentor Graphics Corporation
# (C) 2007-2013 Cadence Design Systems, Inc.
# (C) 2006-2013 Synopsys, Inc.
# (C) 2011-2013 Cypress Semiconductor Corp.
# ----------------------------------------------------------------
# 
#   ***********       IMPORTANT RELEASE NOTES         ************
# 
#   You are using a version of the UVM library that has been compiled
#   with `UVM_NO_DEPRECATED undefined.
#   See http://www.eda.org/svdb/view.php?id=3313 for more details.
# 
#   You are using a version of the UVM library that has been compiled
#   with `UVM_OBJECT_MUST_HAVE_CONSTRUCTOR undefined.
#   See http://www.eda.org/svdb/view.php?id=3770 for more details.
# 
#       (Specify +UVM_NO_RELNOTES to turn off this notice)
# 
# UVM_INFO verilog_src/questa_uvm_pkg-1.2/src/questa_uvm_pkg.sv(215) @ 0: reporter [Questa UVM] QUESTA_UVM-1.2.3
# UVM_INFO verilog_src/questa_uvm_pkg-1.2/src/questa_uvm_pkg.sv(217) @ 0: reporter [Questa UVM]  questa_uvm::init(+struct)
# UVM_INFO @ 0: reporter [RNTST] Running test bridge_random_stress_test...
# UVM_INFO @ 0: reporter [UVMTOP] UVM testbench topology:
# -------------------------------------------------------------------------
# Name                       Type                               Size  Value
# -------------------------------------------------------------------------
# uvm_test_top               bridge_random_stress_test          -     @490 
#   env                      vip_env                            -     @508 
#     ahb_agent              ahb_slv_agent                      -     @529 
#       ap                   uvm_analysis_port                  -     @667 
#       cov                  ahb_slv_coverage                   -     @693 
#         analysis_imp       uvm_analysis_imp                   -     @700 
#         trans_export       uvm_analysis_imp_ahb_trans         -     @841 
#       drv                  ahb_slv_driver                     -     @818 
#         rsp_port           uvm_analysis_port                  -     @833 
#         seq_item_port      uvm_seq_item_pull_port             -     @825 
#       mon                  ahb_slv_monitor                    -     @686 
#         ap                 uvm_analysis_port                  -     @850 
#         trans_ap           uvm_analysis_port                  -     @858 
#       sqr                  ahb_slv_sequencer                  -     @709 
#         rsp_export         uvm_analysis_export                -     @716 
#         seq_item_export    uvm_seq_item_pull_imp              -     @810 
#         arbitration_queue  array                              0     -    
#         lock_queue         array                              0     -    
#         num_last_reqs      integral                           32    'd1  
#         num_last_rsps      integral                           32    'd1  
#       trans_ap             uvm_analysis_port                  -     @675 
#     axi_agent              axi4_mst_agent                     -     @522 
#       ap                   uvm_analysis_port                  -     @881 
#       cov                  axi4_mst_coverage                  -     @899 
#         analysis_imp       uvm_analysis_imp                   -     @906 
#       drv                  axi4_mst_driver                    -     @1024
#         rsp_port           uvm_analysis_port                  -     @1039
#         seq_item_port      uvm_seq_item_pull_port             -     @1031
#       mon                  axi4_mst_monitor                   -     @892 
#         ap                 uvm_analysis_port                  -     @1056
#         req_ap             uvm_analysis_port                  -     @1048
#       req_ap               uvm_analysis_port                  -     @873 
#       sqr                  axi4_mst_sequencer                 -     @915 
#         rsp_export         uvm_analysis_export                -     @922 
#         seq_item_export    uvm_seq_item_pull_imp              -     @1016
#         arbitration_queue  array                              0     -    
#         lock_queue         array                              0     -    
#         num_last_reqs      integral                           32    'd1  
#         num_last_rsps      integral                           32    'd1  
#     cov                    e2e_cov                            -     @659 
#       actual_ahb_export    uvm_analysis_imp_e2e_actual_ahb    -     @1086
#       axi_req_export       uvm_analysis_imp_e2e_axi_req       -     @1070
#       axi_rsp_export       uvm_analysis_imp_e2e_axi_rsp       -     @1094
#       expected_ahb_export  uvm_analysis_imp_e2e_expected_ahb  -     @1078
#     pred                   predictor                          -     @645 
#       axi_request_export   uvm_analysis_imp_axi_request       -     @1102
#       expected_ahb_ap      uvm_analysis_port                  -     @1110
#       expected_axi_ap      uvm_analysis_port                  -     @1118
#     scb                    scoreboard                         -     @652 
#       actual_ahb_export    uvm_analysis_imp_actual_ahb        -     @1134
#       actual_axi_export    uvm_analysis_imp_actual_axi        -     @1150
#       expected_ahb_export  uvm_analysis_imp_expected_ahb      -     @1126
#       expected_axi_export  uvm_analysis_imp_expected_axi      -     @1142
#     vseqr                  virtual_sequencer                  -     @536 
#       rsp_export           uvm_analysis_export                -     @543 
#       seq_item_export      uvm_seq_item_pull_imp              -     @637 
#       arbitration_queue    array                              0     -    
#       lock_queue           array                              0     -    
#       num_last_reqs        integral                           32    'd1  
#       num_last_rsps        integral                           32    'd1  
# -------------------------------------------------------------------------
# 
# UVM_INFO verilog_src/questa_uvm_pkg-1.2/src/questa_uvm_pkg.sv(277) @ 0: reporter [Questa UVM] End Of Elaboration
# UVM_INFO ../10_tb/test/bridge_random_stress_test.sv(98) @ 0: uvm_test_top [bridge_random_stress_test] Built configuration: data=32 narrow=0 C_DPHASE_TIMEOUT=0
# UVM_INFO ../10_tb/bridge_tb_top.sv(47) @ 95000: reporter [BRIDGE_TB_TOP] Power-on reset released
# UVM_INFO ../10_tb/seq/axi4_mst_seq/axi4_mst_random_stress_seq.sv(175) @ 95000: uvm_test_top.env.axi_agent.sqr@@axi_seq [axi4_mst_random_stress_seq] Random stress: 64 requests, window 0x4000..0x7fff, error=12% max_wait=4 narrow=0 C_DPHASE_TIMEOUT=0
# UVM_INFO ../10_tb/axi4_mst/axi4_mst_driver.sv(105) @ 95000: uvm_test_top.env.axi_agent.drv [axi4_mst_driver] [DRV][AXI][REQ] AXI4 AXI4_READ id=0x1 addr=0x55b8 burst=AXI4_BURST_INCR beats=4 size=4B lock=0 | outstanding=1
# UVM_INFO ../10_tb/axi4_mst/axi4_mst_driver.sv(261) @ 125000: uvm_test_top.env.axi_agent.drv [axi4_mst_driver] [DRV][AXI][AR] id=0x1 addr=0x55b8 burst=AXI4_BURST_INCR beats=4 size=4B
# UVM_INFO ../10_tb/axi4_mst/axi4_mst_monitor.sv(211) @ 125000: uvm_test_top.env.axi_agent.mon [axi4_mst_monitor] [MON][AXI][REQ] AXI4 AXI4_READ id=0x1 addr=0x55b8 burst=AXI4_BURST_INCR beats=4 size=4B lock=0
# UVM_INFO ../10_tb/env/predictor.sv(75) @ 125000: uvm_test_top.env.pred [predictor] [PRED][AXI][IN] AXI4 AXI4_READ id=0x1 addr=0x55b8 burst=AXI4_BURST_INCR beats=4 size=4B lock=0 | queued=1
# UVM_INFO ../10_tb/env/predictor.sv(138) @ 125000: uvm_test_top.env.pred [predictor] [PRED][MAP] AXI4 AXI4_READ id=0x1 addr=0x55b8 burst=AXI4_BURST_INCR beats=4 size=4B lock=0 -> AHB burst=AHB_BURST_INCR4 size=4B crosses_1kb=0
# UVM_INFO ../10_tb/env/predictor.sv(175) @ 125000: uvm_test_top.env.pred [predictor] [PRED][AHB] beat=1/4 | AHB AHB_READ addr=0x55b8 trans=AHB_TRANS_NONSEQ burst=AHB_BURST_INCR4 size=4B mastlock=0 resp=AHB_RESP_OKAY waits=0
# UVM_INFO ../10_tb/env/predictor.sv(175) @ 125000: uvm_test_top.env.pred [predictor] [PRED][AHB] beat=2/4 | AHB AHB_READ addr=0x55bc trans=AHB_TRANS_SEQ burst=AHB_BURST_INCR4 size=4B mastlock=0 resp=AHB_RESP_OKAY waits=0
# UVM_INFO ../10_tb/env/predictor.sv(175) @ 125000: uvm_test_top.env.pred [predictor] [PRED][AHB] beat=3/4 | AHB AHB_READ addr=0x55c0 trans=AHB_TRANS_SEQ burst=AHB_BURST_INCR4 size=4B mastlock=0 resp=AHB_RESP_OKAY waits=0
# UVM_INFO ../10_tb/env/predictor.sv(175) @ 125000: uvm_test_top.env.pred [predictor] [PRED][AHB] beat=4/4 | AHB AHB_READ addr=0x55c4 trans=AHB_TRANS_SEQ burst=AHB_BURST_INCR4 size=4B mastlock=0 resp=AHB_RESP_OKAY waits=0
# UVM_INFO ../10_tb/ahb_slv/ahb_slv_driver.sv(87) @ 135000: uvm_test_top.env.ahb_agent.drv [ahb_slv_driver] [DRV][AHB][REQ] AHB_READ addr=0x55b8 trans=AHB_TRANS_NONSEQ burst=AHB_BURST_INCR4 size=4B
# UVM_INFO ../10_tb/seq/ahb_slv_seq/ahb_slv_response_mapping_seq.sv(54) @ 135000: uvm_test_top.env.ahb_agent.sqr@@ahb_seq [ahb_slv_response_mapping_seq] [RSP][AHB] AHB_READ addr=0x55b8 resp=AHB_RESP_OKAY waits=0
# UVM_INFO ../10_tb/ahb_slv/ahb_slv_driver.sv(201) @ 145000: uvm_test_top.env.ahb_agent.drv [ahb_slv_driver] [DRV][AHB][RSP] AHB_READ addr=0x55b8 data=0xffffaa47 resp=AHB_RESP_OKAY ready_delay=0
# UVM_INFO ../10_tb/ahb_slv/ahb_slv_monitor.sv(119) @ 145000: uvm_test_top.env.ahb_agent.mon [ahb_slv_monitor] [MON][AHB][TR] AHB AHB_READ addr=0x55b8 trans=AHB_TRANS_NONSEQ burst=AHB_BURST_INCR4 size=4B mastlock=0 resp=AHB_RESP_OKAY waits=0 | data=0xffffaa47
# UVM_INFO ../10_tb/env/scoreboard.sv(359) @ 145000: uvm_test_top.env.scb [scoreboard] [SCB][AHB][PASS] AHB AHB_READ addr=0x55b8 trans=AHB_TRANS_NONSEQ burst=AHB_BURST_INCR4 size=4B mastlock=0 resp=AHB_RESP_OKAY waits=0 | data=0xffffaa47 | total=1
# UVM_INFO ../10_tb/ahb_slv/ahb_slv_driver.sv(87) @ 155000: uvm_test_top.env.ahb_agent.drv [ahb_slv_driver] [DRV][AHB][REQ] AHB_READ addr=0x55bc trans=AHB_TRANS_SEQ burst=AHB_BURST_INCR4 size=4B
# UVM_INFO ../10_tb/seq/ahb_slv_seq/ahb_slv_response_mapping_seq.sv(54) @ 155000: uvm_test_top.env.ahb_agent.sqr@@ahb_seq [ahb_slv_response_mapping_seq] [RSP][AHB] AHB_READ addr=0x55bc resp=AHB_RESP_OKAY waits=0
# UVM_INFO ../10_tb/ahb_slv/ahb_slv_driver.sv(201) @ 165000: uvm_test_top.env.ahb_agent.drv [ahb_slv_driver] [DRV][AHB][RSP] AHB_READ addr=0x55bc data=0xffffaa43 resp=AHB_RESP_OKAY ready_delay=0
# UVM_INFO ../10_tb/ahb_slv/ahb_slv_monitor.sv(119) @ 165000: uvm_test_top.env.ahb_agent.mon [ahb_slv_monitor] [MON][AHB][TR] AHB AHB_READ addr=0x55bc trans=AHB_TRANS_SEQ burst=AHB_BURST_INCR4 size=4B mastlock=0 resp=AHB_RESP_OKAY waits=0 | data=0xffffaa43
# UVM_INFO ../10_tb/env/scoreboard.sv(359) @ 165000: uvm_test_top.env.scb [scoreboard] [SCB][AHB][PASS] AHB AHB_READ addr=0x55bc trans=AHB_TRANS_SEQ burst=AHB_BURST_INCR4 size=4B mastlock=0 resp=AHB_RESP_OKAY waits=0 | data=0xffffaa43 | total=2
# UVM_INFO ../10_tb/ahb_slv/ahb_slv_driver.sv(87) @ 175000: uvm_test_top.env.ahb_agent.drv [ahb_slv_driver] [DRV][AHB][REQ] AHB_READ addr=0x55c0 trans=AHB_TRANS_SEQ burst=AHB_BURST_INCR4 size=4B
# UVM_INFO ../10_tb/axi4_mst/axi4_mst_driver.sv(326) @ 175000: uvm_test_top.env.axi_agent.drv [axi4_mst_driver] [DRV][AXI][R] id=0x1 beat=1/4 data=0xffffaa47 resp=AXI4_RESP_OKAY last=0
# UVM_INFO ../10_tb/axi4_mst/axi4_mst_monitor.sv(256) @ 175000: uvm_test_top.env.axi_agent.mon [axi4_mst_monitor] [MON][AXI][R] id=0x1 beat=1/4 data=0xffffaa47 resp=AXI4_RESP_OKAY last=0
# UVM_INFO ../10_tb/seq/ahb_slv_seq/ahb_slv_response_mapping_seq.sv(54) @ 175000: uvm_test_top.env.ahb_agent.sqr@@ahb_seq [ahb_slv_response_mapping_seq] [RSP][AHB] AHB_READ addr=0x55c0 resp=AHB_RESP_OKAY waits=0
# UVM_INFO ../10_tb/ahb_slv/ahb_slv_driver.sv(201) @ 185000: uvm_test_top.env.ahb_agent.drv [ahb_slv_driver] [DRV][AHB][RSP] AHB_READ addr=0x55c0 data=0xffffaa3f resp=AHB_RESP_OKAY ready_delay=0
# UVM_INFO ../10_tb/ahb_slv/ahb_slv_monitor.sv(119) @ 185000: uvm_test_top.env.ahb_agent.mon [ahb_slv_monitor] [MON][AHB][TR] AHB AHB_READ addr=0x55c0 trans=AHB_TRANS_SEQ burst=AHB_BURST_INCR4 size=4B mastlock=0 resp=AHB_RESP_OKAY waits=0 | data=0xffffaa3f
# UVM_INFO ../10_tb/env/scoreboard.sv(359) @ 185000: uvm_test_top.env.scb [scoreboard] [SCB][AHB][PASS] AHB AHB_READ addr=0x55c0 trans=AHB_TRANS_SEQ burst=AHB_BURST_INCR4 size=4B mastlock=0 resp=AHB_RESP_OKAY waits=0 | data=0xffffaa3f | total=3
# UVM_INFO ../10_tb/ahb_slv/ahb_slv_driver.sv(87) @ 195000: uvm_test_top.env.ahb_agent.drv [ahb_slv_driver] [DRV][AHB][REQ] AHB_READ addr=0x55c4 trans=AHB_TRANS_SEQ burst=AHB_BURST_INCR4 size=4B
# UVM_INFO ../10_tb/seq/ahb_slv_seq/ahb_slv_response_mapping_seq.sv(54) @ 195000: uvm_test_top.env.ahb_agent.sqr@@ahb_seq [ahb_slv_response_mapping_seq] [RSP][AHB] AHB_READ addr=0x55c4 resp=AHB_RESP_OKAY waits=0
# UVM_INFO ../10_tb/ahb_slv/ahb_slv_driver.sv(201) @ 205000: uvm_test_top.env.ahb_agent.drv [ahb_slv_driver] [DRV][AHB][RSP] AHB_READ addr=0x55c4 data=0xffffaa3b resp=AHB_RESP_OKAY ready_delay=0
# UVM_INFO ../10_tb/ahb_slv/ahb_slv_monitor.sv(119) @ 205000: uvm_test_top.env.ahb_agent.mon [ahb_slv_monitor] [MON][AHB][TR] AHB AHB_READ addr=0x55c4 trans=AHB_TRANS_SEQ burst=AHB_BURST_INCR4 size=4B mastlock=0 resp=AHB_RESP_OKAY waits=0 | data=0xffffaa3b
# UVM_INFO ../10_tb/env/scoreboard.sv(359) @ 205000: uvm_test_top.env.scb [scoreboard] [SCB][AHB][PASS] AHB AHB_READ addr=0x55c4 trans=AHB_TRANS_SEQ burst=AHB_BURST_INCR4 size=4B mastlock=0 resp=AHB_RESP_OKAY waits=0 | data=0xffffaa3b | total=4
# UVM_INFO ../10_tb/axi4_mst/axi4_mst_driver.sv(326) @ 215000: uvm_test_top.env.axi_agent.drv [axi4_mst_driver] [DRV][AXI][R] id=0x1 beat=2/4 data=0xffffaa43 resp=AXI4_RESP_OKAY last=0
# UVM_INFO ../10_tb/axi4_mst/axi4_mst_monitor.sv(256) @ 215000: uvm_test_top.env.axi_agent.mon [axi4_mst_monitor] [MON][AXI][R] id=0x1 beat=2/4 data=0xffffaa43 resp=AXI4_RESP_OKAY last=0
# UVM_INFO ../10_tb/axi4_mst/axi4_mst_driver.sv(326) @ 245000: uvm_test_top.env.axi_agent.drv [axi4_mst_driver] [DRV][AXI][R] id=0x1 beat=3/4 data=0xffffaa3f resp=AXI4_RESP_OKAY last=0
# UVM_INFO ../10_tb/axi4_mst/axi4_mst_monitor.sv(256) @ 245000: uvm_test_top.env.axi_agent.mon [axi4_mst_monitor] [MON][AXI][R] id=0x1 beat=3/4 data=0xffffaa3f resp=AXI4_RESP_OKAY last=0
# UVM_INFO ../10_tb/axi4_mst/axi4_mst_driver.sv(326) @ 265000: uvm_test_top.env.axi_agent.drv [axi4_mst_driver] [DRV][AXI][R] id=0x1 beat=4/4 data=0xffffaa3b resp=AXI4_RESP_OKAY last=1
# UVM_INFO ../10_tb/axi4_mst/axi4_mst_monitor.sv(256) @ 265000: uvm_test_top.env.axi_agent.mon [axi4_mst_monitor] [MON][AXI][R] id=0x1 beat=4/4 data=0xffffaa3b resp=AXI4_RESP_OKAY last=1
# UVM_INFO ../10_tb/axi4_mst/axi4_mst_monitor.sv(262) @ 265000: uvm_test_top.env.axi_agent.mon [axi4_mst_monitor] [MON][AXI][RSP] READ id=0x1 beats=4
# UVM_INFO ../10_tb/env/scoreboard.sv(506) @ 265000: uvm_test_top.env.scb [scoreboard] [SCB][AXI][PASS] AXI4 AXI4_READ id=0x1 addr=0x55b8 burst=AXI4_BURST_INCR beats=4 size=4B lock=0 | read beats=4 | total=1
# UVM_INFO ../10_tb/axi4_mst/axi4_mst_driver.sv(105) @ 265000: uvm_test_top.env.axi_agent.drv [axi4_mst_driver] [DRV][AXI][REQ] AXI4 AXI4_WRITE id=0x7 addr=0x4238 burst=AXI4_BURST_INCR beats=12 size=4B lock=0 | outstanding=1
# UVM_INFO ../10_tb/axi4_mst/axi4_mst_driver.sv(178) @ 305000: uvm_test_top.env.axi_agent.drv [axi4_mst_driver] [DRV][AXI][AW] id=0x7 addr=0x4238 burst=AXI4_BURST_INCR beats=12 size=4B
# UVM_INFO ../10_tb/axi4_mst/axi4_mst_driver.sv(204) @ 305000: uvm_test_top.env.axi_agent.drv [axi4_mst_driver] [DRV][AXI][W] id=0x7 beat=1/12 data=0x302d2a27 strb=0xf last=0
# UVM_INFO ../10_tb/ahb_slv/ahb_slv_driver.sv(87) @ 315000: uvm_test_top.env.ahb_agent.drv [ahb_slv_driver] [DRV][AHB][REQ] AHB_WRITE addr=0x4238 trans=AHB_TRANS_NONSEQ burst=AHB_BURST_INCR size=4B
# UVM_INFO ../10_tb/seq/ahb_slv_seq/ahb_slv_response_mapping_seq.sv(54) @ 315000: uvm_test_top.env.ahb_agent.sqr@@ahb_seq [ahb_slv_response_mapping_seq] [RSP][AHB] AHB_WRITE addr=0x4238 resp=AHB_RESP_OKAY waits=1
# UVM_INFO ../10_tb/ahb_slv/ahb_slv_driver.sv(201) @ 335000: uvm_test_top.env.ahb_agent.drv [ahb_slv_driver] [DRV][AHB][RSP] AHB_WRITE addr=0x4238 data=0x302d2a27 resp=AHB_RESP_OKAY ready_delay=1
# UVM_INFO ../10_tb/ahb_slv/ahb_slv_monitor.sv(119) @ 335000: uvm_test_top.env.ahb_agent.mon [ahb_slv_monitor] [MON][AHB][TR] AHB AHB_WRITE addr=0x4238 trans=AHB_TRANS_NONSEQ burst=AHB_BURST_INCR size=4B mastlock=0 resp=AHB_RESP_OKAY waits=1 | data=0x302d2a27
# UVM_INFO ../10_tb/ahb_slv/ahb_slv_driver.sv(87) @ 345000: uvm_test_top.env.ahb_agent.drv [ahb_slv_driver] [DRV][AHB][REQ] AHB_WRITE addr=0x423c trans=AHB_TRANS_SEQ burst=AHB_BURST_INCR size=4B
# UVM_INFO ../10_tb/axi4_mst/axi4_mst_driver.sv(204) @ 345000: uvm_test_top.env.axi_agent.drv [axi4_mst_driver] [DRV][AXI][W] id=0x7 beat=2/12 data=0x35322f2c strb=0xf last=0
# UVM_INFO ../10_tb/seq/ahb_slv_seq/ahb_slv_response_mapping_seq.sv(54) @ 345000: uvm_test_top.env.ahb_agent.sqr@@ahb_seq [ahb_slv_response_mapping_seq] [RSP][AHB] AHB_WRITE addr=0x423c resp=AHB_RESP_OKAY waits=0
# UVM_INFO ../10_tb/ahb_slv/ahb_slv_driver.sv(201) @ 355000: uvm_test_top.env.ahb_agent.drv [ahb_slv_driver] [DRV][AHB][RSP] AHB_WRITE addr=0x423c data=0x35322f2c resp=AHB_RESP_OKAY ready_delay=0
# UVM_INFO ../10_tb/ahb_slv/ahb_slv_monitor.sv(119) @ 355000: uvm_test_top.env.ahb_agent.mon [ahb_slv_monitor] [MON][AHB][TR] AHB AHB_WRITE addr=0x423c trans=AHB_TRANS_SEQ burst=AHB_BURST_INCR size=4B mastlock=0 resp=AHB_RESP_OKAY waits=0 | data=0x35322f2c
# UVM_INFO ../10_tb/ahb_slv/ahb_slv_driver.sv(87) @ 365000: uvm_test_top.env.ahb_agent.drv [ahb_slv_driver] [DRV][AHB][REQ] AHB_WRITE addr=0x4240 trans=AHB_TRANS_SEQ burst=AHB_BURST_INCR size=4B
# UVM_INFO ../10_tb/axi4_mst/axi4_mst_driver.sv(204) @ 365000: uvm_test_top.env.axi_agent.drv [axi4_mst_driver] [DRV][AXI][W] id=0x7 beat=3/12 data=0x3a373431 strb=0xf last=0
# UVM_INFO ../10_tb/seq/ahb_slv_seq/ahb_slv_response_mapping_seq.sv(54) @ 365000: uvm_test_top.env.ahb_agent.sqr@@ahb_seq [ahb_slv_response_mapping_seq] [RSP][AHB] AHB_WRITE addr=0x4240 resp=AHB_RESP_OKAY waits=2
# UVM_INFO ../10_tb/ahb_slv/ahb_slv_driver.sv(201) @ 395000: uvm_test_top.env.ahb_agent.drv [ahb_slv_driver] [DRV][AHB][RSP] AHB_WRITE addr=0x4240 data=0x3a373431 resp=AHB_RESP_OKAY ready_delay=2
# UVM_INFO ../10_tb/ahb_slv/ahb_slv_monitor.sv(119) @ 395000: uvm_test_top.env.ahb_agent.mon [ahb_slv_monitor] [MON][AHB][TR] AHB AHB_WRITE addr=0x4240 trans=AHB_TRANS_SEQ burst=AHB_BURST_INCR size=4B mastlock=0 resp=AHB_RESP_OKAY waits=2 | data=0x3a373431
# UVM_INFO ../10_tb/ahb_slv/ahb_slv_driver.sv(87) @ 405000: uvm_test_top.env.ahb_agent.drv [ahb_slv_driver] [DRV][AHB][REQ] AHB_WRITE addr=0x4244 trans=AHB_TRANS_SEQ burst=AHB_BURST_INCR size=4B
# UVM_INFO ../10_tb/axi4_mst/axi4_mst_driver.sv(204) @ 405000: uvm_test_top.env.axi_agent.drv [axi4_mst_driver] [DRV][AXI][W] id=0x7 beat=4/12 data=0x3f3c3936 strb=0xf last=0
# UVM_INFO ../10_tb/seq/ahb_slv_seq/ahb_slv_response_mapping_seq.sv(54) @ 405000: uvm_test_top.env.ahb_agent.sqr@@ahb_seq [ahb_slv_response_mapping_seq] [RSP][AHB] AHB_WRITE addr=0x4244 resp=AHB_RESP_OKAY waits=0
# UVM_INFO ../10_tb/ahb_slv/ahb_slv_driver.sv(201) @ 415000: uvm_test_top.env.ahb_agent.drv [ahb_slv_driver] [DRV][AHB][RSP] AHB_WRITE addr=0x4244 data=0x3f3c3936 resp=AHB_RESP_OKAY ready_delay=0
# UVM_INFO ../10_tb/ahb_slv/ahb_slv_monitor.sv(119) @ 415000: uvm_test_top.env.ahb_agent.mon [ahb_slv_monitor] [MON][AHB][TR] AHB AHB_WRITE addr=0x4244 trans=AHB_TRANS_SEQ burst=AHB_BURST_INCR size=4B mastlock=0 resp=AHB_RESP_OKAY waits=0 | data=0x3f3c3936
# UVM_INFO ../10_tb/ahb_slv/ahb_slv_driver.sv(87) @ 425000: uvm_test_top.env.ahb_agent.drv [ahb_slv_driver] [DRV][AHB][REQ] AHB_WRITE addr=0x4248 trans=AHB_TRANS_SEQ burst=AHB_BURST_INCR size=4B
# UVM_INFO ../10_tb/axi4_mst/axi4_mst_driver.sv(204) @ 425000: uvm_test_top.env.axi_agent.drv [axi4_mst_driver] [DRV][AXI][W] id=0x7 beat=5/12 data=0x44413e3b strb=0xf last=0
# UVM_INFO ../10_tb/seq/ahb_slv_seq/ahb_slv_response_mapping_seq.sv(54) @ 425000: uvm_test_top.env.ahb_agent.sqr@@ahb_seq [ahb_slv_response_mapping_seq] [RSP][AHB] AHB_WRITE addr=0x4248 resp=AHB_RESP_OKAY waits=4
# UVM_INFO ../10_tb/ahb_slv/ahb_slv_driver.sv(201) @ 475000: uvm_test_top.env.ahb_agent.drv [ahb_slv_driver] [DRV][AHB][RSP] AHB_WRITE addr=0x4248 data=0x44413e3b resp=AHB_RESP_OKAY ready_delay=4
# UVM_INFO ../10_tb/ahb_slv/ahb_slv_monitor.sv(119) @ 475000: uvm_test_top.env.ahb_agent.mon [ahb_slv_monitor] [MON][AHB][TR] AHB AHB_WRITE addr=0x4248 trans=AHB_TRANS_SEQ burst=AHB_BURST_INCR size=4B mastlock=0 resp=AHB_RESP_OKAY waits=4 | data=0x44413e3b
# UVM_INFO ../10_tb/ahb_slv/ahb_slv_driver.sv(87) @ 485000: uvm_test_top.env.ahb_agent.drv [ahb_slv_driver] [DRV][AHB][REQ] AHB_WRITE addr=0x424c trans=AHB_TRANS_SEQ burst=AHB_BURST_INCR size=4B
# UVM_INFO ../10_tb/axi4_mst/axi4_mst_driver.sv(204) @ 485000: uvm_test_top.env.axi_agent.drv [axi4_mst_driver] [DRV][AXI][W] id=0x7 beat=6/12 data=0x49464340 strb=0xf last=0
# UVM_INFO ../10_tb/seq/ahb_slv_seq/ahb_slv_response_mapping_seq.sv(54) @ 485000: uvm_test_top.env.ahb_agent.sqr@@ahb_seq [ahb_slv_response_mapping_seq] [RSP][AHB] AHB_WRITE addr=0x424c resp=AHB_RESP_ERROR waits=0
# UVM_INFO ../10_tb/ahb_slv/ahb_slv_driver.sv(201) @ 505000: uvm_test_top.env.ahb_agent.drv [ahb_slv_driver] [DRV][AHB][RSP] AHB_WRITE addr=0x424c data=0x49464340 resp=AHB_RESP_ERROR ready_delay=0
# UVM_INFO ../10_tb/ahb_slv/ahb_slv_monitor.sv(119) @ 505000: uvm_test_top.env.ahb_agent.mon [ahb_slv_monitor] [MON][AHB][TR] AHB AHB_WRITE addr=0x424c trans=AHB_TRANS_SEQ burst=AHB_BURST_INCR size=4B mastlock=0 resp=AHB_RESP_ERROR waits=1 | data=0x49464340
# UVM_INFO ../10_tb/ahb_slv/ahb_slv_driver.sv(87) @ 515000: uvm_test_top.env.ahb_agent.drv [ahb_slv_driver] [DRV][AHB][REQ] AHB_WRITE addr=0x4250 trans=AHB_TRANS_SEQ burst=AHB_BURST_INCR size=4B
# UVM_INFO ../10_tb/axi4_mst/axi4_mst_driver.sv(204) @ 515000: uvm_test_top.env.axi_agent.drv [axi4_mst_driver] [DRV][AXI][W] id=0x7 beat=7/12 data=0x4e4b4845 strb=0xf last=0
# UVM_INFO ../10_tb/seq/ahb_slv_seq/ahb_slv_response_mapping_seq.sv(54) @ 515000: uvm_test_top.env.ahb_agent.sqr@@ahb_seq [ahb_slv_response_mapping_seq] [RSP][AHB] AHB_WRITE addr=0x4250 resp=AHB_RESP_OKAY waits=0
# UVM_INFO ../10_tb/ahb_slv/ahb_slv_driver.sv(201) @ 525000: uvm_test_top.env.ahb_agent.drv [ahb_slv_driver] [DRV][AHB][RSP] AHB_WRITE addr=0x4250 data=0x4e4b4845 resp=AHB_RESP_OKAY ready_delay=0
# UVM_INFO ../10_tb/ahb_slv/ahb_slv_monitor.sv(119) @ 525000: uvm_test_top.env.ahb_agent.mon [ahb_slv_monitor] [MON][AHB][TR] AHB AHB_WRITE addr=0x4250 trans=AHB_TRANS_SEQ burst=AHB_BURST_INCR size=4B mastlock=0 resp=AHB_RESP_OKAY waits=0 | data=0x4e4b4845
# UVM_INFO ../10_tb/ahb_slv/ahb_slv_driver.sv(87) @ 535000: uvm_test_top.env.ahb_agent.drv [ahb_slv_driver] [DRV][AHB][REQ] AHB_WRITE addr=0x4254 trans=AHB_TRANS_SEQ burst=AHB_BURST_INCR size=4B
# UVM_INFO ../10_tb/axi4_mst/axi4_mst_driver.sv(204) @ 535000: uvm_test_top.env.axi_agent.drv [axi4_mst_driver] [DRV][AXI][W] id=0x7 beat=8/12 data=0x53504d4a strb=0xf last=0
# UVM_INFO ../10_tb/seq/ahb_slv_seq/ahb_slv_response_mapping_seq.sv(54) @ 535000: uvm_test_top.env.ahb_agent.sqr@@ahb_seq [ahb_slv_response_mapping_seq] [RSP][AHB] AHB_WRITE addr=0x4254 resp=AHB_RESP_ERROR waits=0
# UVM_INFO ../10_tb/ahb_slv/ahb_slv_driver.sv(201) @ 555000: uvm_test_top.env.ahb_agent.drv [ahb_slv_driver] [DRV][AHB][RSP] AHB_WRITE addr=0x4254 data=0x53504d4a resp=AHB_RESP_ERROR ready_delay=0
# UVM_INFO ../10_tb/ahb_slv/ahb_slv_monitor.sv(119) @ 555000: uvm_test_top.env.ahb_agent.mon [ahb_slv_monitor] [MON][AHB][TR] AHB AHB_WRITE addr=0x4254 trans=AHB_TRANS_SEQ burst=AHB_BURST_INCR size=4B mastlock=0 resp=AHB_RESP_ERROR waits=1 | data=0x53504d4a
# UVM_INFO ../10_tb/ahb_slv/ahb_slv_driver.sv(87) @ 565000: uvm_test_top.env.ahb_agent.drv [ahb_slv_driver] [DRV][AHB][REQ] AHB_WRITE addr=0x4258 trans=AHB_TRANS_SEQ burst=AHB_BURST_INCR size=4B
# UVM_INFO ../10_tb/axi4_mst/axi4_mst_driver.sv(204) @ 565000: uvm_test_top.env.axi_agent.drv [axi4_mst_driver] [DRV][AXI][W] id=0x7 beat=9/12 data=0x5855524f strb=0xf last=0
# UVM_INFO ../10_tb/seq/ahb_slv_seq/ahb_slv_response_mapping_seq.sv(54) @ 565000: uvm_test_top.env.ahb_agent.sqr@@ahb_seq [ahb_slv_response_mapping_seq] [RSP][AHB] AHB_WRITE addr=0x4258 resp=AHB_RESP_OKAY waits=3
# UVM_INFO ../10_tb/ahb_slv/ahb_slv_driver.sv(201) @ 605000: uvm_test_top.env.ahb_agent.drv [ahb_slv_driver] [DRV][AHB][RSP] AHB_WRITE addr=0x4258 data=0x5855524f resp=AHB_RESP_OKAY ready_delay=3
# UVM_INFO ../10_tb/ahb_slv/ahb_slv_monitor.sv(119) @ 605000: uvm_test_top.env.ahb_agent.mon [ahb_slv_monitor] [MON][AHB][TR] AHB AHB_WRITE addr=0x4258 trans=AHB_TRANS_SEQ burst=AHB_BURST_INCR size=4B mastlock=0 resp=AHB_RESP_OKAY waits=3 | data=0x5855524f
# UVM_INFO ../10_tb/ahb_slv/ahb_slv_driver.sv(87) @ 615000: uvm_test_top.env.ahb_agent.drv [ahb_slv_driver] [DRV][AHB][REQ] AHB_WRITE addr=0x425c trans=AHB_TRANS_SEQ burst=AHB_BURST_INCR size=4B
# UVM_INFO ../10_tb/axi4_mst/axi4_mst_driver.sv(204) @ 615000: uvm_test_top.env.axi_agent.drv [axi4_mst_driver] [DRV][AXI][W] id=0x7 beat=10/12 data=0x5d5a5754 strb=0xf last=0
# UVM_INFO ../10_tb/seq/ahb_slv_seq/ahb_slv_response_mapping_seq.sv(54) @ 615000: uvm_test_top.env.ahb_agent.sqr@@ahb_seq [ahb_slv_response_mapping_seq] [RSP][AHB] AHB_WRITE addr=0x425c resp=AHB_RESP_OKAY waits=0
# UVM_INFO ../10_tb/ahb_slv/ahb_slv_driver.sv(201) @ 625000: uvm_test_top.env.ahb_agent.drv [ahb_slv_driver] [DRV][AHB][RSP] AHB_WRITE addr=0x425c data=0x5d5a5754 resp=AHB_RESP_OKAY ready_delay=0
# UVM_INFO ../10_tb/ahb_slv/ahb_slv_monitor.sv(119) @ 625000: uvm_test_top.env.ahb_agent.mon [ahb_slv_monitor] [MON][AHB][TR] AHB AHB_WRITE addr=0x425c trans=AHB_TRANS_SEQ burst=AHB_BURST_INCR size=4B mastlock=0 resp=AHB_RESP_OKAY waits=0 | data=0x5d5a5754
# UVM_INFO ../10_tb/ahb_slv/ahb_slv_driver.sv(87) @ 635000: uvm_test_top.env.ahb_agent.drv [ahb_slv_driver] [DRV][AHB][REQ] AHB_WRITE addr=0x4260 trans=AHB_TRANS_SEQ burst=AHB_BURST_INCR size=4B
# UVM_INFO ../10_tb/axi4_mst/axi4_mst_driver.sv(204) @ 635000: uvm_test_top.env.axi_agent.drv [axi4_mst_driver] [DRV][AXI][W] id=0x7 beat=11/12 data=0x625f5c59 strb=0xf last=0
# UVM_INFO ../10_tb/seq/ahb_slv_seq/ahb_slv_response_mapping_seq.sv(54) @ 635000: uvm_test_top.env.ahb_agent.sqr@@ahb_seq [ahb_slv_response_mapping_seq] [RSP][AHB] AHB_WRITE addr=0x4260 resp=AHB_RESP_OKAY waits=0
# UVM_INFO ../10_tb/ahb_slv/ahb_slv_driver.sv(201) @ 645000: uvm_test_top.env.ahb_agent.drv [ahb_slv_driver] [DRV][AHB][RSP] AHB_WRITE addr=0x4260 data=0x625f5c59 resp=AHB_RESP_OKAY ready_delay=0
# UVM_INFO ../10_tb/ahb_slv/ahb_slv_monitor.sv(119) @ 645000: uvm_test_top.env.ahb_agent.mon [ahb_slv_monitor] [MON][AHB][TR] AHB AHB_WRITE addr=0x4260 trans=AHB_TRANS_SEQ burst=AHB_BURST_INCR size=4B mastlock=0 resp=AHB_RESP_OKAY waits=0 | data=0x625f5c59
# UVM_INFO ../10_tb/ahb_slv/ahb_slv_driver.sv(87) @ 655000: uvm_test_top.env.ahb_agent.drv [ahb_slv_driver] [DRV][AHB][REQ] AHB_WRITE addr=0x4264 trans=AHB_TRANS_SEQ burst=AHB_BURST_INCR size=4B
# UVM_INFO ../10_tb/axi4_mst/axi4_mst_driver.sv(204) @ 655000: uvm_test_top.env.axi_agent.drv [axi4_mst_driver] [DRV][AXI][W] id=0x7 beat=12/12 data=0x6764615e strb=0xf last=1
# UVM_INFO ../10_tb/seq/ahb_slv_seq/ahb_slv_response_mapping_seq.sv(54) @ 655000: uvm_test_top.env.ahb_agent.sqr@@ahb_seq [ahb_slv_response_mapping_seq] [RSP][AHB] AHB_WRITE addr=0x4264 resp=AHB_RESP_OKAY waits=0
# UVM_INFO ../10_tb/axi4_mst/axi4_mst_monitor.sv(151) @ 655000: uvm_test_top.env.axi_agent.mon [axi4_mst_monitor] [MON][AXI][REQ] AXI4 AXI4_WRITE id=0x7 addr=0x4238 burst=AXI4_BURST_INCR beats=12 size=4B lock=0
# UVM_INFO ../10_tb/env/predictor.sv(75) @ 655000: uvm_test_top.env.pred [predictor] [PRED][AXI][IN] AXI4 AXI4_WRITE id=0x7 addr=0x4238 burst=AXI4_BURST_INCR beats=12 size=4B lock=0 | queued=1
# UVM_INFO ../10_tb/env/predictor.sv(138) @ 655000: uvm_test_top.env.pred [predictor] [PRED][MAP] AXI4 AXI4_WRITE id=0x7 addr=0x4238 burst=AXI4_BURST_INCR beats=12 size=4B lock=0 -> AHB burst=AHB_BURST_INCR size=4B crosses_1kb=0
# UVM_INFO ../10_tb/env/predictor.sv(169) @ 655000: uvm_test_top.env.pred [predictor] [PRED][AHB] beat=1/12 | AHB AHB_WRITE addr=0x4238 trans=AHB_TRANS_NONSEQ burst=AHB_BURST_INCR size=4B mastlock=0 resp=AHB_RESP_OKAY waits=0 | wdata=0x302d2a27
# UVM_INFO ../10_tb/env/scoreboard.sv(359) @ 655000: uvm_test_top.env.scb [scoreboard] [SCB][AHB][PASS] AHB AHB_WRITE addr=0x4238 trans=AHB_TRANS_NONSEQ burst=AHB_BURST_INCR size=4B mastlock=0 resp=AHB_RESP_OKAY waits=1 | data=0x302d2a27 | total=5
# UVM_INFO ../10_tb/env/predictor.sv(169) @ 655000: uvm_test_top.env.pred [predictor] [PRED][AHB] beat=2/12 | AHB AHB_WRITE addr=0x423c trans=AHB_TRANS_SEQ burst=AHB_BURST_INCR size=4B mastlock=0 resp=AHB_RESP_OKAY waits=0 | wdata=0x35322f2c
# UVM_INFO ../10_tb/env/scoreboard.sv(359) @ 655000: uvm_test_top.env.scb [scoreboard] [SCB][AHB][PASS] AHB AHB_WRITE addr=0x423c trans=AHB_TRANS_SEQ burst=AHB_BURST_INCR size=4B mastlock=0 resp=AHB_RESP_OKAY waits=0 | data=0x35322f2c | total=6
# UVM_INFO ../10_tb/env/predictor.sv(169) @ 655000: uvm_test_top.env.pred [predictor] [PRED][AHB] beat=3/12 | AHB AHB_WRITE addr=0x4240 trans=AHB_TRANS_SEQ burst=AHB_BURST_INCR size=4B mastlock=0 resp=AHB_RESP_OKAY waits=0 | wdata=0x3a373431
# UVM_INFO ../10_tb/env/scoreboard.sv(359) @ 655000: uvm_test_top.env.scb [scoreboard] [SCB][AHB][PASS] AHB AHB_WRITE addr=0x4240 trans=AHB_TRANS_SEQ burst=AHB_BURST_INCR size=4B mastlock=0 resp=AHB_RESP_OKAY waits=2 | data=0x3a373431 | total=7
# UVM_INFO ../10_tb/env/predictor.sv(169) @ 655000: uvm_test_top.env.pred [predictor] [PRED][AHB] beat=4/12 | AHB AHB_WRITE addr=0x4244 trans=AHB_TRANS_SEQ burst=AHB_BURST_INCR size=4B mastlock=0 resp=AHB_RESP_OKAY waits=0 | wdata=0x3f3c3936
# UVM_INFO ../10_tb/env/scoreboard.sv(359) @ 655000: uvm_test_top.env.scb [scoreboard] [SCB][AHB][PASS] AHB AHB_WRITE addr=0x4244 trans=AHB_TRANS_SEQ burst=AHB_BURST_INCR size=4B mastlock=0 resp=AHB_RESP_OKAY waits=0 | data=0x3f3c3936 | total=8
# UVM_INFO ../10_tb/env/predictor.sv(169) @ 655000: uvm_test_top.env.pred [predictor] [PRED][AHB] beat=5/12 | AHB AHB_WRITE addr=0x4248 trans=AHB_TRANS_SEQ burst=AHB_BURST_INCR size=4B mastlock=0 resp=AHB_RESP_OKAY waits=0 | wdata=0x44413e3b
# UVM_INFO ../10_tb/env/scoreboard.sv(359) @ 655000: uvm_test_top.env.scb [scoreboard] [SCB][AHB][PASS] AHB AHB_WRITE addr=0x4248 trans=AHB_TRANS_SEQ burst=AHB_BURST_INCR size=4B mastlock=0 resp=AHB_RESP_OKAY waits=4 | data=0x44413e3b | total=9
# UVM_INFO ../10_tb/env/predictor.sv(169) @ 655000: uvm_test_top.env.pred [predictor] [PRED][AHB] beat=6/12 | AHB AHB_WRITE addr=0x424c trans=AHB_TRANS_SEQ burst=AHB_BURST_INCR size=4B mastlock=0 resp=AHB_RESP_OKAY waits=0 | wdata=0x49464340
# UVM_INFO ../10_tb/env/scoreboard.sv(359) @ 655000: uvm_test_top.env.scb [scoreboard] [SCB][AHB][PASS] AHB AHB_WRITE addr=0x424c trans=AHB_TRANS_SEQ burst=AHB_BURST_INCR size=4B mastlock=0 resp=AHB_RESP_ERROR waits=1 | data=0x49464340 | total=10
# UVM_INFO ../10_tb/env/predictor.sv(169) @ 655000: uvm_test_top.env.pred [predictor] [PRED][AHB] beat=7/12 | AHB AHB_WRITE addr=0x4250 trans=AHB_TRANS_SEQ burst=AHB_BURST_INCR size=4B mastlock=0 resp=AHB_RESP_OKAY waits=0 | wdata=0x4e4b4845
# UVM_INFO ../10_tb/env/scoreboard.sv(359) @ 655000: uvm_test_top.env.scb [scoreboard] [SCB][AHB][PASS] AHB AHB_WRITE addr=0x4250 trans=AHB_TRANS_SEQ burst=AHB_BURST_INCR size=4B mastlock=0 resp=AHB_RESP_OKAY waits=0 | data=0x4e4b4845 | total=11
# UVM_INFO ../10_tb/env/predictor.sv(169) @ 655000: uvm_test_top.env.pred [predictor] [PRED][AHB] beat=8/12 | AHB AHB_WRITE addr=0x4254 trans=AHB_TRANS_SEQ burst=AHB_BURST_INCR size=4B mastlock=0 resp=AHB_RESP_OKAY waits=0 | wdata=0x53504d4a
# UVM_INFO ../10_tb/env/scoreboard.sv(359) @ 655000: uvm_test_top.env.scb [scoreboard] [SCB][AHB][PASS] AHB AHB_WRITE addr=0x4254 trans=AHB_TRANS_SEQ burst=AHB_BURST_INCR size=4B mastlock=0 resp=AHB_RESP_ERROR waits=1 | data=0x53504d4a | total=12
# UVM_INFO ../10_tb/env/predictor.sv(169) @ 655000: uvm_test_top.env.pred [predictor] [PRED][AHB] beat=9/12 | AHB AHB_WRITE addr=0x4258 trans=AHB_TRANS_SEQ burst=AHB_BURST_INCR size=4B mastlock=0 resp=AHB_RESP_OKAY waits=0 | wdata=0x5855524f
# UVM_INFO ../10_tb/env/scoreboard.sv(359) @ 655000: uvm_test_top.env.scb [scoreboard] [SCB][AHB][PASS] AHB AHB_WRITE addr=0x4258 trans=AHB_TRANS_SEQ burst=AHB_BURST_INCR size=4B mastlock=0 resp=AHB_RESP_OKAY waits=3 | data=0x5855524f | total=13
# UVM_INFO ../10_tb/env/predictor.sv(169) @ 655000: uvm_test_top.env.pred [predictor] [PRED][AHB] beat=10/12 | AHB AHB_WRITE addr=0x425c trans=AHB_TRANS_SEQ burst=AHB_BURST_INCR size=4B mastlock=0 resp=AHB_RESP_OKAY waits=0 | wdata=0x5d5a5754
# UVM_INFO ../10_tb/env/scoreboard.sv(359) @ 655000: uvm_test_top.env.scb [scoreboard] [SCB][AHB][PASS] AHB AHB_WRITE addr=0x425c trans=AHB_TRANS_SEQ burst=AHB_BURST_INCR size=4B mastlock=0 resp=AHB_RESP_OKAY waits=0 | data=0x5d5a5754 | total=14
# UVM_INFO ../10_tb/env/predictor.sv(169) @ 655000: uvm_test_top.env.pred [predictor] [PRED][AHB] beat=11/12 | AHB AHB_WRITE addr=0x4260 trans=AHB_TRANS_SEQ burst=AHB_BURST_INCR size=4B mastlock=0 resp=AHB_RESP_OKAY waits=0 | wdata=0x625f5c59
# UVM_INFO ../10_tb/env/scoreboard.sv(359) @ 655000: uvm_test_top.env.scb [scoreboard] [SCB][AHB][PASS] AHB AHB_WRITE addr=0x4260 trans=AHB_TRANS_SEQ burst=AHB_BURST_INCR size=4B mastlock=0 resp=AHB_RESP_OKAY waits=0 | data=0x625f5c59 | total=15
# UVM_INFO ../10_tb/env/predictor.sv(169) @ 655000: uvm_test_top.env.pred [predictor] [PRED][AHB] beat=12/12 | AHB AHB_WRITE addr=0x4264 trans=AHB_TRANS_SEQ burst=AHB_BURST_INCR size=4B mastlock=0 resp=AHB_RESP_OKAY waits=0 | wdata=0x6764615e
# UVM_INFO ../10_tb/ahb_slv/ahb_slv_driver.sv(201) @ 665000: uvm_test_top.env.ahb_agent.drv [ahb_slv_driver] [DRV][AHB][RSP] AHB_WRITE addr=0x4264 data=0x6764615e resp=AHB_RESP_OKAY ready_delay=0
# UVM_INFO ../10_tb/ahb_slv/ahb_slv_monitor.sv(119) @ 665000: uvm_test_top.env.ahb_agent.mon [ahb_slv_monitor] [MON][AHB][TR] AHB AHB_WRITE addr=0x4264 trans=AHB_TRANS_SEQ burst=AHB_BURST_INCR size=4B mastlock=0 resp=AHB_RESP_OKAY waits=0 | data=0x6764615e
# UVM_INFO ../10_tb/env/scoreboard.sv(359) @ 665000: uvm_test_top.env.scb [scoreboard] [SCB][AHB][PASS] AHB AHB_WRITE addr=0x4264 trans=AHB_TRANS_SEQ burst=AHB_BURST_INCR size=4B mastlock=0 resp=AHB_RESP_OKAY waits=0 | data=0x6764615e | total=16
# UVM_INFO ../10_tb/axi4_mst/axi4_mst_driver.sv(286) @ 695000: uvm_test_top.env.axi_agent.drv [axi4_mst_driver] [DRV][AXI][B] id=0x7 resp=AXI4_RESP_SLVERR
# UVM_INFO ../10_tb/axi4_mst/axi4_mst_monitor.sv(177) @ 695000: uvm_test_top.env.axi_agent.mon [axi4_mst_monitor] [MON][AXI][RSP] WRITE id=0x7 resp=AXI4_RESP_SLVERR
# UVM_INFO ../10_tb/env/scoreboard.sv(499) @ 695000: uvm_test_top.env.scb [scoreboard] [SCB][AXI][PASS] AXI4 AXI4_WRITE id=0x7 addr=0x4238 burst=AXI4_BURST_INCR beats=12 size=4B lock=0 | bresp=AXI4_RESP_SLVERR | total=2
# UVM_INFO ../10_tb/axi4_mst/axi4_mst_driver.sv(105) @ 695000: uvm_test_top.env.axi_agent.drv [axi4_mst_driver] [DRV][AXI][REQ] AXI4 AXI4_READ id=0x3 addr=0x5348 burst=AXI4_BURST_FIXED beats=3 size=4B lock=0 | outstanding=1
# UVM_INFO ../10_tb/axi4_mst/axi4_mst_driver.sv(261) @ 725000: uvm_test_top.env.axi_agent.drv [axi4_mst_driver] [DRV][AXI][AR] id=0x3 addr=0x5348 burst=AXI4_BURST_FIXED beats=3 size=4B
# UVM_INFO ../10_tb/axi4_mst/axi4_mst_monitor.sv(211) @ 725000: uvm_test_top.env.axi_agent.mon [axi4_mst_monitor] [MON][AXI][REQ] AXI4 AXI4_READ id=0x3 addr=0x5348 burst=AXI4_BURST_FIXED beats=3 size=4B lock=0
# UVM_INFO ../10_tb/env/predictor.sv(75) @ 725000: uvm_test_top.env.pred [predictor] [PRED][AXI][IN] AXI4 AXI4_READ id=0x3 addr=0x5348 burst=AXI4_BURST_FIXED beats=3 size=4B lock=0 | queued=1
# UVM_INFO ../10_tb/env/predictor.sv(138) @ 725000: uvm_test_top.env.pred [predictor] [PRED][MAP] AXI4 AXI4_READ id=0x3 addr=0x5348 burst=AXI4_BURST_FIXED beats=3 size=4B lock=0 -> AHB burst=AHB_BURST_SINGLE size=4B crosses_1kb=0
# UVM_INFO ../10_tb/env/predictor.sv(175) @ 725000: uvm_test_top.env.pred [predictor] [PRED][AHB] beat=1/3 | AHB AHB_READ addr=0x5348 trans=AHB_TRANS_NONSEQ burst=AHB_BURST_SINGLE size=4B mastlock=0 resp=AHB_RESP_OKAY waits=0
# UVM_INFO ../10_tb/env/predictor.sv(175) @ 725000: uvm_test_top.env.pred [predictor] [PRED][AHB] beat=2/3 | AHB AHB_READ addr=0x5348 trans=AHB_TRANS_NONSEQ burst=AHB_BURST_SINGLE size=4B mastlock=0 resp=AHB_RESP_OKAY waits=0
# UVM_INFO ../10_tb/env/predictor.sv(175) @ 725000: uvm_test_top.env.pred [predictor] [PRED][AHB] beat=3/3 | AHB AHB_READ addr=0x5348 trans=AHB_TRANS_NONSEQ burst=AHB_BURST_SINGLE size=4B mastlock=0 resp=AHB_RESP_OKAY waits=0
# UVM_INFO ../10_tb/ahb_slv/ahb_slv_driver.sv(87) @ 735000: uvm_test_top.env.ahb_agent.drv [ahb_slv_driver] [DRV][AHB][REQ] AHB_READ addr=0x5348 trans=AHB_TRANS_NONSEQ burst=AHB_BURST_SINGLE size=4B
# UVM_INFO ../10_tb/seq/ahb_slv_seq/ahb_slv_response_mapping_seq.sv(54) @ 735000: uvm_test_top.env.ahb_agent.sqr@@ahb_seq [ahb_slv_response_mapping_seq] [RSP][AHB] AHB_READ addr=0x5348 resp=AHB_RESP_OKAY waits=0
# UVM_INFO ../10_tb/ahb_slv/ahb_slv_driver.sv(201) @ 745000: uvm_test_top.env.ahb_agent.drv [ahb_slv_driver] [DRV][AHB][RSP] AHB_READ addr=0x5348 data=0xffffacb7 resp=AHB_RESP_OKAY ready_delay=0
# UVM_INFO ../10_tb/ahb_slv/ahb_slv_monitor.sv(119) @ 745000: uvm_test_top.env.ahb_agent.mon [ahb_slv_monitor] [MON][AHB][TR] AHB AHB_READ addr=0x5348 trans=AHB_TRANS_NONSEQ burst=AHB_BURST_SINGLE size=4B mastlock=0 resp=AHB_RESP_OKAY waits=0 | data=0xffffacb7
# UVM_INFO ../10_tb/env/scoreboard.sv(359) @ 745000: uvm_test_top.env.scb [scoreboard] [SCB][AHB][PASS] AHB AHB_READ addr=0x5348 trans=AHB_TRANS_NONSEQ burst=AHB_BURST_SINGLE size=4B mastlock=0 resp=AHB_RESP_OKAY waits=0 | data=0xffffacb7 | total=17
# UVM_INFO ../10_tb/ahb_slv/ahb_slv_driver.sv(87) @ 755000: uvm_test_top.env.ahb_agent.drv [ahb_slv_driver] [DRV][AHB][REQ] AHB_READ addr=0x5348 trans=AHB_TRANS_NONSEQ burst=AHB_BURST_SINGLE size=4B
# UVM_INFO ../10_tb/seq/ahb_slv_seq/ahb_slv_response_mapping_seq.sv(54) @ 755000: uvm_test_top.env.ahb_agent.sqr@@ahb_seq [ahb_slv_response_mapping_seq] [RSP][AHB] AHB_READ addr=0x5348 resp=AHB_RESP_OKAY waits=0
# UVM_INFO ../10_tb/ahb_slv/ahb_slv_driver.sv(201) @ 765000: uvm_test_top.env.ahb_agent.drv [ahb_slv_driver] [DRV][AHB][RSP] AHB_READ addr=0x5348 data=0xffffacb7 resp=AHB_RESP_OKAY ready_delay=0
# UVM_INFO ../10_tb/ahb_slv/ahb_slv_monitor.sv(119) @ 765000: uvm_test_top.env.ahb_agent.mon [ahb_slv_monitor] [MON][AHB][TR] AHB AHB_READ addr=0x5348 trans=AHB_TRANS_NONSEQ burst=AHB_BURST_SINGLE size=4B mastlock=0 resp=AHB_RESP_OKAY waits=0 | data=0xffffacb7
# UVM_INFO ../10_tb/env/scoreboard.sv(359) @ 765000: uvm_test_top.env.scb [scoreboard] [SCB][AHB][PASS] AHB AHB_READ addr=0x5348 trans=AHB_TRANS_NONSEQ burst=AHB_BURST_SINGLE size=4B mastlock=0 resp=AHB_RESP_OKAY waits=0 | data=0xffffacb7 | total=18
# UVM_INFO ../10_tb/ahb_slv/ahb_slv_driver.sv(87) @ 775000: uvm_test_top.env.ahb_agent.drv [ahb_slv_driver] [DRV][AHB][REQ] AHB_READ addr=0x5348 trans=AHB_TRANS_NONSEQ burst=AHB_BURST_SINGLE size=4B
# UVM_INFO ../10_tb/seq/ahb_slv_seq/ahb_slv_response_mapping_seq.sv(54) @ 775000: uvm_test_top.env.ahb_agent.sqr@@ahb_seq [ahb_slv_response_mapping_seq] [RSP][AHB] AHB_READ addr=0x5348 resp=AHB_RESP_OKAY waits=0
# UVM_INFO ../10_tb/ahb_slv/ahb_slv_driver.sv(201) @ 785000: uvm_test_top.env.ahb_agent.drv [ahb_slv_driver] [DRV][AHB][RSP] AHB_READ addr=0x5348 data=0xffffacb7 resp=AHB_RESP_OKAY ready_delay=0
# UVM_INFO ../10_tb/ahb_slv/ahb_slv_monitor.sv(119) @ 785000: uvm_test_top.env.ahb_agent.mon [ahb_slv_monitor] [MON][AHB][TR] AHB AHB_READ addr=0x5348 trans=AHB_TRANS_NONSEQ burst=AHB_BURST_SINGLE size=4B mastlock=0 resp=AHB_RESP_OKAY waits=0 | data=0xffffacb7
# UVM_INFO ../10_tb/env/scoreboard.sv(359) @ 785000: uvm_test_top.env.scb [scoreboard] [SCB][AHB][PASS] AHB AHB_READ addr=0x5348 trans=AHB_TRANS_NONSEQ burst=AHB_BURST_SINGLE size=4B mastlock=0 resp=AHB_RESP_OKAY waits=0 | data=0xffffacb7 | total=19
# UVM_INFO ../10_tb/axi4_mst/axi4_mst_driver.sv(326) @ 795000: uvm_test_top.env.axi_agent.drv [axi4_mst_driver] [DRV][AXI][R] id=0x3 beat=1/3 data=0xffffacb7 resp=AXI4_RESP_OKAY last=0
# UVM_INFO ../10_tb/axi4_mst/axi4_mst_monitor.sv(256) @ 795000: uvm_test_top.env.axi_agent.mon [axi4_mst_monitor] [MON][AXI][R] id=0x3 beat=1/3 data=0xffffacb7 resp=AXI4_RESP_OKAY last=0
# UVM_INFO ../10_tb/axi4_mst/axi4_mst_driver.sv(326) @ 825000: uvm_test_top.env.axi_agent.drv [axi4_mst_driver] [DRV][AXI][R] id=0x3 beat=2/3 data=0xffffacb7 resp=AXI4_RESP_OKAY last=0
# UVM_INFO ../10_tb/axi4_mst/axi4_mst_monitor.sv(256) @ 825000: uvm_test_top.env.axi_agent.mon [axi4_mst_monitor] [MON][AXI][R] id=0x3 beat=2/3 data=0xffffacb7 resp=AXI4_RESP_OKAY last=0
# UVM_INFO ../10_tb/axi4_mst/axi4_mst_driver.sv(326) @ 845000: uvm_test_top.env.axi_agent.drv [axi4_mst_driver] [DRV][AXI][R] id=0x3 beat=3/3 data=0xffffacb7 resp=AXI4_RESP_OKAY last=1
# UVM_INFO ../10_tb/axi4_mst/axi4_mst_monitor.sv(256) @ 845000: uvm_test_top.env.axi_agent.mon [axi4_mst_monitor] [MON][AXI][R] id=0x3 beat=3/3 data=0xffffacb7 resp=AXI4_RESP_OKAY last=1
# UVM_INFO ../10_tb/axi4_mst/axi4_mst_monitor.sv(262) @ 845000: uvm_test_top.env.axi_agent.mon [axi4_mst_monitor] [MON][AXI][RSP] READ id=0x3 beats=3
# UVM_INFO ../10_tb/env/scoreboard.sv(506) @ 845000: uvm_test_top.env.scb [scoreboard] [SCB][AXI][PASS] AXI4 AXI4_READ id=0x3 addr=0x5348 burst=AXI4_BURST_FIXED beats=3 size=4B lock=0 | read beats=3 | total=3
# UVM_INFO ../10_tb/axi4_mst/axi4_mst_driver.sv(105) @ 845000: uvm_test_top.env.axi_agent.drv [axi4_mst_driver] [DRV][AXI][REQ] AXI4 AXI4_WRITE id=0x1 addr=0x687c burst=AXI4_BURST_FIXED beats=12 size=4B lock=0 | outstanding=1
# UVM_INFO ../10_tb/axi4_mst/axi4_mst_driver.sv(178) @ 885000: uvm_test_top.env.axi_agent.drv [axi4_mst_driver] [DRV][AXI][AW] id=0x1 addr=0x687c burst=AXI4_BURST_FIXED beats=12 size=4B
# UVM_INFO ../10_tb/axi4_mst/axi4_mst_driver.sv(204) @ 885000: uvm_test_top.env.axi_agent.drv [axi4_mst_driver] [DRV][AXI][W] id=0x1 beat=1/12 data=0x3e3b3835 strb=0xf last=0
# UVM_INFO ../10_tb/ahb_slv/ahb_slv_driver.sv(87) @ 895000: uvm_test_top.env.ahb_agent.drv [ahb_slv_driver] [DRV][AHB][REQ] AHB_WRITE addr=0x687c trans=AHB_TRANS_NONSEQ burst=AHB_BURST_SINGLE size=4B
# UVM_INFO ../10_tb/seq/ahb_slv_seq/ahb_slv_response_mapping_seq.sv(54) @ 895000: uvm_test_top.env.ahb_agent.sqr@@ahb_seq [ahb_slv_response_mapping_seq] [RSP][AHB] AHB_WRITE addr=0x687c resp=AHB_RESP_OKAY waits=0
# UVM_INFO ../10_tb/ahb_slv/ahb_slv_driver.sv(201) @ 905000: uvm_test_top.env.ahb_agent.drv [ahb_slv_driver] [DRV][AHB][RSP] AHB_WRITE addr=0x687c data=0x3e3b3835 resp=AHB_RESP_OKAY ready_delay=0
# UVM_INFO ../10_tb/ahb_slv/ahb_slv_monitor.sv(119) @ 905000: uvm_test_top.env.ahb_agent.mon [ahb_slv_monitor] [MON][AHB][TR] AHB AHB_WRITE addr=0x687c trans=AHB_TRANS_NONSEQ burst=AHB_BURST_SINGLE size=4B mastlock=0 resp=AHB_RESP_OKAY waits=0 | data=0x3e3b3835
# UVM_INFO ../10_tb/ahb_slv/ahb_slv_driver.sv(87) @ 915000: uvm_test_top.env.ahb_agent.drv [ahb_slv_driver] [DRV][AHB][REQ] AHB_WRITE addr=0x687c trans=AHB_TRANS_NONSEQ burst=AHB_BURST_SINGLE size=4B
# UVM_INFO ../10_tb/axi4_mst/axi4_mst_driver.sv(204) @ 915000: uvm_test_top.env.axi_agent.drv [axi4_mst_driver] [DRV][AXI][W] id=0x1 beat=2/12 data=0x43403d3a strb=0xf last=0
# UVM_INFO ../10_tb/seq/ahb_slv_seq/ahb_slv_response_mapping_seq.sv(54) @ 915000: uvm_test_top.env.ahb_agent.sqr@@ahb_seq [ahb_slv_response_mapping_seq] [RSP][AHB] AHB_WRITE addr=0x687c resp=AHB_RESP_OKAY waits=0
# UVM_INFO ../10_tb/ahb_slv/ahb_slv_driver.sv(201) @ 925000: uvm_test_top.env.ahb_agent.drv [ahb_slv_driver] [DRV][AHB][RSP] AHB_WRITE addr=0x687c data=0x43403d3a resp=AHB_RESP_OKAY ready_delay=0
# UVM_INFO ../10_tb/ahb_slv/ahb_slv_monitor.sv(119) @ 925000: uvm_test_top.env.ahb_agent.mon [ahb_slv_monitor] [MON][AHB][TR] AHB AHB_WRITE addr=0x687c trans=AHB_TRANS_NONSEQ burst=AHB_BURST_SINGLE size=4B mastlock=0 resp=AHB_RESP_OKAY waits=0 | data=0x43403d3a
# UVM_INFO ../10_tb/ahb_slv/ahb_slv_driver.sv(87) @ 935000: uvm_test_top.env.ahb_agent.drv [ahb_slv_driver] [DRV][AHB][REQ] AHB_WRITE addr=0x687c trans=AHB_TRANS_NONSEQ burst=AHB_BURST_SINGLE size=4B
# UVM_INFO ../10_tb/axi4_mst/axi4_mst_driver.sv(204) @ 935000: uvm_test_top.env.axi_agent.drv [axi4_mst_driver] [DRV][AXI][W] id=0x1 beat=3/12 data=0x4845423f strb=0xf last=0
# UVM_INFO ../10_tb/seq/ahb_slv_seq/ahb_slv_response_mapping_seq.sv(54) @ 935000: uvm_test_top.env.ahb_agent.sqr@@ahb_seq [ahb_slv_response_mapping_seq] [RSP][AHB] AHB_WRITE addr=0x687c resp=AHB_RESP_OKAY waits=4
# UVM_INFO ../10_tb/ahb_slv/ahb_slv_driver.sv(201) @ 985000: uvm_test_top.env.ahb_agent.drv [ahb_slv_driver] [DRV][AHB][RSP] AHB_WRITE addr=0x687c data=0x4845423f resp=AHB_RESP_OKAY ready_delay=4
# UVM_INFO ../10_tb/ahb_slv/ahb_slv_monitor.sv(119) @ 985000: uvm_test_top.env.ahb_agent.mon [ahb_slv_monitor] [MON][AHB][TR] AHB AHB_WRITE addr=0x687c trans=AHB_TRANS_NONSEQ burst=AHB_BURST_SINGLE size=4B mastlock=0 resp=AHB_RESP_OKAY waits=4 | data=0x4845423f
# UVM_INFO ../10_tb/ahb_slv/ahb_slv_driver.sv(87) @ 995000: uvm_test_top.env.ahb_agent.drv [ahb_slv_driver] [DRV][AHB][REQ] AHB_WRITE addr=0x687c trans=AHB_TRANS_NONSEQ burst=AHB_BURST_SINGLE size=4B
# UVM_INFO ../10_tb/axi4_mst/axi4_mst_driver.sv(204) @ 995000: uvm_test_top.env.axi_agent.drv [axi4_mst_driver] [DRV][AXI][W] id=0x1 beat=4/12 data=0x4d4a4744 strb=0xf last=0
# UVM_INFO ../10_tb/seq/ahb_slv_seq/ahb_slv_response_mapping_seq.sv(54) @ 995000: uvm_test_top.env.ahb_agent.sqr@@ahb_seq [ahb_slv_response_mapping_seq] [RSP][AHB] AHB_WRITE addr=0x687c resp=AHB_RESP_OKAY waits=0
# UVM_INFO ../10_tb/ahb_slv/ahb_slv_driver.sv(201) @ 1005000: uvm_test_top.env.ahb_agent.drv [ahb_slv_driver] [DRV][AHB][RSP] AHB_WRITE addr=0x687c data=0x4d4a4744 resp=AHB_RESP_OKAY ready_delay=0
# UVM_INFO ../10_tb/ahb_slv/ahb_slv_monitor.sv(119) @ 1005000: uvm_test_top.env.ahb_agent.mon [ahb_slv_monitor] [MON][AHB][TR] AHB AHB_WRITE addr=0x687c trans=AHB_TRANS_NONSEQ burst=AHB_BURST_SINGLE size=4B mastlock=0 resp=AHB_RESP_OKAY waits=0 | data=0x4d4a4744
# UVM_INFO ../10_tb/ahb_slv/ahb_slv_driver.sv(87) @ 1015000: uvm_test_top.env.ahb_agent.drv [ahb_slv_driver] [DRV][AHB][REQ] AHB_WRITE addr=0x687c trans=AHB_TRANS_NONSEQ burst=AHB_BURST_SINGLE size=4B
# UVM_INFO ../10_tb/axi4_mst/axi4_mst_driver.sv(204) @ 1015000: uvm_test_top.env.axi_agent.drv [axi4_mst_driver] [DRV][AXI][W] id=0x1 beat=5/12 data=0x524f4c49 strb=0xf last=0
# UVM_INFO ../10_tb/seq/ahb_slv_seq/ahb_slv_response_mapping_seq.sv(54) @ 1015000: uvm_test_top.env.ahb_agent.sqr@@ahb_seq [ahb_slv_response_mapping_seq] [RSP][AHB] AHB_WRITE addr=0x687c resp=AHB_RESP_OKAY waits=4
# UVM_INFO ../10_tb/ahb_slv/ahb_slv_driver.sv(201) @ 1065000: uvm_test_top.env.ahb_agent.drv [ahb_slv_driver] [DRV][AHB][RSP] AHB_WRITE addr=0x687c data=0x524f4c49 resp=AHB_RESP_OKAY ready_delay=4
# UVM_INFO ../10_tb/ahb_slv/ahb_slv_monitor.sv(119) @ 1065000: uvm_test_top.env.ahb_agent.mon [ahb_slv_monitor] [MON][AHB][TR] AHB AHB_WRITE addr=0x687c trans=AHB_TRANS_NONSEQ burst=AHB_BURST_SINGLE size=4B mastlock=0 resp=AHB_RESP_OKAY waits=4 | data=0x524f4c49
# UVM_INFO ../10_tb/ahb_slv/ahb_slv_driver.sv(87) @ 1075000: uvm_test_top.env.ahb_agent.drv [ahb_slv_driver] [DRV][AHB][REQ] AHB_WRITE addr=0x687c trans=AHB_TRANS_NONSEQ burst=AHB_BURST_SINGLE size=4B
# UVM_INFO ../10_tb/axi4_mst/axi4_mst_driver.sv(204) @ 1075000: uvm_test_top.env.axi_agent.drv [axi4_mst_driver] [DRV][AXI][W] id=0x1 beat=6/12 data=0x5754514e strb=0xf last=0
# UVM_INFO ../10_tb/seq/ahb_slv_seq/ahb_slv_response_mapping_seq.sv(54) @ 1075000: uvm_test_top.env.ahb_agent.sqr@@ahb_seq [ahb_slv_response_mapping_seq] [RSP][AHB] AHB_WRITE addr=0x687c resp=AHB_RESP_OKAY waits=0
# UVM_INFO ../10_tb/ahb_slv/ahb_slv_driver.sv(201) @ 1085000: uvm_test_top.env.ahb_agent.drv [ahb_slv_driver] [DRV][AHB][RSP] AHB_WRITE addr=0x687c data=0x5754514e resp=AHB_RESP_OKAY ready_delay=0
# UVM_INFO ../10_tb/ahb_slv/ahb_slv_monitor.sv(119) @ 1085000: uvm_test_top.env.ahb_agent.mon [ahb_slv_monitor] [MON][AHB][TR] AHB AHB_WRITE addr=0x687c trans=AHB_TRANS_NONSEQ burst=AHB_BURST_SINGLE size=4B mastlock=0 resp=AHB_RESP_OKAY waits=0 | data=0x5754514e
# UVM_INFO ../10_tb/ahb_slv/ahb_slv_driver.sv(87) @ 1095000: uvm_test_top.env.ahb_agent.drv [ahb_slv_driver] [DRV][AHB][REQ] AHB_WRITE addr=0x687c trans=AHB_TRANS_NONSEQ burst=AHB_BURST_SINGLE size=4B
# UVM_INFO ../10_tb/axi4_mst/axi4_mst_driver.sv(204) @ 1095000: uvm_test_top.env.axi_agent.drv [axi4_mst_driver] [DRV][AXI][W] id=0x1 beat=7/12 data=0x5c595653 strb=0xf last=0
# UVM_INFO ../10_tb/seq/ahb_slv_seq/ahb_slv_response_mapping_seq.sv(54) @ 1095000: uvm_test_top.env.ahb_agent.sqr@@ahb_seq [ahb_slv_response_mapping_seq] [RSP][AHB] AHB_WRITE addr=0x687c resp=AHB_RESP_OKAY waits=0
# UVM_INFO ../10_tb/ahb_slv/ahb_slv_driver.sv(201) @ 1105000: uvm_test_top.env.ahb_agent.drv [ahb_slv_driver] [DRV][AHB][RSP] AHB_WRITE addr=0x687c data=0x5c595653 resp=AHB_RESP_OKAY ready_delay=0
# UVM_INFO ../10_tb/ahb_slv/ahb_slv_monitor.sv(119) @ 1105000: uvm_test_top.env.ahb_agent.mon [ahb_slv_monitor] [MON][AHB][TR] AHB AHB_WRITE addr=0x687c trans=AHB_TRANS_NONSEQ burst=AHB_BURST_SINGLE size=4B mastlock=0 resp=AHB_RESP_OKAY waits=0 | data=0x5c595653
# UVM_INFO ../10_tb/ahb_slv/ahb_slv_driver.sv(87) @ 1115000: uvm_test_top.env.ahb_agent.drv [ahb_slv_driver] [DRV][AHB][REQ] AHB_WRITE addr=0x687c trans=AHB_TRANS_NONSEQ burst=AHB_BURST_SINGLE size=4B
# UVM_INFO ../10_tb/axi4_mst/axi4_mst_driver.sv(204) @ 1115000: uvm_test_top.env.axi_agent.drv [axi4_mst_driver] [DRV][AXI][W] id=0x1 beat=8/12 data=0x615e5b58 strb=0xf last=0
# UVM_INFO ../10_tb/seq/ahb_slv_seq/ahb_slv_response_mapping_seq.sv(54) @ 1115000: uvm_test_top.env.ahb_agent.sqr@@ahb_seq [ahb_slv_response_mapping_seq] [RSP][AHB] AHB_WRITE addr=0x687c resp=AHB_RESP_OKAY waits=0
# UVM_INFO ../10_tb/ahb_slv/ahb_slv_driver.sv(201) @ 1125000: uvm_test_top.env.ahb_agent.drv [ahb_slv_driver] [DRV][AHB][RSP] AHB_WRITE addr=0x687c data=0x615e5b58 resp=AHB_RESP_OKAY ready_delay=0
# UVM_INFO ../10_tb/ahb_slv/ahb_slv_monitor.sv(119) @ 1125000: uvm_test_top.env.ahb_agent.mon [ahb_slv_monitor] [MON][AHB][TR] AHB AHB_WRITE addr=0x687c trans=AHB_TRANS_NONSEQ burst=AHB_BURST_SINGLE size=4B mastlock=0 resp=AHB_RESP_OKAY waits=0 | data=0x615e5b58
# UVM_INFO ../10_tb/ahb_slv/ahb_slv_driver.sv(87) @ 1135000: uvm_test_top.env.ahb_agent.drv [ahb_slv_driver] [DRV][AHB][REQ] AHB_WRITE addr=0x687c trans=AHB_TRANS_NONSEQ burst=AHB_BURST_SINGLE size=4B
# UVM_INFO ../10_tb/axi4_mst/axi4_mst_driver.sv(204) @ 1135000: uvm_test_top.env.axi_agent.drv [axi4_mst_driver] [DRV][AXI][W] id=0x1 beat=9/12 data=0x6663605d strb=0xf last=0
# UVM_INFO ../10_tb/seq/ahb_slv_seq/ahb_slv_response_mapping_seq.sv(54) @ 1135000: uvm_test_top.env.ahb_agent.sqr@@ahb_seq [ahb_slv_response_mapping_seq] [RSP][AHB] AHB_WRITE addr=0x687c resp=AHB_RESP_OKAY waits=0
# UVM_INFO ../10_tb/ahb_slv/ahb_slv_driver.sv(201) @ 1145000: uvm_test_top.env.ahb_agent.drv [ahb_slv_driver] [DRV][AHB][RSP] AHB_WRITE addr=0x687c data=0x6663605d resp=AHB_RESP_OKAY ready_delay=0
# UVM_INFO ../10_tb/ahb_slv/ahb_slv_monitor.sv(119) @ 1145000: uvm_test_top.env.ahb_agent.mon [ahb_slv_monitor] [MON][AHB][TR] AHB AHB_WRITE addr=0x687c trans=AHB_TRANS_NONSEQ burst=AHB_BURST_SINGLE size=4B mastlock=0 resp=AHB_RESP_OKAY waits=0 | data=0x6663605d
# UVM_INFO ../10_tb/ahb_slv/ahb_slv_driver.sv(87) @ 1155000: uvm_test_top.env.ahb_agent.drv [ahb_slv_driver] [DRV][AHB][REQ] AHB_WRITE addr=0x687c trans=AHB_TRANS_NONSEQ burst=AHB_BURST_SINGLE size=4B
# UVM_INFO ../10_tb/axi4_mst/axi4_mst_driver.sv(204) @ 1155000: uvm_test_top.env.axi_agent.drv [axi4_mst_driver] [DRV][AXI][W] id=0x1 beat=10/12 data=0x6b686562 strb=0xf last=0
# UVM_INFO ../10_tb/seq/ahb_slv_seq/ahb_slv_response_mapping_seq.sv(54) @ 1155000: uvm_test_top.env.ahb_agent.sqr@@ahb_seq [ahb_slv_response_mapping_seq] [RSP][AHB] AHB_WRITE addr=0x687c resp=AHB_RESP_OKAY waits=1
# UVM_INFO ../10_tb/ahb_slv/ahb_slv_driver.sv(201) @ 1175000: uvm_test_top.env.ahb_agent.drv [ahb_slv_driver] [DRV][AHB][RSP] AHB_WRITE addr=0x687c data=0x6b686562 resp=AHB_RESP_OKAY ready_delay=1
# UVM_INFO ../10_tb/ahb_slv/ahb_slv_monitor.sv(119) @ 1175000: uvm_test_top.env.ahb_agent.mon [ahb_slv_monitor] [MON][AHB][TR] AHB AHB_WRITE addr=0x687c trans=AHB_TRANS_NONSEQ burst=AHB_BURST_SINGLE size=4B mastlock=0 resp=AHB_RESP_OKAY waits=1 | data=0x6b686562
# UVM_INFO ../10_tb/ahb_slv/ahb_slv_driver.sv(87) @ 1185000: uvm_test_top.env.ahb_agent.drv [ahb_slv_driver] [DRV][AHB][REQ] AHB_WRITE addr=0x687c trans=AHB_TRANS_NONSEQ burst=AHB_BURST_SINGLE size=4B
# UVM_INFO ../10_tb/axi4_mst/axi4_mst_driver.sv(204) @ 1185000: uvm_test_top.env.axi_agent.drv [axi4_mst_driver] [DRV][AXI][W] id=0x1 beat=11/12 data=0x706d6a67 strb=0xf last=0
# UVM_INFO ../10_tb/seq/ahb_slv_seq/ahb_slv_response_mapping_seq.sv(54) @ 1185000: uvm_test_top.env.ahb_agent.sqr@@ahb_seq [ahb_slv_response_mapping_seq] [RSP][AHB] AHB_WRITE addr=0x687c resp=AHB_RESP_OKAY waits=0
# UVM_INFO ../10_tb/ahb_slv/ahb_slv_driver.sv(201) @ 1195000: uvm_test_top.env.ahb_agent.drv [ahb_slv_driver] [DRV][AHB][RSP] AHB_WRITE addr=0x687c data=0x706d6a67 resp=AHB_RESP_OKAY ready_delay=0
# UVM_INFO ../10_tb/ahb_slv/ahb_slv_monitor.sv(119) @ 1195000: uvm_test_top.env.ahb_agent.mon [ahb_slv_monitor] [MON][AHB][TR] AHB AHB_WRITE addr=0x687c trans=AHB_TRANS_NONSEQ burst=AHB_BURST_SINGLE size=4B mastlock=0 resp=AHB_RESP_OKAY waits=0 | data=0x706d6a67
# UVM_INFO ../10_tb/ahb_slv/ahb_slv_driver.sv(87) @ 1205000: uvm_test_top.env.ahb_agent.drv [ahb_slv_driver] [DRV][AHB][REQ] AHB_WRITE addr=0x687c trans=AHB_TRANS_NONSEQ burst=AHB_BURST_SINGLE size=4B
# UVM_INFO ../10_tb/axi4_mst/axi4_mst_driver.sv(204) @ 1205000: uvm_test_top.env.axi_agent.drv [axi4_mst_driver] [DRV][AXI][W] id=0x1 beat=12/12 data=0x75726f6c strb=0xf last=1
# UVM_INFO ../10_tb/seq/ahb_slv_seq/ahb_slv_response_mapping_seq.sv(54) @ 1205000: uvm_test_top.env.ahb_agent.sqr@@ahb_seq [ahb_slv_response_mapping_seq] [RSP][AHB] AHB_WRITE addr=0x687c resp=AHB_RESP_OKAY waits=0
# UVM_INFO ../10_tb/axi4_mst/axi4_mst_monitor.sv(151) @ 1205000: uvm_test_top.env.axi_agent.mon [axi4_mst_monitor] [MON][AXI][REQ] AXI4 AXI4_WRITE id=0x1 addr=0x687c burst=AXI4_BURST_FIXED beats=12 size=4B lock=0
# UVM_INFO ../10_tb/env/predictor.sv(75) @ 1205000: uvm_test_top.env.pred [predictor] [PRED][AXI][IN] AXI4 AXI4_WRITE id=0x1 addr=0x687c burst=AXI4_BURST_FIXED beats=12 size=4B lock=0 | queued=1
# UVM_INFO ../10_tb/env/predictor.sv(138) @ 1205000: uvm_test_top.env.pred [predictor] [PRED][MAP] AXI4 AXI4_WRITE id=0x1 addr=0x687c burst=AXI4_BURST_FIXED beats=12 size=4B lock=0 -> AHB burst=AHB_BURST_SINGLE size=4B crosses_1kb=0
# UVM_INFO ../10_tb/env/predictor.sv(169) @ 1205000: uvm_test_top.env.pred [predictor] [PRED][AHB] beat=1/12 | AHB AHB_WRITE addr=0x687c trans=AHB_TRANS_NONSEQ burst=AHB_BURST_SINGLE size=4B mastlock=0 resp=AHB_RESP_OKAY waits=0 | wdata=0x3e3b3835
# UVM_INFO ../10_tb/env/scoreboard.sv(359) @ 1205000: uvm_test_top.env.scb [scoreboard] [SCB][AHB][PASS] AHB AHB_WRITE addr=0x687c trans=AHB_TRANS_NONSEQ burst=AHB_BURST_SINGLE size=4B mastlock=0 resp=AHB_RESP_OKAY waits=0 | data=0x3e3b3835 | total=20
# UVM_INFO ../10_tb/env/predictor.sv(169) @ 1205000: uvm_test_top.env.pred [predictor] [PRED][AHB] beat=2/12 | AHB AHB_WRITE addr=0x687c trans=AHB_TRANS_NONSEQ burst=AHB_BURST_SINGLE size=4B mastlock=0 resp=AHB_RESP_OKAY waits=0 | wdata=0x43403d3a
# UVM_INFO ../10_tb/env/scoreboard.sv(359) @ 1205000: uvm_test_top.env.scb [scoreboard] [SCB][AHB][PASS] AHB AHB_WRITE addr=0x687c trans=AHB_TRANS_NONSEQ burst=AHB_BURST_SINGLE size=4B mastlock=0 resp=AHB_RESP_OKAY waits=0 | data=0x43403d3a | total=21
# UVM_INFO ../10_tb/env/predictor.sv(169) @ 1205000: uvm_test_top.env.pred [predictor] [PRED][AHB] beat=3/12 | AHB AHB_WRITE addr=0x687c trans=AHB_TRANS_NONSEQ burst=AHB_BURST_SINGLE size=4B mastlock=0 resp=AHB_RESP_OKAY waits=0 | wdata=0x4845423f
# UVM_INFO ../10_tb/env/scoreboard.sv(359) @ 1205000: uvm_test_top.env.scb [scoreboard] [SCB][AHB][PASS] AHB AHB_WRITE addr=0x687c trans=AHB_TRANS_NONSEQ burst=AHB_BURST_SINGLE size=4B mastlock=0 resp=AHB_RESP_OKAY waits=4 | data=0x4845423f | total=22
# UVM_INFO ../10_tb/env/predictor.sv(169) @ 1205000: uvm_test_top.env.pred [predictor] [PRED][AHB] beat=4/12 | AHB AHB_WRITE addr=0x687c trans=AHB_TRANS_NONSEQ burst=AHB_BURST_SINGLE size=4B mastlock=0 resp=AHB_RESP_OKAY waits=0 | wdata=0x4d4a4744
# UVM_INFO ../10_tb/env/scoreboard.sv(359) @ 1205000: uvm_test_top.env.scb [scoreboard] [SCB][AHB][PASS] AHB AHB_WRITE addr=0x687c trans=AHB_TRANS_NONSEQ burst=AHB_BURST_SINGLE size=4B mastlock=0 resp=AHB_RESP_OKAY waits=0 | data=0x4d4a4744 | total=23
# UVM_INFO ../10_tb/env/predictor.sv(169) @ 1205000: uvm_test_top.env.pred [predictor] [PRED][AHB] beat=5/12 | AHB AHB_WRITE addr=0x687c trans=AHB_TRANS_NONSEQ burst=AHB_BURST_SINGLE size=4B mastlock=0 resp=AHB_RESP_OKAY waits=0 | wdata=0x524f4c49
# UVM_INFO ../10_tb/env/scoreboard.sv(359) @ 1205000: uvm_test_top.env.scb [scoreboard] [SCB][AHB][PASS] AHB AHB_WRITE addr=0x687c trans=AHB_TRANS_NONSEQ burst=AHB_BURST_SINGLE size=4B mastlock=0 resp=AHB_RESP_OKAY waits=4 | data=0x524f4c49 | total=24
# UVM_INFO ../10_tb/env/predictor.sv(169) @ 1205000: uvm_test_top.env.pred [predictor] [PRED][AHB] beat=6/12 | AHB AHB_WRITE addr=0x687c trans=AHB_TRANS_NONSEQ burst=AHB_BURST_SINGLE size=4B mastlock=0 resp=AHB_RESP_OKAY waits=0 | wdata=0x5754514e
# UVM_INFO ../10_tb/env/scoreboard.sv(359) @ 1205000: uvm_test_top.env.scb [scoreboard] [SCB][AHB][PASS] AHB AHB_WRITE addr=0x687c trans=AHB_TRANS_NONSEQ burst=AHB_BURST_SINGLE size=4B mastlock=0 resp=AHB_RESP_OKAY waits=0 | data=0x5754514e | total=25
# UVM_INFO ../10_tb/env/predictor.sv(169) @ 1205000: uvm_test_top.env.pred [predictor] [PRED][AHB] beat=7/12 | AHB AHB_WRITE addr=0x687c trans=AHB_TRANS_NONSEQ burst=AHB_BURST_SINGLE size=4B mastlock=0 resp=AHB_RESP_OKAY waits=0 | wdata=0x5c595653
# UVM_INFO ../10_tb/env/scoreboard.sv(359) @ 1205000: uvm_test_top.env.scb [scoreboard] [SCB][AHB][PASS] AHB AHB_WRITE addr=0x687c trans=AHB_TRANS_NONSEQ burst=AHB_BURST_SINGLE size=4B mastlock=0 resp=AHB_RESP_OKAY waits=0 | data=0x5c595653 | total=26
# UVM_INFO ../10_tb/env/predictor.sv(169) @ 1205000: uvm_test_top.env.pred [predictor] [PRED][AHB] beat=8/12 | AHB AHB_WRITE addr=0x687c trans=AHB_TRANS_NONSEQ burst=AHB_BURST_SINGLE size=4B mastlock=0 resp=AHB_RESP_OKAY waits=0 | wdata=0x615e5b58
# UVM_INFO ../10_tb/env/scoreboard.sv(359) @ 1205000: uvm_test_top.env.scb [scoreboard] [SCB][AHB][PASS] AHB AHB_WRITE addr=0x687c trans=AHB_TRANS_NONSEQ burst=AHB_BURST_SINGLE size=4B mastlock=0 resp=AHB_RESP_OKAY waits=0 | data=0x615e5b58 | total=27
# UVM_INFO ../10_tb/env/predictor.sv(169) @ 1205000: uvm_test_top.env.pred [predictor] [PRED][AHB] beat=9/12 | AHB AHB_WRITE addr=0x687c trans=AHB_TRANS_NONSEQ burst=AHB_BURST_SINGLE size=4B mastlock=0 resp=AHB_RESP_OKAY waits=0 | wdata=0x6663605d
# UVM_INFO ../10_tb/env/scoreboard.sv(359) @ 1205000: uvm_test_top.env.scb [scoreboard] [SCB][AHB][PASS] AHB AHB_WRITE addr=0x687c trans=AHB_TRANS_NONSEQ burst=AHB_BURST_SINGLE size=4B mastlock=0 resp=AHB_RESP_OKAY waits=0 | data=0x6663605d | total=28
# UVM_INFO ../10_tb/env/predictor.sv(169) @ 1205000: uvm_test_top.env.pred [predictor] [PRED][AHB] beat=10/12 | AHB AHB_WRITE addr=0x687c trans=AHB_TRANS_NONSEQ burst=AHB_BURST_SINGLE size=4B mastlock=0 resp=AHB_RESP_OKAY waits=0 | wdata=0x6b686562
# UVM_INFO ../10_tb/env/scoreboard.sv(359) @ 1205000: uvm_test_top.env.scb [scoreboard] [SCB][AHB][PASS] AHB AHB_WRITE addr=0x687c trans=AHB_TRANS_NONSEQ burst=AHB_BURST_SINGLE size=4B mastlock=0 resp=AHB_RESP_OKAY waits=1 | data=0x6b686562 | total=29
# UVM_INFO ../10_tb/env/predictor.sv(169) @ 1205000: uvm_test_top.env.pred [predictor] [PRED][AHB] beat=11/12 | AHB AHB_WRITE addr=0x687c trans=AHB_TRANS_NONSEQ burst=AHB_BURST_SINGLE size=4B mastlock=0 resp=AHB_RESP_OKAY waits=0 | wdata=0x706d6a67
# UVM_INFO ../10_tb/env/scoreboard.sv(359) @ 1205000: uvm_test_top.env.scb [scoreboard] [SCB][AHB][PASS] AHB AHB_WRITE addr=0x687c trans=AHB_TRANS_NONSEQ burst=AHB_BURST_SINGLE size=4B mastlock=0 resp=AHB_RESP_OKAY waits=0 | data=0x706d6a67 | total=30
# UVM_INFO ../10_tb/env/predictor.sv(169) @ 1205000: uvm_test_top.env.pred [predictor] [PRED][AHB] beat=12/12 | AHB AHB_WRITE addr=0x687c trans=AHB_TRANS_NONSEQ burst=AHB_BURST_SINGLE size=4B mastlock=0 resp=AHB_RESP_OKAY waits=0 | wdata=0x75726f6c
# UVM_INFO ../10_tb/ahb_slv/ahb_slv_driver.sv(201) @ 1215000: uvm_test_top.env.ahb_agent.drv [ahb_slv_driver] [DRV][AHB][RSP] AHB_WRITE addr=0x687c data=0x75726f6c resp=AHB_RESP_OKAY ready_delay=0
# UVM_INFO ../10_tb/ahb_slv/ahb_slv_monitor.sv(119) @ 1215000: uvm_test_top.env.ahb_agent.mon [ahb_slv_monitor] [MON][AHB][TR] AHB AHB_WRITE addr=0x687c trans=AHB_TRANS_NONSEQ burst=AHB_BURST_SINGLE size=4B mastlock=0 resp=AHB_RESP_OKAY waits=0 | data=0x75726f6c
# UVM_INFO ../10_tb/env/scoreboard.sv(359) @ 1215000: uvm_test_top.env.scb [scoreboard] [SCB][AHB][PASS] AHB AHB_WRITE addr=0x687c trans=AHB_TRANS_NONSEQ burst=AHB_BURST_SINGLE size=4B mastlock=0 resp=AHB_RESP_OKAY waits=0 | data=0x75726f6c | total=31
# UVM_INFO ../10_tb/axi4_mst/axi4_mst_driver.sv(286) @ 1235000: uvm_test_top.env.axi_agent.drv [axi4_mst_driver] [DRV][AXI][B] id=0x1 resp=AXI4_RESP_OKAY
# UVM_INFO ../10_tb/axi4_mst/axi4_mst_monitor.sv(177) @ 1235000: uvm_test_top.env.axi_agent.mon [axi4_mst_monitor] [MON][AXI][RSP] WRITE id=0x1 resp=AXI4_RESP_OKAY
# UVM_INFO ../10_tb/env/scoreboard.sv(499) @ 1235000: uvm_test_top.env.scb [scoreboard] [SCB][AXI][PASS] AXI4 AXI4_WRITE id=0x1 addr=0x687c burst=AXI4_BURST_FIXED beats=12 size=4B lock=0 | bresp=AXI4_RESP_OKAY | total=4
# UVM_INFO ../10_tb/axi4_mst/axi4_mst_driver.sv(105) @ 1235000: uvm_test_top.env.axi_agent.drv [axi4_mst_driver] [DRV][AXI][REQ] AXI4 AXI4_READ id=0x7 addr=0x4f08 burst=AXI4_BURST_WRAP beats=8 size=4B lock=0 | outstanding=1
# UVM_INFO ../10_tb/axi4_mst/axi4_mst_driver.sv(261) @ 1265000: uvm_test_top.env.axi_agent.drv [axi4_mst_driver] [DRV][AXI][AR] id=0x7 addr=0x4f08 burst=AXI4_BURST_WRAP beats=8 size=4B
# UVM_INFO ../10_tb/axi4_mst/axi4_mst_monitor.sv(211) @ 1265000: uvm_test_top.env.axi_agent.mon [axi4_mst_monitor] [MON][AXI][REQ] AXI4 AXI4_READ id=0x7 addr=0x4f08 burst=AXI4_BURST_WRAP beats=8 size=4B lock=0
# UVM_INFO ../10_tb/env/predictor.sv(75) @ 1265000: uvm_test_top.env.pred [predictor] [PRED][AXI][IN] AXI4 AXI4_READ id=0x7 addr=0x4f08 burst=AXI4_BURST_WRAP beats=8 size=4B lock=0 | queued=1
# UVM_INFO ../10_tb/env/predictor.sv(138) @ 1265000: uvm_test_top.env.pred [predictor] [PRED][MAP] AXI4 AXI4_READ id=0x7 addr=0x4f08 burst=AXI4_BURST_WRAP beats=8 size=4B lock=0 -> AHB burst=AHB_BURST_WRAP8 size=4B crosses_1kb=0
# UVM_INFO ../10_tb/env/predictor.sv(175) @ 1265000: uvm_test_top.env.pred [predictor] [PRED][AHB] beat=1/8 | AHB AHB_READ addr=0x4f08 trans=AHB_TRANS_NONSEQ burst=AHB_BURST_WRAP8 size=4B mastlock=0 resp=AHB_RESP_OKAY waits=0
# UVM_INFO ../10_tb/env/predictor.sv(175) @ 1265000: uvm_test_top.env.pred [predictor] [PRED][AHB] beat=2/8 | AHB AHB_READ addr=0x4f0c trans=AHB_TRANS_SEQ burst=AHB_BURST_WRAP8 size=4B mastlock=0 resp=AHB_RESP_OKAY waits=0
# UVM_INFO ../10_tb/env/predictor.sv(175) @ 1265000: uvm_test_top.env.pred [predictor] [PRED][AHB] beat=3/8 | AHB AHB_READ addr=0x4f10 trans=AHB_TRANS_SEQ burst=AHB_BURST_WRAP8 size=4B mastlock=0 resp=AHB_RESP_OKAY waits=0
# UVM_INFO ../10_tb/env/predictor.sv(175) @ 1265000: uvm_test_top.env.pred [predictor] [PRED][AHB] beat=4/8 | AHB AHB_READ addr=0x4f14 trans=AHB_TRANS_SEQ burst=AHB_BURST_WRAP8 size=4B mastlock=0 resp=AHB_RESP_OKAY waits=0
# UVM_INFO ../10_tb/env/predictor.sv(175) @ 1265000: uvm_test_top.env.pred [predictor] [PRED][AHB] beat=5/8 | AHB AHB_READ addr=0x4f18 trans=AHB_TRANS_SEQ burst=AHB_BURST_WRAP8 size=4B mastlock=0 resp=AHB_RESP_OKAY waits=0
# UVM_INFO ../10_tb/env/predictor.sv(175) @ 1265000: uvm_test_top.env.pred [predictor] [PRED][AHB] beat=6/8 | AHB AHB_READ addr=0x4f1c trans=AHB_TRANS_SEQ burst=AHB_BURST_WRAP8 size=4B mastlock=0 resp=AHB_RESP_OKAY waits=0
# UVM_INFO ../10_tb/env/predictor.sv(175) @ 1265000: uvm_test_top.env.pred [predictor] [PRED][AHB] beat=7/8 | AHB AHB_READ addr=0x4f00 trans=AHB_TRANS_SEQ burst=AHB_BURST_WRAP8 size=4B mastlock=0 resp=AHB_RESP_OKAY waits=0
# UVM_INFO ../10_tb/env/predictor.sv(175) @ 1265000: uvm_test_top.env.pred [predictor] [PRED][AHB] beat=8/8 | AHB AHB_READ addr=0x4f04 trans=AHB_TRANS_SEQ burst=AHB_BURST_WRAP8 size=4B mastlock=0 resp=AHB_RESP_OKAY waits=0
# UVM_INFO ../10_tb/ahb_slv/ahb_slv_driver.sv(87) @ 1275000: uvm_test_top.env.ahb_agent.drv [ahb_slv_driver] [DRV][AHB][REQ] AHB_READ addr=0x4f08 trans=AHB_TRANS_NONSEQ burst=AHB_BURST_WRAP8 size=4B
# UVM_INFO ../10_tb/seq/ahb_slv_seq/ahb_slv_response_mapping_seq.sv(54) @ 1275000: uvm_test_top.env.ahb_agent.sqr@@ahb_seq [ahb_slv_response_mapping_seq] [RSP][AHB] AHB_READ addr=0x4f08 resp=AHB_RESP_ERROR waits=0
# UVM_INFO ../10_tb/ahb_slv/ahb_slv_driver.sv(201) @ 1295000: uvm_test_top.env.ahb_agent.drv [ahb_slv_driver] [DRV][AHB][RSP] AHB_READ addr=0x4f08 data=0xffffb0f7 resp=AHB_RESP_ERROR ready_delay=0
# UVM_INFO ../10_tb/ahb_slv/ahb_slv_monitor.sv(119) @ 1295000: uvm_test_top.env.ahb_agent.mon [ahb_slv_monitor] [MON][AHB][TR] AHB AHB_READ addr=0x4f08 trans=AHB_TRANS_NONSEQ burst=AHB_BURST_WRAP8 size=4B mastlock=0 resp=AHB_RESP_ERROR waits=1 | data=0xffffb0f7
# UVM_INFO ../10_tb/env/scoreboard.sv(359) @ 1295000: uvm_test_top.env.scb [scoreboard] [SCB][AHB][PASS] AHB AHB_READ addr=0x4f08 trans=AHB_TRANS_NONSEQ burst=AHB_BURST_WRAP8 size=4B mastlock=0 resp=AHB_RESP_ERROR waits=1 | data=0xffffb0f7 | total=32
# UVM_INFO ../10_tb/ahb_slv/ahb_slv_driver.sv(87) @ 1305000: uvm_test_top.env.ahb_agent.drv [ahb_slv_driver] [DRV][AHB][REQ] AHB_READ addr=0x4f0c trans=AHB_TRANS_SEQ burst=AHB_BURST_WRAP8 size=4B
# UVM_INFO ../10_tb/seq/ahb_slv_seq/ahb_slv_response_mapping_seq.sv(54) @ 1305000: uvm_test_top.env.ahb_agent.sqr@@ahb_seq [ahb_slv_response_mapping_seq] [RSP][AHB] AHB_READ addr=0x4f0c resp=AHB_RESP_OKAY waits=3
# UVM_INFO ../10_tb/axi4_mst/axi4_mst_driver.sv(326) @ 1325000: uvm_test_top.env.axi_agent.drv [axi4_mst_driver] [DRV][AXI][R] id=0x7 beat=1/8 data=0xffffb0f7 resp=AXI4_RESP_SLVERR last=0
# UVM_INFO ../10_tb/axi4_mst/axi4_mst_monitor.sv(256) @ 1325000: uvm_test_top.env.axi_agent.mon [axi4_mst_monitor] [MON][AXI][R] id=0x7 beat=1/8 data=0xffffb0f7 resp=AXI4_RESP_SLVERR last=0
# UVM_INFO ../10_tb/ahb_slv/ahb_slv_driver.sv(201) @ 1345000: uvm_test_top.env.ahb_agent.drv [ahb_slv_driver] [DRV][AHB][RSP] AHB_READ addr=0x4f0c data=0xffffb0f3 resp=AHB_RESP_OKAY ready_delay=3
# UVM_INFO ../10_tb/ahb_slv/ahb_slv_monitor.sv(119) @ 1345000: uvm_test_top.env.ahb_agent.mon [ahb_slv_monitor] [MON][AHB][TR] AHB AHB_READ addr=0x4f0c trans=AHB_TRANS_SEQ burst=AHB_BURST_WRAP8 size=4B mastlock=0 resp=AHB_RESP_OKAY waits=3 | data=0xffffb0f3
# UVM_INFO ../10_tb/env/scoreboard.sv(359) @ 1345000: uvm_test_top.env.scb [scoreboard] [SCB][AHB][PASS] AHB AHB_READ addr=0x4f0c trans=AHB_TRANS_SEQ burst=AHB_BURST_WRAP8 size=4B mastlock=0 resp=AHB_RESP_OKAY waits=3 | data=0xffffb0f3 | total=33
# UVM_INFO ../10_tb/ahb_slv/ahb_slv_driver.sv(87) @ 1355000: uvm_test_top.env.ahb_agent.drv [ahb_slv_driver] [DRV][AHB][REQ] AHB_READ addr=0x4f10 trans=AHB_TRANS_SEQ burst=AHB_BURST_WRAP8 size=4B
# UVM_INFO ../10_tb/seq/ahb_slv_seq/ahb_slv_response_mapping_seq.sv(54) @ 1355000: uvm_test_top.env.ahb_agent.sqr@@ahb_seq [ahb_slv_response_mapping_seq] [RSP][AHB] AHB_READ addr=0x4f10 resp=AHB_RESP_OKAY waits=0
# UVM_INFO ../10_tb/ahb_slv/ahb_slv_driver.sv(201) @ 1365000: uvm_test_top.env.ahb_agent.drv [ahb_slv_driver] [DRV][AHB][RSP] AHB_READ addr=0x4f10 data=0xffffb0ef resp=AHB_RESP_OKAY ready_delay=0
# UVM_INFO ../10_tb/ahb_slv/ahb_slv_monitor.sv(119) @ 1365000: uvm_test_top.env.ahb_agent.mon [ahb_slv_monitor] [MON][AHB][TR] AHB AHB_READ addr=0x4f10 trans=AHB_TRANS_SEQ burst=AHB_BURST_WRAP8 size=4B mastlock=0 resp=AHB_RESP_OKAY waits=0 | data=0xffffb0ef
# UVM_INFO ../10_tb/env/scoreboard.sv(359) @ 1365000: uvm_test_top.env.scb [scoreboard] [SCB][AHB][PASS] AHB AHB_READ addr=0x4f10 trans=AHB_TRANS_SEQ burst=AHB_BURST_WRAP8 size=4B mastlock=0 resp=AHB_RESP_OKAY waits=0 | data=0xffffb0ef | total=34
# UVM_INFO ../10_tb/ahb_slv/ahb_slv_driver.sv(87) @ 1375000: uvm_test_top.env.ahb_agent.drv [ahb_slv_driver] [DRV][AHB][REQ] AHB_READ addr=0x4f14 trans=AHB_TRANS_SEQ burst=AHB_BURST_WRAP8 size=4B
# UVM_INFO ../10_tb/axi4_mst/axi4_mst_driver.sv(326) @ 1375000: uvm_test_top.env.axi_agent.drv [axi4_mst_driver] [DRV][AXI][R] id=0x7 beat=2/8 data=0xffffb0f3 resp=AXI4_RESP_OKAY last=0
# UVM_INFO ../10_tb/axi4_mst/axi4_mst_monitor.sv(256) @ 1375000: uvm_test_top.env.axi_agent.mon [axi4_mst_monitor] [MON][AXI][R] id=0x7 beat=2/8 data=0xffffb0f3 resp=AXI4_RESP_OKAY last=0
# UVM_INFO ../10_tb/seq/ahb_slv_seq/ahb_slv_response_mapping_seq.sv(54) @ 1375000: uvm_test_top.env.ahb_agent.sqr@@ahb_seq [ahb_slv_response_mapping_seq] [RSP][AHB] AHB_READ addr=0x4f14 resp=AHB_RESP_OKAY waits=4
# UVM_INFO ../10_tb/axi4_mst/axi4_mst_driver.sv(326) @ 1405000: uvm_test_top.env.axi_agent.drv [axi4_mst_driver] [DRV][AXI][R] id=0x7 beat=3/8 data=0xffffb0ef resp=AXI4_RESP_OKAY last=0
# UVM_INFO ../10_tb/axi4_mst/axi4_mst_monitor.sv(256) @ 1405000: uvm_test_top.env.axi_agent.mon [axi4_mst_monitor] [MON][AXI][R] id=0x7 beat=3/8 data=0xffffb0ef resp=AXI4_RESP_OKAY last=0
# UVM_INFO ../10_tb/ahb_slv/ahb_slv_driver.sv(201) @ 1425000: uvm_test_top.env.ahb_agent.drv [ahb_slv_driver] [DRV][AHB][RSP] AHB_READ addr=0x4f14 data=0xffffb0eb resp=AHB_RESP_OKAY ready_delay=4
# UVM_INFO ../10_tb/ahb_slv/ahb_slv_monitor.sv(119) @ 1425000: uvm_test_top.env.ahb_agent.mon [ahb_slv_monitor] [MON][AHB][TR] AHB AHB_READ addr=0x4f14 trans=AHB_TRANS_SEQ burst=AHB_BURST_WRAP8 size=4B mastlock=0 resp=AHB_RESP_OKAY waits=4 | data=0xffffb0eb
# UVM_INFO ../10_tb/env/scoreboard.sv(359) @ 1425000: uvm_test_top.env.scb [scoreboard] [SCB][AHB][PASS] AHB AHB_READ addr=0x4f14 trans=AHB_TRANS_SEQ burst=AHB_BURST_WRAP8 size=4B mastlock=0 resp=AHB_RESP_OKAY waits=4 | data=0xffffb0eb | total=35
# UVM_INFO ../10_tb/ahb_slv/ahb_slv_driver.sv(87) @ 1435000: uvm_test_top.env.ahb_agent.drv [ahb_slv_driver] [DRV][AHB][REQ] AHB_READ addr=0x4f18 trans=AHB_TRANS_SEQ burst=AHB_BURST_WRAP8 size=4B
# UVM_INFO ../10_tb/seq/ahb_slv_seq/ahb_slv_response_mapping_seq.sv(54) @ 1435000: uvm_test_top.env.ahb_agent.sqr@@ahb_seq [ahb_slv_response_mapping_seq] [RSP][AHB] AHB_READ addr=0x4f18 resp=AHB_RESP_OKAY waits=0
# UVM_INFO ../10_tb/ahb_slv/ahb_slv_driver.sv(201) @ 1445000: uvm_test_top.env.ahb_agent.drv [ahb_slv_driver] [DRV][AHB][RSP] AHB_READ addr=0x4f18 data=0xffffb0e7 resp=AHB_RESP_OKAY ready_delay=0
# UVM_INFO ../10_tb/ahb_slv/ahb_slv_monitor.sv(119) @ 1445000: uvm_test_top.env.ahb_agent.mon [ahb_slv_monitor] [MON][AHB][TR] AHB AHB_READ addr=0x4f18 trans=AHB_TRANS_SEQ burst=AHB_BURST_WRAP8 size=4B mastlock=0 resp=AHB_RESP_OKAY waits=0 | data=0xffffb0e7
# UVM_INFO ../10_tb/env/scoreboard.sv(359) @ 1445000: uvm_test_top.env.scb [scoreboard] [SCB][AHB][PASS] AHB AHB_READ addr=0x4f18 trans=AHB_TRANS_SEQ burst=AHB_BURST_WRAP8 size=4B mastlock=0 resp=AHB_RESP_OKAY waits=0 | data=0xffffb0e7 | total=36
# UVM_INFO ../10_tb/ahb_slv/ahb_slv_driver.sv(87) @ 1455000: uvm_test_top.env.ahb_agent.drv [ahb_slv_driver] [DRV][AHB][REQ] AHB_READ addr=0x4f1c trans=AHB_TRANS_SEQ burst=AHB_BURST_WRAP8 size=4B
# UVM_INFO ../10_tb/seq/ahb_slv_seq/ahb_slv_response_mapping_seq.sv(54) @ 1455000: uvm_test_top.env.ahb_agent.sqr@@ahb_seq [ahb_slv_response_mapping_seq] [RSP][AHB] AHB_READ addr=0x4f1c resp=AHB_RESP_OKAY waits=0
# UVM_INFO ../10_tb/ahb_slv/ahb_slv_driver.sv(201) @ 1465000: uvm_test_top.env.ahb_agent.drv [ahb_slv_driver] [DRV][AHB][RSP] AHB_READ addr=0x4f1c data=0xffffb0e3 resp=AHB_RESP_OKAY ready_delay=0
# UVM_INFO ../10_tb/ahb_slv/ahb_slv_monitor.sv(119) @ 1465000: uvm_test_top.env.ahb_agent.mon [ahb_slv_monitor] [MON][AHB][TR] AHB AHB_READ addr=0x4f1c trans=AHB_TRANS_SEQ burst=AHB_BURST_WRAP8 size=4B mastlock=0 resp=AHB_RESP_OKAY waits=0 | data=0xffffb0e3
# UVM_INFO ../10_tb/env/scoreboard.sv(359) @ 1465000: uvm_test_top.env.scb [scoreboard] [SCB][AHB][PASS] AHB AHB_READ addr=0x4f1c trans=AHB_TRANS_SEQ burst=AHB_BURST_WRAP8 size=4B mastlock=0 resp=AHB_RESP_OKAY waits=0 | data=0xffffb0e3 | total=37
# UVM_INFO ../10_tb/axi4_mst/axi4_mst_driver.sv(326) @ 1475000: uvm_test_top.env.axi_agent.drv [axi4_mst_driver] [DRV][AXI][R] id=0x7 beat=4/8 data=0xffffb0eb resp=AXI4_RESP_OKAY last=0
# UVM_INFO ../10_tb/axi4_mst/axi4_mst_monitor.sv(256) @ 1475000: uvm_test_top.env.axi_agent.mon [axi4_mst_monitor] [MON][AXI][R] id=0x7 beat=4/8 data=0xffffb0eb resp=AXI4_RESP_OKAY last=0
# UVM_INFO ../10_tb/ahb_slv/ahb_slv_driver.sv(87) @ 1495000: uvm_test_top.env.ahb_agent.drv [ahb_slv_driver] [DRV][AHB][REQ] AHB_READ addr=0x4f00 trans=AHB_TRANS_SEQ burst=AHB_BURST_WRAP8 size=4B
# UVM_INFO ../10_tb/seq/ahb_slv_seq/ahb_slv_response_mapping_seq.sv(54) @ 1495000: uvm_test_top.env.ahb_agent.sqr@@ahb_seq [ahb_slv_response_mapping_seq] [RSP][AHB] AHB_READ addr=0x4f00 resp=AHB_RESP_OKAY waits=3
# UVM_INFO ../10_tb/axi4_mst/axi4_mst_driver.sv(326) @ 1505000: uvm_test_top.env.axi_agent.drv [axi4_mst_driver] [DRV][AXI][R] id=0x7 beat=5/8 data=0xffffb0e7 resp=AXI4_RESP_OKAY last=0
# UVM_INFO ../10_tb/axi4_mst/axi4_mst_monitor.sv(256) @ 1505000: uvm_test_top.env.axi_agent.mon [axi4_mst_monitor] [MON][AXI][R] id=0x7 beat=5/8 data=0xffffb0e7 resp=AXI4_RESP_OKAY last=0
# UVM_INFO ../10_tb/axi4_mst/axi4_mst_driver.sv(326) @ 1525000: uvm_test_top.env.axi_agent.drv [axi4_mst_driver] [DRV][AXI][R] id=0x7 beat=6/8 data=0xffffb0e3 resp=AXI4_RESP_OKAY last=0
# UVM_INFO ../10_tb/axi4_mst/axi4_mst_monitor.sv(256) @ 1525000: uvm_test_top.env.axi_agent.mon [axi4_mst_monitor] [MON][AXI][R] id=0x7 beat=6/8 data=0xffffb0e3 resp=AXI4_RESP_OKAY last=0
# UVM_INFO ../10_tb/ahb_slv/ahb_slv_driver.sv(201) @ 1535000: uvm_test_top.env.ahb_agent.drv [ahb_slv_driver] [DRV][AHB][RSP] AHB_READ addr=0x4f00 data=0xffffb0ff resp=AHB_RESP_OKAY ready_delay=3
# UVM_INFO ../10_tb/ahb_slv/ahb_slv_monitor.sv(119) @ 1535000: uvm_test_top.env.ahb_agent.mon [ahb_slv_monitor] [MON][AHB][TR] AHB AHB_READ addr=0x4f00 trans=AHB_TRANS_SEQ burst=AHB_BURST_WRAP8 size=4B mastlock=0 resp=AHB_RESP_OKAY waits=3 | data=0xffffb0ff
# UVM_INFO ../10_tb/env/scoreboard.sv(359) @ 1535000: uvm_test_top.env.scb [scoreboard] [SCB][AHB][PASS] AHB AHB_READ addr=0x4f00 trans=AHB_TRANS_SEQ burst=AHB_BURST_WRAP8 size=4B mastlock=0 resp=AHB_RESP_OKAY waits=3 | data=0xffffb0ff | total=38
# UVM_INFO ../10_tb/ahb_slv/ahb_slv_driver.sv(87) @ 1545000: uvm_test_top.env.ahb_agent.drv [ahb_slv_driver] [DRV][AHB][REQ] AHB_READ addr=0x4f04 trans=AHB_TRANS_SEQ burst=AHB_BURST_WRAP8 size=4B
# UVM_INFO ../10_tb/seq/ahb_slv_seq/ahb_slv_response_mapping_seq.sv(54) @ 1545000: uvm_test_top.env.ahb_agent.sqr@@ahb_seq [ahb_slv_response_mapping_seq] [RSP][AHB] AHB_READ addr=0x4f04 resp=AHB_RESP_ERROR waits=0
# UVM_INFO ../10_tb/ahb_slv/ahb_slv_driver.sv(201) @ 1565000: uvm_test_top.env.ahb_agent.drv [ahb_slv_driver] [DRV][AHB][RSP] AHB_READ addr=0x4f04 data=0xffffb0fb resp=AHB_RESP_ERROR ready_delay=0
# UVM_INFO ../10_tb/ahb_slv/ahb_slv_monitor.sv(119) @ 1565000: uvm_test_top.env.ahb_agent.mon [ahb_slv_monitor] [MON][AHB][TR] AHB AHB_READ addr=0x4f04 trans=AHB_TRANS_SEQ burst=AHB_BURST_WRAP8 size=4B mastlock=0 resp=AHB_RESP_ERROR waits=1 | data=0xffffb0fb
# UVM_INFO ../10_tb/env/scoreboard.sv(359) @ 1565000: uvm_test_top.env.scb [scoreboard] [SCB][AHB][PASS] AHB AHB_READ addr=0x4f04 trans=AHB_TRANS_SEQ burst=AHB_BURST_WRAP8 size=4B mastlock=0 resp=AHB_RESP_ERROR waits=1 | data=0xffffb0fb | total=39
# UVM_INFO ../10_tb/axi4_mst/axi4_mst_driver.sv(326) @ 1575000: uvm_test_top.env.axi_agent.drv [axi4_mst_driver] [DRV][AXI][R] id=0x7 beat=7/8 data=0xffffb0ff resp=AXI4_RESP_OKAY last=0
# UVM_INFO ../10_tb/axi4_mst/axi4_mst_monitor.sv(256) @ 1575000: uvm_test_top.env.axi_agent.mon [axi4_mst_monitor] [MON][AXI][R] id=0x7 beat=7/8 data=0xffffb0ff resp=AXI4_RESP_OKAY last=0
# UVM_INFO ../10_tb/axi4_mst/axi4_mst_driver.sv(326) @ 1605000: uvm_test_top.env.axi_agent.drv [axi4_mst_driver] [DRV][AXI][R] id=0x7 beat=8/8 data=0xffffb0fb resp=AXI4_RESP_SLVERR last=1
# UVM_INFO ../10_tb/axi4_mst/axi4_mst_monitor.sv(256) @ 1605000: uvm_test_top.env.axi_agent.mon [axi4_mst_monitor] [MON][AXI][R] id=0x7 beat=8/8 data=0xffffb0fb resp=AXI4_RESP_SLVERR last=1
# UVM_INFO ../10_tb/axi4_mst/axi4_mst_monitor.sv(262) @ 1605000: uvm_test_top.env.axi_agent.mon [axi4_mst_monitor] [MON][AXI][RSP] READ id=0x7 beats=8
# UVM_INFO ../10_tb/env/scoreboard.sv(506) @ 1605000: uvm_test_top.env.scb [scoreboard] [SCB][AXI][PASS] AXI4 AXI4_READ id=0x7 addr=0x4f08 burst=AXI4_BURST_WRAP beats=8 size=4B lock=0 | read beats=8 | total=5
# UVM_INFO ../10_tb/axi4_mst/axi4_mst_driver.sv(105) @ 1605000: uvm_test_top.env.axi_agent.drv [axi4_mst_driver] [DRV][AXI][REQ] AXI4 AXI4_WRITE id=0x9 addr=0x7f0c burst=AXI4_BURST_WRAP beats=8 size=4B lock=0 | outstanding=1
# UVM_INFO ../10_tb/axi4_mst/axi4_mst_driver.sv(178) @ 1645000: uvm_test_top.env.axi_agent.drv [axi4_mst_driver] [DRV][AXI][AW] id=0x9 addr=0x7f0c burst=AXI4_BURST_WRAP beats=8 size=4B
# UVM_INFO ../10_tb/axi4_mst/axi4_mst_driver.sv(204) @ 1645000: uvm_test_top.env.axi_agent.drv [axi4_mst_driver] [DRV][AXI][W] id=0x9 beat=1/8 data=0x4c494643 strb=0xf last=0
# UVM_INFO ../10_tb/ahb_slv/ahb_slv_driver.sv(87) @ 1655000: uvm_test_top.env.ahb_agent.drv [ahb_slv_driver] [DRV][AHB][REQ] AHB_WRITE addr=0x7f0c trans=AHB_TRANS_NONSEQ burst=AHB_BURST_WRAP8 size=4B
# UVM_INFO ../10_tb/seq/ahb_slv_seq/ahb_slv_response_mapping_seq.sv(54) @ 1655000: uvm_test_top.env.ahb_agent.sqr@@ahb_seq [ahb_slv_response_mapping_seq] [RSP][AHB] AHB_WRITE addr=0x7f0c resp=AHB_RESP_OKAY waits=3
# UVM_INFO ../10_tb/ahb_slv/ahb_slv_driver.sv(201) @ 1695000: uvm_test_top.env.ahb_agent.drv [ahb_slv_driver] [DRV][AHB][RSP] AHB_WRITE addr=0x7f0c data=0x4c494643 resp=AHB_RESP_OKAY ready_delay=3
# UVM_INFO ../10_tb/ahb_slv/ahb_slv_monitor.sv(119) @ 1695000: uvm_test_top.env.ahb_agent.mon [ahb_slv_monitor] [MON][AHB][TR] AHB AHB_WRITE addr=0x7f0c trans=AHB_TRANS_NONSEQ burst=AHB_BURST_WRAP8 size=4B mastlock=0 resp=AHB_RESP_OKAY waits=3 | data=0x4c494643
# UVM_INFO ../10_tb/ahb_slv/ahb_slv_driver.sv(87) @ 1705000: uvm_test_top.env.ahb_agent.drv [ahb_slv_driver] [DRV][AHB][REQ] AHB_WRITE addr=0x7f10 trans=AHB_TRANS_SEQ burst=AHB_BURST_WRAP8 size=4B
# UVM_INFO ../10_tb/axi4_mst/axi4_mst_driver.sv(204) @ 1705000: uvm_test_top.env.axi_agent.drv [axi4_mst_driver] [DRV][AXI][W] id=0x9 beat=2/8 data=0x514e4b48 strb=0xf last=0
# UVM_INFO ../10_tb/seq/ahb_slv_seq/ahb_slv_response_mapping_seq.sv(54) @ 1705000: uvm_test_top.env.ahb_agent.sqr@@ahb_seq [ahb_slv_response_mapping_seq] [RSP][AHB] AHB_WRITE addr=0x7f10 resp=AHB_RESP_OKAY waits=4
# UVM_INFO ../10_tb/ahb_slv/ahb_slv_driver.sv(201) @ 1755000: uvm_test_top.env.ahb_agent.drv [ahb_slv_driver] [DRV][AHB][RSP] AHB_WRITE addr=0x7f10 data=0x514e4b48 resp=AHB_RESP_OKAY ready_delay=4
# UVM_INFO ../10_tb/ahb_slv/ahb_slv_monitor.sv(119) @ 1755000: uvm_test_top.env.ahb_agent.mon [ahb_slv_monitor] [MON][AHB][TR] AHB AHB_WRITE addr=0x7f10 trans=AHB_TRANS_SEQ burst=AHB_BURST_WRAP8 size=4B mastlock=0 resp=AHB_RESP_OKAY waits=4 | data=0x514e4b48
# UVM_INFO ../10_tb/ahb_slv/ahb_slv_driver.sv(87) @ 1765000: uvm_test_top.env.ahb_agent.drv [ahb_slv_driver] [DRV][AHB][REQ] AHB_WRITE addr=0x7f14 trans=AHB_TRANS_SEQ burst=AHB_BURST_WRAP8 size=4B
# UVM_INFO ../10_tb/axi4_mst/axi4_mst_driver.sv(204) @ 1765000: uvm_test_top.env.axi_agent.drv [axi4_mst_driver] [DRV][AXI][W] id=0x9 beat=3/8 data=0x5653504d strb=0xf last=0
# UVM_INFO ../10_tb/seq/ahb_slv_seq/ahb_slv_response_mapping_seq.sv(54) @ 1765000: uvm_test_top.env.ahb_agent.sqr@@ahb_seq [ahb_slv_response_mapping_seq] [RSP][AHB] AHB_WRITE addr=0x7f14 resp=AHB_RESP_ERROR waits=2
# UVM_INFO ../10_tb/ahb_slv/ahb_slv_driver.sv(201) @ 1805000: uvm_test_top.env.ahb_agent.drv [ahb_slv_driver] [DRV][AHB][RSP] AHB_WRITE addr=0x7f14 data=0x5653504d resp=AHB_RESP_ERROR ready_delay=2
# UVM_INFO ../10_tb/ahb_slv/ahb_slv_monitor.sv(119) @ 1805000: uvm_test_top.env.ahb_agent.mon [ahb_slv_monitor] [MON][AHB][TR] AHB AHB_WRITE addr=0x7f14 trans=AHB_TRANS_SEQ burst=AHB_BURST_WRAP8 size=4B mastlock=0 resp=AHB_RESP_ERROR waits=3 | data=0x5653504d
# UVM_INFO ../10_tb/ahb_slv/ahb_slv_driver.sv(87) @ 1815000: uvm_test_top.env.ahb_agent.drv [ahb_slv_driver] [DRV][AHB][REQ] AHB_WRITE addr=0x7f18 trans=AHB_TRANS_SEQ burst=AHB_BURST_WRAP8 size=4B
# UVM_INFO ../10_tb/axi4_mst/axi4_mst_driver.sv(204) @ 1815000: uvm_test_top.env.axi_agent.drv [axi4_mst_driver] [DRV][AXI][W] id=0x9 beat=4/8 data=0x5b585552 strb=0xf last=0
# UVM_INFO ../10_tb/seq/ahb_slv_seq/ahb_slv_response_mapping_seq.sv(54) @ 1815000: uvm_test_top.env.ahb_agent.sqr@@ahb_seq [ahb_slv_response_mapping_seq] [RSP][AHB] AHB_WRITE addr=0x7f18 resp=AHB_RESP_OKAY waits=1
# UVM_INFO ../10_tb/ahb_slv/ahb_slv_driver.sv(201) @ 1835000: uvm_test_top.env.ahb_agent.drv [ahb_slv_driver] [DRV][AHB][RSP] AHB_WRITE addr=0x7f18 data=0x5b585552 resp=AHB_RESP_OKAY ready_delay=1
# UVM_INFO ../10_tb/ahb_slv/ahb_slv_monitor.sv(119) @ 1835000: uvm_test_top.env.ahb_agent.mon [ahb_slv_monitor] [MON][AHB][TR] AHB AHB_WRITE addr=0x7f18 trans=AHB_TRANS_SEQ burst=AHB_BURST_WRAP8 size=4B mastlock=0 resp=AHB_RESP_OKAY waits=1 | data=0x5b585552
# UVM_INFO ../10_tb/ahb_slv/ahb_slv_driver.sv(87) @ 1845000: uvm_test_top.env.ahb_agent.drv [ahb_slv_driver] [DRV][AHB][REQ] AHB_WRITE addr=0x7f1c trans=AHB_TRANS_SEQ burst=AHB_BURST_WRAP8 size=4B
# UVM_INFO ../10_tb/axi4_mst/axi4_mst_driver.sv(204) @ 1845000: uvm_test_top.env.axi_agent.drv [axi4_mst_driver] [DRV][AXI][W] id=0x9 beat=5/8 data=0x605d5a57 strb=0xf last=0
# UVM_INFO ../10_tb/seq/ahb_slv_seq/ahb_slv_response_mapping_seq.sv(54) @ 1845000: uvm_test_top.env.ahb_agent.sqr@@ahb_seq [ahb_slv_response_mapping_seq] [RSP][AHB] AHB_WRITE addr=0x7f1c resp=AHB_RESP_OKAY waits=0
# UVM_INFO ../10_tb/ahb_slv/ahb_slv_driver.sv(201) @ 1855000: uvm_test_top.env.ahb_agent.drv [ahb_slv_driver] [DRV][AHB][RSP] AHB_WRITE addr=0x7f1c data=0x605d5a57 resp=AHB_RESP_OKAY ready_delay=0
# UVM_INFO ../10_tb/ahb_slv/ahb_slv_monitor.sv(119) @ 1855000: uvm_test_top.env.ahb_agent.mon [ahb_slv_monitor] [MON][AHB][TR] AHB AHB_WRITE addr=0x7f1c trans=AHB_TRANS_SEQ burst=AHB_BURST_WRAP8 size=4B mastlock=0 resp=AHB_RESP_OKAY waits=0 | data=0x605d5a57
# UVM_INFO ../10_tb/ahb_slv/ahb_slv_driver.sv(87) @ 1865000: uvm_test_top.env.ahb_agent.drv [ahb_slv_driver] [DRV][AHB][REQ] AHB_WRITE addr=0x7f00 trans=AHB_TRANS_SEQ burst=AHB_BURST_WRAP8 size=4B
# UVM_INFO ../10_tb/axi4_mst/axi4_mst_driver.sv(204) @ 1865000: uvm_test_top.env.axi_agent.drv [axi4_mst_driver] [DRV][AXI][W] id=0x9 beat=6/8 data=0x65625f5c strb=0xf last=0
# UVM_INFO ../10_tb/seq/ahb_slv_seq/ahb_slv_response_mapping_seq.sv(54) @ 1865000: uvm_test_top.env.ahb_agent.sqr@@ahb_seq [ahb_slv_response_mapping_seq] [RSP][AHB] AHB_WRITE addr=0x7f00 resp=AHB_RESP_OKAY waits=0
# UVM_INFO ../10_tb/ahb_slv/ahb_slv_driver.sv(201) @ 1875000: uvm_test_top.env.ahb_agent.drv [ahb_slv_driver] [DRV][AHB][RSP] AHB_WRITE addr=0x7f00 data=0x65625f5c resp=AHB_RESP_OKAY ready_delay=0
# UVM_INFO ../10_tb/ahb_slv/ahb_slv_monitor.sv(119) @ 1875000: uvm_test_top.env.ahb_agent.mon [ahb_slv_monitor] [MON][AHB][TR] AHB AHB_WRITE addr=0x7f00 trans=AHB_TRANS_SEQ burst=AHB_BURST_WRAP8 size=4B mastlock=0 resp=AHB_RESP_OKAY waits=0 | data=0x65625f5c
# UVM_INFO ../10_tb/ahb_slv/ahb_slv_driver.sv(87) @ 1885000: uvm_test_top.env.ahb_agent.drv [ahb_slv_driver] [DRV][AHB][REQ] AHB_WRITE addr=0x7f04 trans=AHB_TRANS_SEQ burst=AHB_BURST_WRAP8 size=4B
# UVM_INFO ../10_tb/axi4_mst/axi4_mst_driver.sv(204) @ 1885000: uvm_test_top.env.axi_agent.drv [axi4_mst_driver] [DRV][AXI][W] id=0x9 beat=7/8 data=0x6a676461 strb=0xf last=0
# UVM_INFO ../10_tb/seq/ahb_slv_seq/ahb_slv_response_mapping_seq.sv(54) @ 1885000: uvm_test_top.env.ahb_agent.sqr@@ahb_seq [ahb_slv_response_mapping_seq] [RSP][AHB] AHB_WRITE addr=0x7f04 resp=AHB_RESP_OKAY waits=0
# UVM_INFO ../10_tb/ahb_slv/ahb_slv_driver.sv(201) @ 1895000: uvm_test_top.env.ahb_agent.drv [ahb_slv_driver] [DRV][AHB][RSP] AHB_WRITE addr=0x7f04 data=0x6a676461 resp=AHB_RESP_OKAY ready_delay=0
# UVM_INFO ../10_tb/ahb_slv/ahb_slv_monitor.sv(119) @ 1895000: uvm_test_top.env.ahb_agent.mon [ahb_slv_monitor] [MON][AHB][TR] AHB AHB_WRITE addr=0x7f04 trans=AHB_TRANS_SEQ burst=AHB_BURST_WRAP8 size=4B mastlock=0 resp=AHB_RESP_OKAY waits=0 | data=0x6a676461
# UVM_INFO ../10_tb/ahb_slv/ahb_slv_driver.sv(87) @ 1905000: uvm_test_top.env.ahb_agent.drv [ahb_slv_driver] [DRV][AHB][REQ] AHB_WRITE addr=0x7f08 trans=AHB_TRANS_SEQ burst=AHB_BURST_WRAP8 size=4B
# UVM_INFO ../10_tb/axi4_mst/axi4_mst_driver.sv(204) @ 1905000: uvm_test_top.env.axi_agent.drv [axi4_mst_driver] [DRV][AXI][W] id=0x9 beat=8/8 data=0x6f6c6966 strb=0xf last=1
# UVM_INFO ../10_tb/seq/ahb_slv_seq/ahb_slv_response_mapping_seq.sv(54) @ 1905000: uvm_test_top.env.ahb_agent.sqr@@ahb_seq [ahb_slv_response_mapping_seq] [RSP][AHB] AHB_WRITE addr=0x7f08 resp=AHB_RESP_OKAY waits=4
# UVM_INFO ../10_tb/axi4_mst/axi4_mst_monitor.sv(151) @ 1905000: uvm_test_top.env.axi_agent.mon [axi4_mst_monitor] [MON][AXI][REQ] AXI4 AXI4_WRITE id=0x9 addr=0x7f0c burst=AXI4_BURST_WRAP beats=8 size=4B lock=0
# UVM_INFO ../10_tb/env/predictor.sv(75) @ 1905000: uvm_test_top.env.pred [predictor] [PRED][AXI][IN] AXI4 AXI4_WRITE id=0x9 addr=0x7f0c burst=AXI4_BURST_WRAP beats=8 size=4B lock=0 | queued=1
# UVM_INFO ../10_tb/env/predictor.sv(138) @ 1905000: uvm_test_top.env.pred [predictor] [PRED][MAP] AXI4 AXI4_WRITE id=0x9 addr=0x7f0c burst=AXI4_BURST_WRAP beats=8 size=4B lock=0 -> AHB burst=AHB_BURST_WRAP8 size=4B crosses_1kb=0
# UVM_INFO ../10_tb/env/predictor.sv(169) @ 1905000: uvm_test_top.env.pred [predictor] [PRED][AHB] beat=1/8 | AHB AHB_WRITE addr=0x7f0c trans=AHB_TRANS_NONSEQ burst=AHB_BURST_WRAP8 size=4B mastlock=0 resp=AHB_RESP_OKAY waits=0 | wdata=0x4c494643
# UVM_INFO ../10_tb/env/scoreboard.sv(359) @ 1905000: uvm_test_top.env.scb [scoreboard] [SCB][AHB][PASS] AHB AHB_WRITE addr=0x7f0c trans=AHB_TRANS_NONSEQ burst=AHB_BURST_WRAP8 size=4B mastlock=0 resp=AHB_RESP_OKAY waits=3 | data=0x4c494643 | total=40
# UVM_INFO ../10_tb/env/predictor.sv(169) @ 1905000: uvm_test_top.env.pred [predictor] [PRED][AHB] beat=2/8 | AHB AHB_WRITE addr=0x7f10 trans=AHB_TRANS_SEQ burst=AHB_BURST_WRAP8 size=4B mastlock=0 resp=AHB_RESP_OKAY waits=0 | wdata=0x514e4b48
# UVM_INFO ../10_tb/env/scoreboard.sv(359) @ 1905000: uvm_test_top.env.scb [scoreboard] [SCB][AHB][PASS] AHB AHB_WRITE addr=0x7f10 trans=AHB_TRANS_SEQ burst=AHB_BURST_WRAP8 size=4B mastlock=0 resp=AHB_RESP_OKAY waits=4 | data=0x514e4b48 | total=41
# UVM_INFO ../10_tb/env/predictor.sv(169) @ 1905000: uvm_test_top.env.pred [predictor] [PRED][AHB] beat=3/8 | AHB AHB_WRITE addr=0x7f14 trans=AHB_TRANS_SEQ burst=AHB_BURST_WRAP8 size=4B mastlock=0 resp=AHB_RESP_OKAY waits=0 | wdata=0x5653504d
# UVM_INFO ../10_tb/env/scoreboard.sv(359) @ 1905000: uvm_test_top.env.scb [scoreboard] [SCB][AHB][PASS] AHB AHB_WRITE addr=0x7f14 trans=AHB_TRANS_SEQ burst=AHB_BURST_WRAP8 size=4B mastlock=0 resp=AHB_RESP_ERROR waits=3 | data=0x5653504d | total=42
# UVM_INFO ../10_tb/env/predictor.sv(169) @ 1905000: uvm_test_top.env.pred [predictor] [PRED][AHB] beat=4/8 | AHB AHB_WRITE addr=0x7f18 trans=AHB_TRANS_SEQ burst=AHB_BURST_WRAP8 size=4B mastlock=0 resp=AHB_RESP_OKAY waits=0 | wdata=0x5b585552
# UVM_INFO ../10_tb/env/scoreboard.sv(359) @ 1905000: uvm_test_top.env.scb [scoreboard] [SCB][AHB][PASS] AHB AHB_WRITE addr=0x7f18 trans=AHB_TRANS_SEQ burst=AHB_BURST_WRAP8 size=4B mastlock=0 resp=AHB_RESP_OKAY waits=1 | data=0x5b585552 | total=43
# UVM_INFO ../10_tb/env/predictor.sv(169) @ 1905000: uvm_test_top.env.pred [predictor] [PRED][AHB] beat=5/8 | AHB AHB_WRITE addr=0x7f1c trans=AHB_TRANS_SEQ burst=AHB_BURST_WRAP8 size=4B mastlock=0 resp=AHB_RESP_OKAY waits=0 | wdata=0x605d5a57
# UVM_INFO ../10_tb/env/scoreboard.sv(359) @ 1905000: uvm_test_top.env.scb [scoreboard] [SCB][AHB][PASS] AHB AHB_WRITE addr=0x7f1c trans=AHB_TRANS_SEQ burst=AHB_BURST_WRAP8 size=4B mastlock=0 resp=AHB_RESP_OKAY waits=0 | data=0x605d5a57 | total=44
# UVM_INFO ../10_tb/env/predictor.sv(169) @ 1905000: uvm_test_top.env.pred [predictor] [PRED][AHB] beat=6/8 | AHB AHB_WRITE addr=0x7f00 trans=AHB_TRANS_SEQ burst=AHB_BURST_WRAP8 size=4B mastlock=0 resp=AHB_RESP_OKAY waits=0 | wdata=0x65625f5c
# UVM_INFO ../10_tb/env/scoreboard.sv(359) @ 1905000: uvm_test_top.env.scb [scoreboard] [SCB][AHB][PASS] AHB AHB_WRITE addr=0x7f00 trans=AHB_TRANS_SEQ burst=AHB_BURST_WRAP8 size=4B mastlock=0 resp=AHB_RESP_OKAY waits=0 | data=0x65625f5c | total=45
# UVM_INFO ../10_tb/env/predictor.sv(169) @ 1905000: uvm_test_top.env.pred [predictor] [PRED][AHB] beat=7/8 | AHB AHB_WRITE addr=0x7f04 trans=AHB_TRANS_SEQ burst=AHB_BURST_WRAP8 size=4B mastlock=0 resp=AHB_RESP_OKAY waits=0 | wdata=0x6a676461
# UVM_INFO ../10_tb/env/scoreboard.sv(359) @ 1905000: uvm_test_top.env.scb [scoreboard] [SCB][AHB][PASS] AHB AHB_WRITE addr=0x7f04 trans=AHB_TRANS_SEQ burst=AHB_BURST_WRAP8 size=4B mastlock=0 resp=AHB_RESP_OKAY waits=0 | data=0x6a676461 | total=46
# UVM_INFO ../10_tb/env/predictor.sv(169) @ 1905000: uvm_test_top.env.pred [predictor] [PRED][AHB] beat=8/8 | AHB AHB_WRITE addr=0x7f08 trans=AHB_TRANS_SEQ burst=AHB_BURST_WRAP8 size=4B mastlock=0 resp=AHB_RESP_OKAY waits=0 | wdata=0x6f6c6966
# UVM_INFO ../10_tb/ahb_slv/ahb_slv_driver.sv(201) @ 1955000: uvm_test_top.env.ahb_agent.drv [ahb_slv_driver] [DRV][AHB][RSP] AHB_WRITE addr=0x7f08 data=0x6f6c6966 resp=AHB_RESP_OKAY ready_delay=4
# UVM_INFO ../10_tb/ahb_slv/ahb_slv_monitor.sv(119) @ 1955000: uvm_test_top.env.ahb_agent.mon [ahb_slv_monitor] [MON][AHB][TR] AHB AHB_WRITE addr=0x7f08 trans=AHB_TRANS_SEQ burst=AHB_BURST_WRAP8 size=4B mastlock=0 resp=AHB_RESP_OKAY waits=4 | data=0x6f6c6966
# UVM_INFO ../10_tb/env/scoreboard.sv(359) @ 1955000: uvm_test_top.env.scb [scoreboard] [SCB][AHB][PASS] AHB AHB_WRITE addr=0x7f08 trans=AHB_TRANS_SEQ burst=AHB_BURST_WRAP8 size=4B mastlock=0 resp=AHB_RESP_OKAY waits=4 | data=0x6f6c6966 | total=47
# UVM_INFO ../10_tb/axi4_mst/axi4_mst_driver.sv(286) @ 1995000: uvm_test_top.env.axi_agent.drv [axi4_mst_driver] [DRV][AXI][B] id=0x9 resp=AXI4_RESP_SLVERR
# UVM_INFO ../10_tb/axi4_mst/axi4_mst_monitor.sv(177) @ 1995000: uvm_test_top.env.axi_agent.mon [axi4_mst_monitor] [MON][AXI][RSP] WRITE id=0x9 resp=AXI4_RESP_SLVERR
# UVM_INFO ../10_tb/env/scoreboard.sv(499) @ 1995000: uvm_test_top.env.scb [scoreboard] [SCB][AXI][PASS] AXI4 AXI4_WRITE id=0x9 addr=0x7f0c burst=AXI4_BURST_WRAP beats=8 size=4B lock=0 | bresp=AXI4_RESP_SLVERR | total=6
# UVM_INFO ../10_tb/axi4_mst/axi4_mst_driver.sv(105) @ 1995000: uvm_test_top.env.axi_agent.drv [axi4_mst_driver] [DRV][AXI][REQ] AXI4 AXI4_READ id=0xc addr=0x5540 burst=AXI4_BURST_INCR beats=15 size=4B lock=0 | outstanding=1
# UVM_INFO ../10_tb/axi4_mst/axi4_mst_driver.sv(261) @ 2025000: uvm_test_top.env.axi_agent.drv [axi4_mst_driver] [DRV][AXI][AR] id=0xc addr=0x5540 burst=AXI4_BURST_INCR beats=15 size=4B
# UVM_INFO ../10_tb/axi4_mst/axi4_mst_monitor.sv(211) @ 2025000: uvm_test_top.env.axi_agent.mon [axi4_mst_monitor] [MON][AXI][REQ] AXI4 AXI4_READ id=0xc addr=0x5540 burst=AXI4_BURST_INCR beats=15 size=4B lock=0
# UVM_INFO ../10_tb/env/predictor.sv(75) @ 2025000: uvm_test_top.env.pred [predictor] [PRED][AXI][IN] AXI4 AXI4_READ id=0xc addr=0x5540 burst=AXI4_BURST_INCR beats=15 size=4B lock=0 | queued=1
# UVM_INFO ../10_tb/env/predictor.sv(138) @ 2025000: uvm_test_top.env.pred [predictor] [PRED][MAP] AXI4 AXI4_READ id=0xc addr=0x5540 burst=AXI4_BURST_INCR beats=15 size=4B lock=0 -> AHB burst=AHB_BURST_INCR size=4B crosses_1kb=0
# UVM_INFO ../10_tb/env/predictor.sv(175) @ 2025000: uvm_test_top.env.pred [predictor] [PRED][AHB] beat=1/15 | AHB AHB_READ addr=0x5540 trans=AHB_TRANS_NONSEQ burst=AHB_BURST_INCR size=4B mastlock=0 resp=AHB_RESP_OKAY waits=0
# UVM_INFO ../10_tb/env/predictor.sv(175) @ 2025000: uvm_test_top.env.pred [predictor] [PRED][AHB] beat=2/15 | AHB AHB_READ addr=0x5544 trans=AHB_TRANS_SEQ burst=AHB_BURST_INCR size=4B mastlock=0 resp=AHB_RESP_OKAY waits=0
# UVM_INFO ../10_tb/env/predictor.sv(175) @ 2025000: uvm_test_top.env.pred [predictor] [PRED][AHB] beat=3/15 | AHB AHB_READ addr=0x5548 trans=AHB_TRANS_SEQ burst=AHB_BURST_INCR size=4B mastlock=0 resp=AHB_RESP_OKAY waits=0
# UVM_INFO ../10_tb/env/predictor.sv(175) @ 2025000: uvm_test_top.env.pred [predictor] [PRED][AHB] beat=4/15 | AHB AHB_READ addr=0x554c trans=AHB_TRANS_SEQ burst=AHB_BURST_INCR size=4B mastlock=0 resp=AHB_RESP_OKAY waits=0
# UVM_INFO ../10_tb/env/predictor.sv(175) @ 2025000: uvm_test_top.env.pred [predictor] [PRED][AHB] beat=5/15 | AHB AHB_READ addr=0x5550 trans=AHB_TRANS_SEQ burst=AHB_BURST_INCR size=4B mastlock=0 resp=AHB_RESP_OKAY waits=0
# UVM_INFO ../10_tb/env/predictor.sv(175) @ 2025000: uvm_test_top.env.pred [predictor] [PRED][AHB] beat=6/15 | AHB AHB_READ addr=0x5554 trans=AHB_TRANS_SEQ burst=AHB_BURST_INCR size=4B mastlock=0 resp=AHB_RESP_OKAY waits=0
# UVM_INFO ../10_tb/env/predictor.sv(175) @ 2025000: uvm_test_top.env.pred [predictor] [PRED][AHB] beat=7/15 | AHB AHB_READ addr=0x5558 trans=AHB_TRANS_SEQ burst=AHB_BURST_INCR size=4B mastlock=0 resp=AHB_RESP_OKAY waits=0
# UVM_INFO ../10_tb/env/predictor.sv(175) @ 2025000: uvm_test_top.env.pred [predictor] [PRED][AHB] beat=8/15 | AHB AHB_READ addr=0x555c trans=AHB_TRANS_SEQ burst=AHB_BURST_INCR size=4B mastlock=0 resp=AHB_RESP_OKAY waits=0
# UVM_INFO ../10_tb/env/predictor.sv(175) @ 2025000: uvm_test_top.env.pred [predictor] [PRED][AHB] beat=9/15 | AHB AHB_READ addr=0x5560 trans=AHB_TRANS_SEQ burst=AHB_BURST_INCR size=4B mastlock=0 resp=AHB_RESP_OKAY waits=0
# UVM_INFO ../10_tb/env/predictor.sv(175) @ 2025000: uvm_test_top.env.pred [predictor] [PRED][AHB] beat=10/15 | AHB AHB_READ addr=0x5564 trans=AHB_TRANS_SEQ burst=AHB_BURST_INCR size=4B mastlock=0 resp=AHB_RESP_OKAY waits=0
# UVM_INFO ../10_tb/env/predictor.sv(175) @ 2025000: uvm_test_top.env.pred [predictor] [PRED][AHB] beat=11/15 | AHB AHB_READ addr=0x5568 trans=AHB_TRANS_SEQ burst=AHB_BURST_INCR size=4B mastlock=0 resp=AHB_RESP_OKAY waits=0
# UVM_INFO ../10_tb/env/predictor.sv(175) @ 2025000: uvm_test_top.env.pred [predictor] [PRED][AHB] beat=12/15 | AHB AHB_READ addr=0x556c trans=AHB_TRANS_SEQ burst=AHB_BURST_INCR size=4B mastlock=0 resp=AHB_RESP_OKAY waits=0
# UVM_INFO ../10_tb/env/predictor.sv(175) @ 2025000: uvm_test_top.env.pred [predictor] [PRED][AHB] beat=13/15 | AHB AHB_READ addr=0x5570 trans=AHB_TRANS_SEQ burst=AHB_BURST_INCR size=4B mastlock=0 resp=AHB_RESP_OKAY waits=0
# UVM_INFO ../10_tb/env/predictor.sv(175) @ 2025000: uvm_test_top.env.pred [predictor] [PRED][AHB] beat=14/15 | AHB AHB_READ addr=0x5574 trans=AHB_TRANS_SEQ burst=AHB_BURST_INCR size=4B mastlock=0 resp=AHB_RESP_OKAY waits=0
# UVM_INFO ../10_tb/env/predictor.sv(175) @ 2025000: uvm_test_top.env.pred [predictor] [PRED][AHB] beat=15/15 | AHB AHB_READ addr=0x5578 trans=AHB_TRANS_SEQ burst=AHB_BURST_INCR size=4B mastlock=0 resp=AHB_RESP_OKAY waits=0
# UVM_INFO ../10_tb/ahb_slv/ahb_slv_driver.sv(87) @ 2035000: uvm_test_top.env.ahb_agent.drv [ahb_slv_driver] [DRV][AHB][REQ] AHB_READ addr=0x5540 trans=AHB_TRANS_NONSEQ burst=AHB_BURST_INCR size=4B
# UVM_INFO ../10_tb/seq/ahb_slv_seq/ahb_slv_response_mapping_seq.sv(54) @ 2035000: uvm_test_top.env.ahb_agent.sqr@@ahb_seq [ahb_slv_response_mapping_seq] [RSP][AHB] AHB_READ addr=0x5540 resp=AHB_RESP_OKAY waits=0
# UVM_INFO ../10_tb/ahb_slv/ahb_slv_driver.sv(201) @ 2045000: uvm_test_top.env.ahb_agent.drv [ahb_slv_driver] [DRV][AHB][RSP] AHB_READ addr=0x5540 data=0xffffaabf resp=AHB_RESP_OKAY ready_delay=0
# UVM_INFO ../10_tb/ahb_slv/ahb_slv_monitor.sv(119) @ 2045000: uvm_test_top.env.ahb_agent.mon [ahb_slv_monitor] [MON][AHB][TR] AHB AHB_READ addr=0x5540 trans=AHB_TRANS_NONSEQ burst=AHB_BURST_INCR size=4B mastlock=0 resp=AHB_RESP_OKAY waits=0 | data=0xffffaabf
# UVM_INFO ../10_tb/env/scoreboard.sv(359) @ 2045000: uvm_test_top.env.scb [scoreboard] [SCB][AHB][PASS] AHB AHB_READ addr=0x5540 trans=AHB_TRANS_NONSEQ burst=AHB_BURST_INCR size=4B mastlock=0 resp=AHB_RESP_OKAY waits=0 | data=0xffffaabf | total=48
# UVM_INFO ../10_tb/ahb_slv/ahb_slv_driver.sv(87) @ 2055000: uvm_test_top.env.ahb_agent.drv [ahb_slv_driver] [DRV][AHB][REQ] AHB_READ addr=0x5544 trans=AHB_TRANS_SEQ burst=AHB_BURST_INCR size=4B
# UVM_INFO ../10_tb/seq/ahb_slv_seq/ahb_slv_response_mapping_seq.sv(54) @ 2055000: uvm_test_top.env.ahb_agent.sqr@@ahb_seq [ahb_slv_response_mapping_seq] [RSP][AHB] AHB_READ addr=0x5544 resp=AHB_RESP_OKAY waits=0
# UVM_INFO ../10_tb/ahb_slv/ahb_slv_driver.sv(201) @ 2065000: uvm_test_top.env.ahb_agent.drv [ahb_slv_driver] [DRV][AHB][RSP] AHB_READ addr=0x5544 data=0xffffaabb resp=AHB_RESP_OKAY ready_delay=0
# UVM_INFO ../10_tb/ahb_slv/ahb_slv_monitor.sv(119) @ 2065000: uvm_test_top.env.ahb_agent.mon [ahb_slv_monitor] [MON][AHB][TR] AHB AHB_READ addr=0x5544 trans=AHB_TRANS_SEQ burst=AHB_BURST_INCR size=4B mastlock=0 resp=AHB_RESP_OKAY waits=0 | data=0xffffaabb
# UVM_INFO ../10_tb/env/scoreboard.sv(359) @ 2065000: uvm_test_top.env.scb [scoreboard] [SCB][AHB][PASS] AHB AHB_READ addr=0x5544 trans=AHB_TRANS_SEQ burst=AHB_BURST_INCR size=4B mastlock=0 resp=AHB_RESP_OKAY waits=0 | data=0xffffaabb | total=49
# UVM_INFO ../10_tb/ahb_slv/ahb_slv_driver.sv(87) @ 2075000: uvm_test_top.env.ahb_agent.drv [ahb_slv_driver] [DRV][AHB][REQ] AHB_READ addr=0x5548 trans=AHB_TRANS_SEQ burst=AHB_BURST_INCR size=4B
# UVM_INFO ../10_tb/seq/ahb_slv_seq/ahb_slv_response_mapping_seq.sv(54) @ 2075000: uvm_test_top.env.ahb_agent.sqr@@ahb_seq [ahb_slv_response_mapping_seq] [RSP][AHB] AHB_READ addr=0x5548 resp=AHB_RESP_OKAY waits=0
# UVM_INFO ../10_tb/ahb_slv/ahb_slv_driver.sv(201) @ 2085000: uvm_test_top.env.ahb_agent.drv [ahb_slv_driver] [DRV][AHB][RSP] AHB_READ addr=0x5548 data=0xffffaab7 resp=AHB_RESP_OKAY ready_delay=0
# UVM_INFO ../10_tb/ahb_slv/ahb_slv_monitor.sv(119) @ 2085000: uvm_test_top.env.ahb_agent.mon [ahb_slv_monitor] [MON][AHB][TR] AHB AHB_READ addr=0x5548 trans=AHB_TRANS_SEQ burst=AHB_BURST_INCR size=4B mastlock=0 resp=AHB_RESP_OKAY waits=0 | data=0xffffaab7
# UVM_INFO ../10_tb/env/scoreboard.sv(359) @ 2085000: uvm_test_top.env.scb [scoreboard] [SCB][AHB][PASS] AHB AHB_READ addr=0x5548 trans=AHB_TRANS_SEQ burst=AHB_BURST_INCR size=4B mastlock=0 resp=AHB_RESP_OKAY waits=0 | data=0xffffaab7 | total=50
