# vsim -c -coverage -sv_seed 19850728 "+UVM_TESTNAME=bridge_single_wstrb_test" "+UVM_VERBOSITY=UVM_HIGH" -l report/logs/bridge_single_wstrb_test_w64n_run_4_seed_19850728.log -wlf report/wlf/bridge_single_wstrb_test_w64n_run_4_seed_19850728.wlf -do "coverage save -onexit report/coverage/bridge_single_wstrb_test_w64n_run_4_seed_19850728.ucdb; run -all; quit -f" work64.opt_bridge_tb_top_w64_narrow 
# Start time: 12:27:05 on Oct 01,2026
# //  Questa Sim-64
# //  Version 10.6b linux_x86_64 May 25 2017
# //
# //  Copyright 1991-2017 Mentor Graphics Corporation
# //  All Rights Reserved.
# //
# //  QuestaSim and its associated documentation contain trade
# //  secrets and commercial or financial information that are the property of
# //  Mentor Graphics Corporation and are privileged, confidential,
# //  and exempt from disclosure under the Freedom of Information Act,
# //  5 U.S.C. Section 552. Furthermore, this information
# //  is prohibited from disclosure under the Trade Secrets Act,
# //  18 U.S.C. Section 1905.
# //
# Loading sv_std.std
# Loading work.axi4_if(fast)
# Loading work.ahb_if(fast)
# Loading mtiUvm.uvm_pkg
# Loading work.bridge_vip_pkg(fast)
# Loading work.bridge_seq_pkg(fast)
# Loading work.bridge_test_pkg(fast)
# Loading work.bridge_tb_top(fast)
# Loading work.axi4_if(fast)
# Loading work.ahb_if(fast)
# Loading work.axi_ahblite_bridge(fast)
# Loading work.ahb_skid_buf(fast)
# Loading work.axi_slv_if(fast)
# Loading work.ahb_mstr_if(fast)
# Loading work.time_out(fast)
# Loading work.axi4_sva(fast)
# Loading work.ahb_sva(fast)
# Loading mtiUvm.questa_uvm_pkg(fast)
# Loading /cadtools/mentor/Questa_10.6b/questasim/uvm-1.1d/linux_x86_64/uvm_dpi.so
# coverage save -onexit report/coverage/bridge_single_wstrb_test_w64n_run_4_seed_19850728.ucdb
#  run -all
# ----------------------------------------------------------------
# UVM-1.1d
# (C) 2007-2013 Mentor Graphics Corporation
# (C) 2007-2013 Cadence Design Systems, Inc.
# (C) 2006-2013 Synopsys, Inc.
# (C) 2011-2013 Cypress Semiconductor Corp.
# ----------------------------------------------------------------
# 
#   ***********       IMPORTANT RELEASE NOTES         ************
# 
#   You are using a version of the UVM library that has been compiled
#   with `UVM_NO_DEPRECATED undefined.
#   See http://www.eda.org/svdb/view.php?id=3313 for more details.
# 
#   You are using a version of the UVM library that has been compiled
#   with `UVM_OBJECT_MUST_HAVE_CONSTRUCTOR undefined.
#   See http://www.eda.org/svdb/view.php?id=3770 for more details.
# 
#       (Specify +UVM_NO_RELNOTES to turn off this notice)
# 
# UVM_INFO verilog_src/questa_uvm_pkg-1.2/src/questa_uvm_pkg.sv(215) @ 0: reporter [Questa UVM] QUESTA_UVM-1.2.3
# UVM_INFO verilog_src/questa_uvm_pkg-1.2/src/questa_uvm_pkg.sv(217) @ 0: reporter [Questa UVM]  questa_uvm::init(+struct)
# UVM_INFO @ 0: reporter [RNTST] Running test bridge_single_wstrb_test...
# UVM_INFO @ 0: reporter [UVMTOP] UVM testbench topology:
# -------------------------------------------------------------------------
# Name                       Type                               Size  Value
# -------------------------------------------------------------------------
# uvm_test_top               bridge_single_wstrb_test           -     @490 
#   env                      vip_env                            -     @508 
#     ahb_agent              ahb_slv_agent                      -     @529 
#       ap                   uvm_analysis_port                  -     @667 
#       cov                  ahb_slv_coverage                   -     @693 
#         analysis_imp       uvm_analysis_imp                   -     @700 
#         trans_export       uvm_analysis_imp_ahb_trans         -     @841 
#       drv                  ahb_slv_driver                     -     @818 
#         rsp_port           uvm_analysis_port                  -     @833 
#         seq_item_port      uvm_seq_item_pull_port             -     @825 
#       mon                  ahb_slv_monitor                    -     @686 
#         ap                 uvm_analysis_port                  -     @850 
#         trans_ap           uvm_analysis_port                  -     @858 
#       sqr                  ahb_slv_sequencer                  -     @709 
#         rsp_export         uvm_analysis_export                -     @716 
#         seq_item_export    uvm_seq_item_pull_imp              -     @810 
#         arbitration_queue  array                              0     -    
#         lock_queue         array                              0     -    
#         num_last_reqs      integral                           32    'd1  
#         num_last_rsps      integral                           32    'd1  
#       trans_ap             uvm_analysis_port                  -     @675 
#     axi_agent              axi4_mst_agent                     -     @522 
#       ap                   uvm_analysis_port                  -     @881 
#       cov                  axi4_mst_coverage                  -     @899 
#         analysis_imp       uvm_analysis_imp                   -     @906 
#       drv                  axi4_mst_driver                    -     @1024
#         rsp_port           uvm_analysis_port                  -     @1039
#         seq_item_port      uvm_seq_item_pull_port             -     @1031
#       mon                  axi4_mst_monitor                   -     @892 
#         ap                 uvm_analysis_port                  -     @1056
#         req_ap             uvm_analysis_port                  -     @1048
#       req_ap               uvm_analysis_port                  -     @873 
#       sqr                  axi4_mst_sequencer                 -     @915 
#         rsp_export         uvm_analysis_export                -     @922 
#         seq_item_export    uvm_seq_item_pull_imp              -     @1016
#         arbitration_queue  array                              0     -    
#         lock_queue         array                              0     -    
#         num_last_reqs      integral                           32    'd1  
#         num_last_rsps      integral                           32    'd1  
#     cov                    e2e_cov                            -     @659 
#       actual_ahb_export    uvm_analysis_imp_e2e_actual_ahb    -     @1086
#       axi_req_export       uvm_analysis_imp_e2e_axi_req       -     @1070
#       axi_rsp_export       uvm_analysis_imp_e2e_axi_rsp       -     @1094
#       expected_ahb_export  uvm_analysis_imp_e2e_expected_ahb  -     @1078
#     pred                   predictor                          -     @645 
#       axi_request_export   uvm_analysis_imp_axi_request       -     @1102
#       expected_ahb_ap      uvm_analysis_port                  -     @1110
#       expected_axi_ap      uvm_analysis_port                  -     @1118
#     scb                    scoreboard                         -     @652 
#       actual_ahb_export    uvm_analysis_imp_actual_ahb        -     @1134
#       actual_axi_export    uvm_analysis_imp_actual_axi        -     @1150
#       expected_ahb_export  uvm_analysis_imp_expected_ahb      -     @1126
#       expected_axi_export  uvm_analysis_imp_expected_axi      -     @1142
#     vseqr                  virtual_sequencer                  -     @536 
#       rsp_export           uvm_analysis_export                -     @543 
#       seq_item_export      uvm_seq_item_pull_imp              -     @637 
#       arbitration_queue    array                              0     -    
#       lock_queue           array                              0     -    
#       num_last_reqs        integral                           32    'd1  
#       num_last_rsps        integral                           32    'd1  
# -------------------------------------------------------------------------
# 
# UVM_INFO verilog_src/questa_uvm_pkg-1.2/src/questa_uvm_pkg.sv(277) @ 0: reporter [Questa UVM] End Of Elaboration
# UVM_INFO ../10_tb/bridge_tb_top.sv(47) @ 95000: reporter [BRIDGE_TB_TOP] Power-on reset released
# UVM_INFO ../10_tb/seq/axi4_mst_seq/axi4_mst_single_wstrb_seq.sv(92) @ 95000: uvm_test_top.env.axi_agent.sqr@@axi_seq [axi4_mst_single_wstrb_seq] Single WSTRB: 273 cases, narrow=1 negative=1
# UVM_INFO ../10_tb/seq/axi4_mst_seq/axi4_mst_single_wstrb_seq.sv(212) @ 95000: uvm_test_top.env.axi_agent.sqr@@axi_seq [axi4_mst_single_wstrb_seq] [0] WSTRB_LEGAL AWSIZE_1B_LANE0 addr=0x1000 AWSIZE=1B WSTRB=0x1 expected HSIZE=1B HADDR=0x1000
# UVM_INFO ../10_tb/axi4_mst/axi4_mst_driver.sv(105) @ 95000: uvm_test_top.env.axi_agent.drv [axi4_mst_driver] [DRV][AXI][REQ] AXI4 AXI4_WRITE id=0x0 addr=0x1000 burst=AXI4_BURST_INCR beats=1 size=8B lock=0 | outstanding=1
# UVM_INFO ../10_tb/axi4_mst/axi4_mst_driver.sv(178) @ 135000: uvm_test_top.env.axi_agent.drv [axi4_mst_driver] [DRV][AXI][AW] id=0x0 addr=0x1000 burst=AXI4_BURST_INCR beats=1 size=8B
# UVM_INFO ../10_tb/axi4_mst/axi4_mst_driver.sv(204) @ 135000: uvm_test_top.env.axi_agent.drv [axi4_mst_driver] [DRV][AXI][W] id=0x0 beat=1/1 data=0xa7a6a5a4a3a2a1a0 strb=0xff last=1
# UVM_INFO ../10_tb/axi4_mst/axi4_mst_monitor.sv(151) @ 135000: uvm_test_top.env.axi_agent.mon [axi4_mst_monitor] [MON][AXI][REQ] AXI4 AXI4_WRITE id=0x0 addr=0x1000 burst=AXI4_BURST_INCR beats=1 size=8B lock=0
# UVM_INFO ../10_tb/env/predictor.sv(84) @ 135000: uvm_test_top.env.pred [predictor] [PRED][AXI][IN] AXI4 AXI4_WRITE id=0x0 addr=0x1000 burst=AXI4_BURST_INCR beats=1 size=8B lock=0 | queued=1
# UVM_INFO ../10_tb/env/predictor.sv(155) @ 135000: uvm_test_top.env.pred [predictor] [PRED][MAP] AXI4 AXI4_WRITE id=0x0 addr=0x1000 burst=AXI4_BURST_INCR beats=1 size=8B lock=0 -> AHB burst=AHB_BURST_SINGLE size=8B crosses_1kb=0
# UVM_INFO ../10_tb/env/predictor.sv(186) @ 135000: uvm_test_top.env.pred [predictor] [PRED][AHB] beat=1/1 | AHB AHB_WRITE addr=0x1000 trans=AHB_TRANS_NONSEQ burst=AHB_BURST_SINGLE size=8B mastlock=0 resp=AHB_RESP_OKAY waits=0 | wdata=0xa7a6a5a4a3a2a1a0
# UVM_INFO ../10_tb/ahb_slv/ahb_slv_driver.sv(87) @ 145000: uvm_test_top.env.ahb_agent.drv [ahb_slv_driver] [DRV][AHB][REQ] AHB_WRITE addr=0x1000 trans=AHB_TRANS_NONSEQ burst=AHB_BURST_SINGLE size=8B
# UVM_INFO ../10_tb/ahb_slv/ahb_slv_driver.sv(201) @ 155000: uvm_test_top.env.ahb_agent.drv [ahb_slv_driver] [DRV][AHB][RSP] AHB_WRITE addr=0x1000 data=0xa7a6a5a4a3a2a1a0 resp=AHB_RESP_OKAY ready_delay=0
# UVM_INFO ../10_tb/ahb_slv/ahb_slv_monitor.sv(119) @ 155000: uvm_test_top.env.ahb_agent.mon [ahb_slv_monitor] [MON][AHB][TR] AHB AHB_WRITE addr=0x1000 trans=AHB_TRANS_NONSEQ burst=AHB_BURST_SINGLE size=8B mastlock=0 resp=AHB_RESP_OKAY waits=0 | data=0xa7a6a5a4a3a2a1a0
# UVM_INFO ../10_tb/env/scoreboard.sv(519) @ 155000: uvm_test_top.env.scb [scoreboard] [SCB][AHB][PASS] AHB AHB_WRITE addr=0x1000 trans=AHB_TRANS_NONSEQ burst=AHB_BURST_SINGLE size=8B mastlock=0 resp=AHB_RESP_OKAY waits=0 | data=0xa7a6a5a4a3a2a1a0 | total=1
# UVM_INFO ../10_tb/axi4_mst/axi4_mst_driver.sv(286) @ 165000: uvm_test_top.env.axi_agent.drv [axi4_mst_driver] [DRV][AXI][B] id=0x0 resp=AXI4_RESP_OKAY
# UVM_INFO ../10_tb/axi4_mst/axi4_mst_monitor.sv(177) @ 165000: uvm_test_top.env.axi_agent.mon [axi4_mst_monitor] [MON][AXI][RSP] WRITE id=0x0 resp=AXI4_RESP_OKAY
# UVM_INFO ../10_tb/env/scoreboard.sv(659) @ 165000: uvm_test_top.env.scb [scoreboard] [SCB][AXI][PASS] AXI4 AXI4_WRITE id=0x0 addr=0x1000 burst=AXI4_BURST_INCR beats=1 size=8B lock=0 | bresp=AXI4_RESP_OKAY | total=1
# UVM_INFO ../10_tb/axi4_mst/axi4_mst_driver.sv(105) @ 165000: uvm_test_top.env.axi_agent.drv [axi4_mst_driver] [DRV][AXI][REQ] AXI4 AXI4_WRITE id=0xc addr=0x1000 burst=AXI4_BURST_INCR beats=1 size=1B lock=0 | outstanding=1
# UVM_INFO ../10_tb/axi4_mst/axi4_mst_driver.sv(178) @ 205000: uvm_test_top.env.axi_agent.drv [axi4_mst_driver] [DRV][AXI][AW] id=0xc addr=0x1000 burst=AXI4_BURST_INCR beats=1 size=1B
# UVM_INFO ../10_tb/axi4_mst/axi4_mst_driver.sv(204) @ 205000: uvm_test_top.env.axi_agent.drv [axi4_mst_driver] [DRV][AXI][W] id=0xc beat=1/1 data=0x5756555453525150 strb=0x1 last=1
# UVM_INFO ../10_tb/axi4_mst/axi4_mst_monitor.sv(151) @ 205000: uvm_test_top.env.axi_agent.mon [axi4_mst_monitor] [MON][AXI][REQ] AXI4 AXI4_WRITE id=0xc addr=0x1000 burst=AXI4_BURST_INCR beats=1 size=1B lock=0
# UVM_INFO ../10_tb/env/predictor.sv(84) @ 205000: uvm_test_top.env.pred [predictor] [PRED][AXI][IN] AXI4 AXI4_WRITE id=0xc addr=0x1000 burst=AXI4_BURST_INCR beats=1 size=1B lock=0 | queued=1
# UVM_INFO ../10_tb/env/predictor.sv(155) @ 205000: uvm_test_top.env.pred [predictor] [PRED][MAP] AXI4 AXI4_WRITE id=0xc addr=0x1000 burst=AXI4_BURST_INCR beats=1 size=1B lock=0 -> AHB burst=AHB_BURST_SINGLE size=1B crosses_1kb=0
# UVM_INFO ../10_tb/env/predictor.sv(186) @ 205000: uvm_test_top.env.pred [predictor] [PRED][AHB] beat=1/1 | AHB AHB_WRITE addr=0x1000 trans=AHB_TRANS_NONSEQ burst=AHB_BURST_SINGLE size=1B mastlock=0 resp=AHB_RESP_OKAY waits=0 | wdata=0x5756555453525150
# UVM_INFO ../10_tb/ahb_slv/ahb_slv_driver.sv(87) @ 215000: uvm_test_top.env.ahb_agent.drv [ahb_slv_driver] [DRV][AHB][REQ] AHB_WRITE addr=0x1000 trans=AHB_TRANS_NONSEQ burst=AHB_BURST_SINGLE size=1B
# UVM_INFO ../10_tb/ahb_slv/ahb_slv_driver.sv(201) @ 225000: uvm_test_top.env.ahb_agent.drv [ahb_slv_driver] [DRV][AHB][RSP] AHB_WRITE addr=0x1000 data=0x5756555453525150 resp=AHB_RESP_OKAY ready_delay=0
# UVM_INFO ../10_tb/ahb_slv/ahb_slv_monitor.sv(119) @ 225000: uvm_test_top.env.ahb_agent.mon [ahb_slv_monitor] [MON][AHB][TR] AHB AHB_WRITE addr=0x1000 trans=AHB_TRANS_NONSEQ burst=AHB_BURST_SINGLE size=1B mastlock=0 resp=AHB_RESP_OKAY waits=0 | data=0x5756555453525150
# UVM_INFO ../10_tb/env/scoreboard.sv(519) @ 225000: uvm_test_top.env.scb [scoreboard] [SCB][AHB][PASS] AHB AHB_WRITE addr=0x1000 trans=AHB_TRANS_NONSEQ burst=AHB_BURST_SINGLE size=1B mastlock=0 resp=AHB_RESP_OKAY waits=0 | data=0x5756555453525150 | total=2
# UVM_INFO ../10_tb/axi4_mst/axi4_mst_driver.sv(286) @ 235000: uvm_test_top.env.axi_agent.drv [axi4_mst_driver] [DRV][AXI][B] id=0xc resp=AXI4_RESP_OKAY
# UVM_INFO ../10_tb/axi4_mst/axi4_mst_monitor.sv(177) @ 235000: uvm_test_top.env.axi_agent.mon [axi4_mst_monitor] [MON][AXI][RSP] WRITE id=0xc resp=AXI4_RESP_OKAY
# UVM_INFO ../10_tb/env/scoreboard.sv(659) @ 235000: uvm_test_top.env.scb [scoreboard] [SCB][AXI][PASS] AXI4 AXI4_WRITE id=0xc addr=0x1000 burst=AXI4_BURST_INCR beats=1 size=1B lock=0 | bresp=AXI4_RESP_OKAY | total=2
# UVM_INFO ../10_tb/axi4_mst/axi4_mst_driver.sv(105) @ 235000: uvm_test_top.env.axi_agent.drv [axi4_mst_driver] [DRV][AXI][REQ] AXI4 AXI4_READ id=0xb addr=0x1000 burst=AXI4_BURST_INCR beats=1 size=8B lock=0 | outstanding=1
# UVM_INFO ../10_tb/axi4_mst/axi4_mst_driver.sv(261) @ 265000: uvm_test_top.env.axi_agent.drv [axi4_mst_driver] [DRV][AXI][AR] id=0xb addr=0x1000 burst=AXI4_BURST_INCR beats=1 size=8B
# UVM_INFO ../10_tb/axi4_mst/axi4_mst_monitor.sv(211) @ 265000: uvm_test_top.env.axi_agent.mon [axi4_mst_monitor] [MON][AXI][REQ] AXI4 AXI4_READ id=0xb addr=0x1000 burst=AXI4_BURST_INCR beats=1 size=8B lock=0
# UVM_INFO ../10_tb/env/predictor.sv(84) @ 265000: uvm_test_top.env.pred [predictor] [PRED][AXI][IN] AXI4 AXI4_READ id=0xb addr=0x1000 burst=AXI4_BURST_INCR beats=1 size=8B lock=0 | queued=1
# UVM_INFO ../10_tb/env/predictor.sv(155) @ 265000: uvm_test_top.env.pred [predictor] [PRED][MAP] AXI4 AXI4_READ id=0xb addr=0x1000 burst=AXI4_BURST_INCR beats=1 size=8B lock=0 -> AHB burst=AHB_BURST_SINGLE size=8B crosses_1kb=0
# UVM_INFO ../10_tb/env/predictor.sv(192) @ 265000: uvm_test_top.env.pred [predictor] [PRED][AHB] beat=1/1 | AHB AHB_READ addr=0x1000 trans=AHB_TRANS_NONSEQ burst=AHB_BURST_SINGLE size=8B mastlock=0 resp=AHB_RESP_OKAY waits=0
# UVM_INFO ../10_tb/ahb_slv/ahb_slv_driver.sv(87) @ 275000: uvm_test_top.env.ahb_agent.drv [ahb_slv_driver] [DRV][AHB][REQ] AHB_READ addr=0x1000 trans=AHB_TRANS_NONSEQ burst=AHB_BURST_SINGLE size=8B
# UVM_INFO ../10_tb/ahb_slv/ahb_slv_driver.sv(201) @ 285000: uvm_test_top.env.ahb_agent.drv [ahb_slv_driver] [DRV][AHB][RSP] AHB_READ addr=0x1000 data=0xa7a6a5a4a3a2a150 resp=AHB_RESP_OKAY ready_delay=0
# UVM_INFO ../10_tb/ahb_slv/ahb_slv_monitor.sv(119) @ 285000: uvm_test_top.env.ahb_agent.mon [ahb_slv_monitor] [MON][AHB][TR] AHB AHB_READ addr=0x1000 trans=AHB_TRANS_NONSEQ burst=AHB_BURST_SINGLE size=8B mastlock=0 resp=AHB_RESP_OKAY waits=0 | data=0xa7a6a5a4a3a2a150
# UVM_INFO ../10_tb/env/scoreboard.sv(519) @ 285000: uvm_test_top.env.scb [scoreboard] [SCB][AHB][PASS] AHB AHB_READ addr=0x1000 trans=AHB_TRANS_NONSEQ burst=AHB_BURST_SINGLE size=8B mastlock=0 resp=AHB_RESP_OKAY waits=0 | data=0xa7a6a5a4a3a2a150 | total=3
# UVM_INFO ../10_tb/axi4_mst/axi4_mst_driver.sv(326) @ 305000: uvm_test_top.env.axi_agent.drv [axi4_mst_driver] [DRV][AXI][R] id=0xb beat=1/1 data=0xa7a6a5a4a3a2a150 resp=AXI4_RESP_OKAY last=1
# UVM_INFO ../10_tb/axi4_mst/axi4_mst_monitor.sv(256) @ 305000: uvm_test_top.env.axi_agent.mon [axi4_mst_monitor] [MON][AXI][R] id=0xb beat=1/1 data=0xa7a6a5a4a3a2a150 resp=AXI4_RESP_OKAY last=1
# UVM_INFO ../10_tb/axi4_mst/axi4_mst_monitor.sv(262) @ 305000: uvm_test_top.env.axi_agent.mon [axi4_mst_monitor] [MON][AXI][RSP] READ id=0xb beats=1
# UVM_INFO ../10_tb/env/scoreboard.sv(666) @ 305000: uvm_test_top.env.scb [scoreboard] [SCB][AXI][PASS] AXI4 AXI4_READ id=0xb addr=0x1000 burst=AXI4_BURST_INCR beats=1 size=8B lock=0 | read beats=1 | total=3
# UVM_INFO ../10_tb/seq/axi4_mst_seq/axi4_mst_single_wstrb_seq.sv(212) @ 305000: uvm_test_top.env.axi_agent.sqr@@axi_seq [axi4_mst_single_wstrb_seq] [1] WSTRB_LEGAL AWSIZE_1B_LANE1 addr=0x1011 AWSIZE=1B WSTRB=0x2 expected HSIZE=1B HADDR=0x1011
# UVM_INFO ../10_tb/axi4_mst/axi4_mst_driver.sv(105) @ 305000: uvm_test_top.env.axi_agent.drv [axi4_mst_driver] [DRV][AXI][REQ] AXI4 AXI4_WRITE id=0x6 addr=0x1010 burst=AXI4_BURST_INCR beats=1 size=8B lock=0 | outstanding=1
# UVM_INFO ../10_tb/axi4_mst/axi4_mst_driver.sv(178) @ 345000: uvm_test_top.env.axi_agent.drv [axi4_mst_driver] [DRV][AXI][AW] id=0x6 addr=0x1010 burst=AXI4_BURST_INCR beats=1 size=8B
# UVM_INFO ../10_tb/axi4_mst/axi4_mst_driver.sv(204) @ 345000: uvm_test_top.env.axi_agent.drv [axi4_mst_driver] [DRV][AXI][W] id=0x6 beat=1/1 data=0xabaaa9a8a7a6a5a4 strb=0xff last=1
# UVM_INFO ../10_tb/axi4_mst/axi4_mst_monitor.sv(151) @ 345000: uvm_test_top.env.axi_agent.mon [axi4_mst_monitor] [MON][AXI][REQ] AXI4 AXI4_WRITE id=0x6 addr=0x1010 burst=AXI4_BURST_INCR beats=1 size=8B lock=0
# UVM_INFO ../10_tb/env/predictor.sv(84) @ 345000: uvm_test_top.env.pred [predictor] [PRED][AXI][IN] AXI4 AXI4_WRITE id=0x6 addr=0x1010 burst=AXI4_BURST_INCR beats=1 size=8B lock=0 | queued=1
# UVM_INFO ../10_tb/env/predictor.sv(155) @ 345000: uvm_test_top.env.pred [predictor] [PRED][MAP] AXI4 AXI4_WRITE id=0x6 addr=0x1010 burst=AXI4_BURST_INCR beats=1 size=8B lock=0 -> AHB burst=AHB_BURST_SINGLE size=8B crosses_1kb=0
# UVM_INFO ../10_tb/env/predictor.sv(186) @ 345000: uvm_test_top.env.pred [predictor] [PRED][AHB] beat=1/1 | AHB AHB_WRITE addr=0x1010 trans=AHB_TRANS_NONSEQ burst=AHB_BURST_SINGLE size=8B mastlock=0 resp=AHB_RESP_OKAY waits=0 | wdata=0xabaaa9a8a7a6a5a4
# UVM_INFO ../10_tb/ahb_slv/ahb_slv_driver.sv(87) @ 355000: uvm_test_top.env.ahb_agent.drv [ahb_slv_driver] [DRV][AHB][REQ] AHB_WRITE addr=0x1010 trans=AHB_TRANS_NONSEQ burst=AHB_BURST_SINGLE size=8B
# UVM_INFO ../10_tb/ahb_slv/ahb_slv_driver.sv(201) @ 365000: uvm_test_top.env.ahb_agent.drv [ahb_slv_driver] [DRV][AHB][RSP] AHB_WRITE addr=0x1010 data=0xabaaa9a8a7a6a5a4 resp=AHB_RESP_OKAY ready_delay=0
# UVM_INFO ../10_tb/ahb_slv/ahb_slv_monitor.sv(119) @ 365000: uvm_test_top.env.ahb_agent.mon [ahb_slv_monitor] [MON][AHB][TR] AHB AHB_WRITE addr=0x1010 trans=AHB_TRANS_NONSEQ burst=AHB_BURST_SINGLE size=8B mastlock=0 resp=AHB_RESP_OKAY waits=0 | data=0xabaaa9a8a7a6a5a4
# UVM_INFO ../10_tb/env/scoreboard.sv(519) @ 365000: uvm_test_top.env.scb [scoreboard] [SCB][AHB][PASS] AHB AHB_WRITE addr=0x1010 trans=AHB_TRANS_NONSEQ burst=AHB_BURST_SINGLE size=8B mastlock=0 resp=AHB_RESP_OKAY waits=0 | data=0xabaaa9a8a7a6a5a4 | total=4
# UVM_INFO ../10_tb/axi4_mst/axi4_mst_driver.sv(286) @ 375000: uvm_test_top.env.axi_agent.drv [axi4_mst_driver] [DRV][AXI][B] id=0x6 resp=AXI4_RESP_OKAY
# UVM_INFO ../10_tb/axi4_mst/axi4_mst_monitor.sv(177) @ 375000: uvm_test_top.env.axi_agent.mon [axi4_mst_monitor] [MON][AXI][RSP] WRITE id=0x6 resp=AXI4_RESP_OKAY
# UVM_INFO ../10_tb/env/scoreboard.sv(659) @ 375000: uvm_test_top.env.scb [scoreboard] [SCB][AXI][PASS] AXI4 AXI4_WRITE id=0x6 addr=0x1010 burst=AXI4_BURST_INCR beats=1 size=8B lock=0 | bresp=AXI4_RESP_OKAY | total=4
# UVM_INFO ../10_tb/axi4_mst/axi4_mst_driver.sv(105) @ 375000: uvm_test_top.env.axi_agent.drv [axi4_mst_driver] [DRV][AXI][REQ] AXI4 AXI4_WRITE id=0x6 addr=0x1011 burst=AXI4_BURST_INCR beats=1 size=1B lock=0 | outstanding=1
# UVM_INFO ../10_tb/axi4_mst/axi4_mst_driver.sv(178) @ 415000: uvm_test_top.env.axi_agent.drv [axi4_mst_driver] [DRV][AXI][AW] id=0x6 addr=0x1011 burst=AXI4_BURST_INCR beats=1 size=1B
# UVM_INFO ../10_tb/axi4_mst/axi4_mst_driver.sv(204) @ 415000: uvm_test_top.env.axi_agent.drv [axi4_mst_driver] [DRV][AXI][W] id=0x6 beat=1/1 data=0x5b5a595857565554 strb=0x2 last=1
# UVM_INFO ../10_tb/axi4_mst/axi4_mst_monitor.sv(151) @ 415000: uvm_test_top.env.axi_agent.mon [axi4_mst_monitor] [MON][AXI][REQ] AXI4 AXI4_WRITE id=0x6 addr=0x1011 burst=AXI4_BURST_INCR beats=1 size=1B lock=0
# UVM_INFO ../10_tb/env/predictor.sv(84) @ 415000: uvm_test_top.env.pred [predictor] [PRED][AXI][IN] AXI4 AXI4_WRITE id=0x6 addr=0x1011 burst=AXI4_BURST_INCR beats=1 size=1B lock=0 | queued=1
# UVM_INFO ../10_tb/env/predictor.sv(155) @ 415000: uvm_test_top.env.pred [predictor] [PRED][MAP] AXI4 AXI4_WRITE id=0x6 addr=0x1011 burst=AXI4_BURST_INCR beats=1 size=1B lock=0 -> AHB burst=AHB_BURST_SINGLE size=1B crosses_1kb=0
# UVM_INFO ../10_tb/env/predictor.sv(186) @ 415000: uvm_test_top.env.pred [predictor] [PRED][AHB] beat=1/1 | AHB AHB_WRITE addr=0x1011 trans=AHB_TRANS_NONSEQ burst=AHB_BURST_SINGLE size=1B mastlock=0 resp=AHB_RESP_OKAY waits=0 | wdata=0x5b5a595857565554
# UVM_INFO ../10_tb/ahb_slv/ahb_slv_driver.sv(87) @ 425000: uvm_test_top.env.ahb_agent.drv [ahb_slv_driver] [DRV][AHB][REQ] AHB_WRITE addr=0x1011 trans=AHB_TRANS_NONSEQ burst=AHB_BURST_SINGLE size=1B
# UVM_INFO ../10_tb/ahb_slv/ahb_slv_driver.sv(201) @ 435000: uvm_test_top.env.ahb_agent.drv [ahb_slv_driver] [DRV][AHB][RSP] AHB_WRITE addr=0x1011 data=0x5b5a595857565554 resp=AHB_RESP_OKAY ready_delay=0
# UVM_INFO ../10_tb/ahb_slv/ahb_slv_monitor.sv(119) @ 435000: uvm_test_top.env.ahb_agent.mon [ahb_slv_monitor] [MON][AHB][TR] AHB AHB_WRITE addr=0x1011 trans=AHB_TRANS_NONSEQ burst=AHB_BURST_SINGLE size=1B mastlock=0 resp=AHB_RESP_OKAY waits=0 | data=0x5b5a595857565554
# UVM_INFO ../10_tb/env/scoreboard.sv(519) @ 435000: uvm_test_top.env.scb [scoreboard] [SCB][AHB][PASS] AHB AHB_WRITE addr=0x1011 trans=AHB_TRANS_NONSEQ burst=AHB_BURST_SINGLE size=1B mastlock=0 resp=AHB_RESP_OKAY waits=0 | data=0x5b5a595857565554 | total=5
# UVM_INFO ../10_tb/axi4_mst/axi4_mst_driver.sv(286) @ 445000: uvm_test_top.env.axi_agent.drv [axi4_mst_driver] [DRV][AXI][B] id=0x6 resp=AXI4_RESP_OKAY
# UVM_INFO ../10_tb/axi4_mst/axi4_mst_monitor.sv(177) @ 445000: uvm_test_top.env.axi_agent.mon [axi4_mst_monitor] [MON][AXI][RSP] WRITE id=0x6 resp=AXI4_RESP_OKAY
# UVM_INFO ../10_tb/env/scoreboard.sv(659) @ 445000: uvm_test_top.env.scb [scoreboard] [SCB][AXI][PASS] AXI4 AXI4_WRITE id=0x6 addr=0x1011 burst=AXI4_BURST_INCR beats=1 size=1B lock=0 | bresp=AXI4_RESP_OKAY | total=5
# UVM_INFO ../10_tb/axi4_mst/axi4_mst_driver.sv(105) @ 445000: uvm_test_top.env.axi_agent.drv [axi4_mst_driver] [DRV][AXI][REQ] AXI4 AXI4_READ id=0xf addr=0x1010 burst=AXI4_BURST_INCR beats=1 size=8B lock=0 | outstanding=1
# UVM_INFO ../10_tb/axi4_mst/axi4_mst_driver.sv(261) @ 475000: uvm_test_top.env.axi_agent.drv [axi4_mst_driver] [DRV][AXI][AR] id=0xf addr=0x1010 burst=AXI4_BURST_INCR beats=1 size=8B
# UVM_INFO ../10_tb/axi4_mst/axi4_mst_monitor.sv(211) @ 475000: uvm_test_top.env.axi_agent.mon [axi4_mst_monitor] [MON][AXI][REQ] AXI4 AXI4_READ id=0xf addr=0x1010 burst=AXI4_BURST_INCR beats=1 size=8B lock=0
# UVM_INFO ../10_tb/env/predictor.sv(84) @ 475000: uvm_test_top.env.pred [predictor] [PRED][AXI][IN] AXI4 AXI4_READ id=0xf addr=0x1010 burst=AXI4_BURST_INCR beats=1 size=8B lock=0 | queued=1
# UVM_INFO ../10_tb/env/predictor.sv(155) @ 475000: uvm_test_top.env.pred [predictor] [PRED][MAP] AXI4 AXI4_READ id=0xf addr=0x1010 burst=AXI4_BURST_INCR beats=1 size=8B lock=0 -> AHB burst=AHB_BURST_SINGLE size=8B crosses_1kb=0
# UVM_INFO ../10_tb/env/predictor.sv(192) @ 475000: uvm_test_top.env.pred [predictor] [PRED][AHB] beat=1/1 | AHB AHB_READ addr=0x1010 trans=AHB_TRANS_NONSEQ burst=AHB_BURST_SINGLE size=8B mastlock=0 resp=AHB_RESP_OKAY waits=0
# UVM_INFO ../10_tb/ahb_slv/ahb_slv_driver.sv(87) @ 485000: uvm_test_top.env.ahb_agent.drv [ahb_slv_driver] [DRV][AHB][REQ] AHB_READ addr=0x1010 trans=AHB_TRANS_NONSEQ burst=AHB_BURST_SINGLE size=8B
# UVM_INFO ../10_tb/ahb_slv/ahb_slv_driver.sv(201) @ 495000: uvm_test_top.env.ahb_agent.drv [ahb_slv_driver] [DRV][AHB][RSP] AHB_READ addr=0x1010 data=0xabaaa9a8a7a655a4 resp=AHB_RESP_OKAY ready_delay=0
# UVM_INFO ../10_tb/ahb_slv/ahb_slv_monitor.sv(119) @ 495000: uvm_test_top.env.ahb_agent.mon [ahb_slv_monitor] [MON][AHB][TR] AHB AHB_READ addr=0x1010 trans=AHB_TRANS_NONSEQ burst=AHB_BURST_SINGLE size=8B mastlock=0 resp=AHB_RESP_OKAY waits=0 | data=0xabaaa9a8a7a655a4
# UVM_INFO ../10_tb/env/scoreboard.sv(519) @ 495000: uvm_test_top.env.scb [scoreboard] [SCB][AHB][PASS] AHB AHB_READ addr=0x1010 trans=AHB_TRANS_NONSEQ burst=AHB_BURST_SINGLE size=8B mastlock=0 resp=AHB_RESP_OKAY waits=0 | data=0xabaaa9a8a7a655a4 | total=6
# UVM_INFO ../10_tb/axi4_mst/axi4_mst_driver.sv(326) @ 515000: uvm_test_top.env.axi_agent.drv [axi4_mst_driver] [DRV][AXI][R] id=0xf beat=1/1 data=0xabaaa9a8a7a655a4 resp=AXI4_RESP_OKAY last=1
# UVM_INFO ../10_tb/axi4_mst/axi4_mst_monitor.sv(256) @ 515000: uvm_test_top.env.axi_agent.mon [axi4_mst_monitor] [MON][AXI][R] id=0xf beat=1/1 data=0xabaaa9a8a7a655a4 resp=AXI4_RESP_OKAY last=1
# UVM_INFO ../10_tb/axi4_mst/axi4_mst_monitor.sv(262) @ 515000: uvm_test_top.env.axi_agent.mon [axi4_mst_monitor] [MON][AXI][RSP] READ id=0xf beats=1
# UVM_INFO ../10_tb/env/scoreboard.sv(666) @ 515000: uvm_test_top.env.scb [scoreboard] [SCB][AXI][PASS] AXI4 AXI4_READ id=0xf addr=0x1010 burst=AXI4_BURST_INCR beats=1 size=8B lock=0 | read beats=1 | total=6
# UVM_INFO ../10_tb/seq/axi4_mst_seq/axi4_mst_single_wstrb_seq.sv(212) @ 515000: uvm_test_top.env.axi_agent.sqr@@axi_seq [axi4_mst_single_wstrb_seq] [2] WSTRB_LEGAL AWSIZE_1B_LANE2 addr=0x1022 AWSIZE=1B WSTRB=0x4 expected HSIZE=1B HADDR=0x1022
# UVM_INFO ../10_tb/axi4_mst/axi4_mst_driver.sv(105) @ 515000: uvm_test_top.env.axi_agent.drv [axi4_mst_driver] [DRV][AXI][REQ] AXI4 AXI4_WRITE id=0x7 addr=0x1020 burst=AXI4_BURST_INCR beats=1 size=8B lock=0 | outstanding=1
# UVM_INFO ../10_tb/axi4_mst/axi4_mst_driver.sv(178) @ 555000: uvm_test_top.env.axi_agent.drv [axi4_mst_driver] [DRV][AXI][AW] id=0x7 addr=0x1020 burst=AXI4_BURST_INCR beats=1 size=8B
# UVM_INFO ../10_tb/axi4_mst/axi4_mst_driver.sv(204) @ 555000: uvm_test_top.env.axi_agent.drv [axi4_mst_driver] [DRV][AXI][W] id=0x7 beat=1/1 data=0xafaeadacabaaa9a8 strb=0xff last=1
# UVM_INFO ../10_tb/axi4_mst/axi4_mst_monitor.sv(151) @ 555000: uvm_test_top.env.axi_agent.mon [axi4_mst_monitor] [MON][AXI][REQ] AXI4 AXI4_WRITE id=0x7 addr=0x1020 burst=AXI4_BURST_INCR beats=1 size=8B lock=0
# UVM_INFO ../10_tb/env/predictor.sv(84) @ 555000: uvm_test_top.env.pred [predictor] [PRED][AXI][IN] AXI4 AXI4_WRITE id=0x7 addr=0x1020 burst=AXI4_BURST_INCR beats=1 size=8B lock=0 | queued=1
# UVM_INFO ../10_tb/env/predictor.sv(155) @ 555000: uvm_test_top.env.pred [predictor] [PRED][MAP] AXI4 AXI4_WRITE id=0x7 addr=0x1020 burst=AXI4_BURST_INCR beats=1 size=8B lock=0 -> AHB burst=AHB_BURST_SINGLE size=8B crosses_1kb=0
# UVM_INFO ../10_tb/env/predictor.sv(186) @ 555000: uvm_test_top.env.pred [predictor] [PRED][AHB] beat=1/1 | AHB AHB_WRITE addr=0x1020 trans=AHB_TRANS_NONSEQ burst=AHB_BURST_SINGLE size=8B mastlock=0 resp=AHB_RESP_OKAY waits=0 | wdata=0xafaeadacabaaa9a8
# UVM_INFO ../10_tb/ahb_slv/ahb_slv_driver.sv(87) @ 565000: uvm_test_top.env.ahb_agent.drv [ahb_slv_driver] [DRV][AHB][REQ] AHB_WRITE addr=0x1020 trans=AHB_TRANS_NONSEQ burst=AHB_BURST_SINGLE size=8B
# UVM_INFO ../10_tb/ahb_slv/ahb_slv_driver.sv(201) @ 575000: uvm_test_top.env.ahb_agent.drv [ahb_slv_driver] [DRV][AHB][RSP] AHB_WRITE addr=0x1020 data=0xafaeadacabaaa9a8 resp=AHB_RESP_OKAY ready_delay=0
# UVM_INFO ../10_tb/ahb_slv/ahb_slv_monitor.sv(119) @ 575000: uvm_test_top.env.ahb_agent.mon [ahb_slv_monitor] [MON][AHB][TR] AHB AHB_WRITE addr=0x1020 trans=AHB_TRANS_NONSEQ burst=AHB_BURST_SINGLE size=8B mastlock=0 resp=AHB_RESP_OKAY waits=0 | data=0xafaeadacabaaa9a8
# UVM_INFO ../10_tb/env/scoreboard.sv(519) @ 575000: uvm_test_top.env.scb [scoreboard] [SCB][AHB][PASS] AHB AHB_WRITE addr=0x1020 trans=AHB_TRANS_NONSEQ burst=AHB_BURST_SINGLE size=8B mastlock=0 resp=AHB_RESP_OKAY waits=0 | data=0xafaeadacabaaa9a8 | total=7
# UVM_INFO ../10_tb/axi4_mst/axi4_mst_driver.sv(286) @ 585000: uvm_test_top.env.axi_agent.drv [axi4_mst_driver] [DRV][AXI][B] id=0x7 resp=AXI4_RESP_OKAY
# UVM_INFO ../10_tb/axi4_mst/axi4_mst_monitor.sv(177) @ 585000: uvm_test_top.env.axi_agent.mon [axi4_mst_monitor] [MON][AXI][RSP] WRITE id=0x7 resp=AXI4_RESP_OKAY
# UVM_INFO ../10_tb/env/scoreboard.sv(659) @ 585000: uvm_test_top.env.scb [scoreboard] [SCB][AXI][PASS] AXI4 AXI4_WRITE id=0x7 addr=0x1020 burst=AXI4_BURST_INCR beats=1 size=8B lock=0 | bresp=AXI4_RESP_OKAY | total=7
# UVM_INFO ../10_tb/axi4_mst/axi4_mst_driver.sv(105) @ 585000: uvm_test_top.env.axi_agent.drv [axi4_mst_driver] [DRV][AXI][REQ] AXI4 AXI4_WRITE id=0x2 addr=0x1022 burst=AXI4_BURST_INCR beats=1 size=1B lock=0 | outstanding=1
# UVM_INFO ../10_tb/axi4_mst/axi4_mst_driver.sv(178) @ 625000: uvm_test_top.env.axi_agent.drv [axi4_mst_driver] [DRV][AXI][AW] id=0x2 addr=0x1022 burst=AXI4_BURST_INCR beats=1 size=1B
# UVM_INFO ../10_tb/axi4_mst/axi4_mst_driver.sv(204) @ 625000: uvm_test_top.env.axi_agent.drv [axi4_mst_driver] [DRV][AXI][W] id=0x2 beat=1/1 data=0x5f5e5d5c5b5a5958 strb=0x4 last=1
# UVM_INFO ../10_tb/axi4_mst/axi4_mst_monitor.sv(151) @ 625000: uvm_test_top.env.axi_agent.mon [axi4_mst_monitor] [MON][AXI][REQ] AXI4 AXI4_WRITE id=0x2 addr=0x1022 burst=AXI4_BURST_INCR beats=1 size=1B lock=0
# UVM_INFO ../10_tb/env/predictor.sv(84) @ 625000: uvm_test_top.env.pred [predictor] [PRED][AXI][IN] AXI4 AXI4_WRITE id=0x2 addr=0x1022 burst=AXI4_BURST_INCR beats=1 size=1B lock=0 | queued=1
# UVM_INFO ../10_tb/env/predictor.sv(155) @ 625000: uvm_test_top.env.pred [predictor] [PRED][MAP] AXI4 AXI4_WRITE id=0x2 addr=0x1022 burst=AXI4_BURST_INCR beats=1 size=1B lock=0 -> AHB burst=AHB_BURST_SINGLE size=1B crosses_1kb=0
# UVM_INFO ../10_tb/env/predictor.sv(186) @ 625000: uvm_test_top.env.pred [predictor] [PRED][AHB] beat=1/1 | AHB AHB_WRITE addr=0x1022 trans=AHB_TRANS_NONSEQ burst=AHB_BURST_SINGLE size=1B mastlock=0 resp=AHB_RESP_OKAY waits=0 | wdata=0x5f5e5d5c5b5a5958
# UVM_INFO ../10_tb/ahb_slv/ahb_slv_driver.sv(87) @ 635000: uvm_test_top.env.ahb_agent.drv [ahb_slv_driver] [DRV][AHB][REQ] AHB_WRITE addr=0x1022 trans=AHB_TRANS_NONSEQ burst=AHB_BURST_SINGLE size=1B
# UVM_INFO ../10_tb/ahb_slv/ahb_slv_driver.sv(201) @ 645000: uvm_test_top.env.ahb_agent.drv [ahb_slv_driver] [DRV][AHB][RSP] AHB_WRITE addr=0x1022 data=0x5f5e5d5c5b5a5958 resp=AHB_RESP_OKAY ready_delay=0
# UVM_INFO ../10_tb/ahb_slv/ahb_slv_monitor.sv(119) @ 645000: uvm_test_top.env.ahb_agent.mon [ahb_slv_monitor] [MON][AHB][TR] AHB AHB_WRITE addr=0x1022 trans=AHB_TRANS_NONSEQ burst=AHB_BURST_SINGLE size=1B mastlock=0 resp=AHB_RESP_OKAY waits=0 | data=0x5f5e5d5c5b5a5958
# UVM_INFO ../10_tb/env/scoreboard.sv(519) @ 645000: uvm_test_top.env.scb [scoreboard] [SCB][AHB][PASS] AHB AHB_WRITE addr=0x1022 trans=AHB_TRANS_NONSEQ burst=AHB_BURST_SINGLE size=1B mastlock=0 resp=AHB_RESP_OKAY waits=0 | data=0x5f5e5d5c5b5a5958 | total=8
# UVM_INFO ../10_tb/axi4_mst/axi4_mst_driver.sv(286) @ 655000: uvm_test_top.env.axi_agent.drv [axi4_mst_driver] [DRV][AXI][B] id=0x2 resp=AXI4_RESP_OKAY
# UVM_INFO ../10_tb/axi4_mst/axi4_mst_monitor.sv(177) @ 655000: uvm_test_top.env.axi_agent.mon [axi4_mst_monitor] [MON][AXI][RSP] WRITE id=0x2 resp=AXI4_RESP_OKAY
# UVM_INFO ../10_tb/env/scoreboard.sv(659) @ 655000: uvm_test_top.env.scb [scoreboard] [SCB][AXI][PASS] AXI4 AXI4_WRITE id=0x2 addr=0x1022 burst=AXI4_BURST_INCR beats=1 size=1B lock=0 | bresp=AXI4_RESP_OKAY | total=8
# UVM_INFO ../10_tb/axi4_mst/axi4_mst_driver.sv(105) @ 655000: uvm_test_top.env.axi_agent.drv [axi4_mst_driver] [DRV][AXI][REQ] AXI4 AXI4_READ id=0xe addr=0x1020 burst=AXI4_BURST_INCR beats=1 size=8B lock=0 | outstanding=1
# UVM_INFO ../10_tb/axi4_mst/axi4_mst_driver.sv(261) @ 685000: uvm_test_top.env.axi_agent.drv [axi4_mst_driver] [DRV][AXI][AR] id=0xe addr=0x1020 burst=AXI4_BURST_INCR beats=1 size=8B
# UVM_INFO ../10_tb/axi4_mst/axi4_mst_monitor.sv(211) @ 685000: uvm_test_top.env.axi_agent.mon [axi4_mst_monitor] [MON][AXI][REQ] AXI4 AXI4_READ id=0xe addr=0x1020 burst=AXI4_BURST_INCR beats=1 size=8B lock=0
# UVM_INFO ../10_tb/env/predictor.sv(84) @ 685000: uvm_test_top.env.pred [predictor] [PRED][AXI][IN] AXI4 AXI4_READ id=0xe addr=0x1020 burst=AXI4_BURST_INCR beats=1 size=8B lock=0 | queued=1
# UVM_INFO ../10_tb/env/predictor.sv(155) @ 685000: uvm_test_top.env.pred [predictor] [PRED][MAP] AXI4 AXI4_READ id=0xe addr=0x1020 burst=AXI4_BURST_INCR beats=1 size=8B lock=0 -> AHB burst=AHB_BURST_SINGLE size=8B crosses_1kb=0
# UVM_INFO ../10_tb/env/predictor.sv(192) @ 685000: uvm_test_top.env.pred [predictor] [PRED][AHB] beat=1/1 | AHB AHB_READ addr=0x1020 trans=AHB_TRANS_NONSEQ burst=AHB_BURST_SINGLE size=8B mastlock=0 resp=AHB_RESP_OKAY waits=0
# UVM_INFO ../10_tb/ahb_slv/ahb_slv_driver.sv(87) @ 695000: uvm_test_top.env.ahb_agent.drv [ahb_slv_driver] [DRV][AHB][REQ] AHB_READ addr=0x1020 trans=AHB_TRANS_NONSEQ burst=AHB_BURST_SINGLE size=8B
# UVM_INFO ../10_tb/ahb_slv/ahb_slv_driver.sv(201) @ 705000: uvm_test_top.env.ahb_agent.drv [ahb_slv_driver] [DRV][AHB][RSP] AHB_READ addr=0x1020 data=0xafaeadacab5aa9a8 resp=AHB_RESP_OKAY ready_delay=0
# UVM_INFO ../10_tb/ahb_slv/ahb_slv_monitor.sv(119) @ 705000: uvm_test_top.env.ahb_agent.mon [ahb_slv_monitor] [MON][AHB][TR] AHB AHB_READ addr=0x1020 trans=AHB_TRANS_NONSEQ burst=AHB_BURST_SINGLE size=8B mastlock=0 resp=AHB_RESP_OKAY waits=0 | data=0xafaeadacab5aa9a8
# UVM_INFO ../10_tb/env/scoreboard.sv(519) @ 705000: uvm_test_top.env.scb [scoreboard] [SCB][AHB][PASS] AHB AHB_READ addr=0x1020 trans=AHB_TRANS_NONSEQ burst=AHB_BURST_SINGLE size=8B mastlock=0 resp=AHB_RESP_OKAY waits=0 | data=0xafaeadacab5aa9a8 | total=9
# UVM_INFO ../10_tb/axi4_mst/axi4_mst_driver.sv(326) @ 725000: uvm_test_top.env.axi_agent.drv [axi4_mst_driver] [DRV][AXI][R] id=0xe beat=1/1 data=0xafaeadacab5aa9a8 resp=AXI4_RESP_OKAY last=1
# UVM_INFO ../10_tb/axi4_mst/axi4_mst_monitor.sv(256) @ 725000: uvm_test_top.env.axi_agent.mon [axi4_mst_monitor] [MON][AXI][R] id=0xe beat=1/1 data=0xafaeadacab5aa9a8 resp=AXI4_RESP_OKAY last=1
# UVM_INFO ../10_tb/axi4_mst/axi4_mst_monitor.sv(262) @ 725000: uvm_test_top.env.axi_agent.mon [axi4_mst_monitor] [MON][AXI][RSP] READ id=0xe beats=1
# UVM_INFO ../10_tb/env/scoreboard.sv(666) @ 725000: uvm_test_top.env.scb [scoreboard] [SCB][AXI][PASS] AXI4 AXI4_READ id=0xe addr=0x1020 burst=AXI4_BURST_INCR beats=1 size=8B lock=0 | read beats=1 | total=9
# UVM_INFO ../10_tb/seq/axi4_mst_seq/axi4_mst_single_wstrb_seq.sv(212) @ 725000: uvm_test_top.env.axi_agent.sqr@@axi_seq [axi4_mst_single_wstrb_seq] [3] WSTRB_LEGAL AWSIZE_1B_LANE3 addr=0x1033 AWSIZE=1B WSTRB=0x8 expected HSIZE=1B HADDR=0x1033
# UVM_INFO ../10_tb/axi4_mst/axi4_mst_driver.sv(105) @ 725000: uvm_test_top.env.axi_agent.drv [axi4_mst_driver] [DRV][AXI][REQ] AXI4 AXI4_WRITE id=0x3 addr=0x1030 burst=AXI4_BURST_INCR beats=1 size=8B lock=0 | outstanding=1
# UVM_INFO ../10_tb/axi4_mst/axi4_mst_driver.sv(178) @ 765000: uvm_test_top.env.axi_agent.drv [axi4_mst_driver] [DRV][AXI][AW] id=0x3 addr=0x1030 burst=AXI4_BURST_INCR beats=1 size=8B
# UVM_INFO ../10_tb/axi4_mst/axi4_mst_driver.sv(204) @ 765000: uvm_test_top.env.axi_agent.drv [axi4_mst_driver] [DRV][AXI][W] id=0x3 beat=1/1 data=0xb3b2b1b0afaeadac strb=0xff last=1
# UVM_INFO ../10_tb/axi4_mst/axi4_mst_monitor.sv(151) @ 765000: uvm_test_top.env.axi_agent.mon [axi4_mst_monitor] [MON][AXI][REQ] AXI4 AXI4_WRITE id=0x3 addr=0x1030 burst=AXI4_BURST_INCR beats=1 size=8B lock=0
# UVM_INFO ../10_tb/env/predictor.sv(84) @ 765000: uvm_test_top.env.pred [predictor] [PRED][AXI][IN] AXI4 AXI4_WRITE id=0x3 addr=0x1030 burst=AXI4_BURST_INCR beats=1 size=8B lock=0 | queued=1
# UVM_INFO ../10_tb/env/predictor.sv(155) @ 765000: uvm_test_top.env.pred [predictor] [PRED][MAP] AXI4 AXI4_WRITE id=0x3 addr=0x1030 burst=AXI4_BURST_INCR beats=1 size=8B lock=0 -> AHB burst=AHB_BURST_SINGLE size=8B crosses_1kb=0
# UVM_INFO ../10_tb/env/predictor.sv(186) @ 765000: uvm_test_top.env.pred [predictor] [PRED][AHB] beat=1/1 | AHB AHB_WRITE addr=0x1030 trans=AHB_TRANS_NONSEQ burst=AHB_BURST_SINGLE size=8B mastlock=0 resp=AHB_RESP_OKAY waits=0 | wdata=0xb3b2b1b0afaeadac
# UVM_INFO ../10_tb/ahb_slv/ahb_slv_driver.sv(87) @ 775000: uvm_test_top.env.ahb_agent.drv [ahb_slv_driver] [DRV][AHB][REQ] AHB_WRITE addr=0x1030 trans=AHB_TRANS_NONSEQ burst=AHB_BURST_SINGLE size=8B
# UVM_INFO ../10_tb/ahb_slv/ahb_slv_driver.sv(201) @ 785000: uvm_test_top.env.ahb_agent.drv [ahb_slv_driver] [DRV][AHB][RSP] AHB_WRITE addr=0x1030 data=0xb3b2b1b0afaeadac resp=AHB_RESP_OKAY ready_delay=0
# UVM_INFO ../10_tb/ahb_slv/ahb_slv_monitor.sv(119) @ 785000: uvm_test_top.env.ahb_agent.mon [ahb_slv_monitor] [MON][AHB][TR] AHB AHB_WRITE addr=0x1030 trans=AHB_TRANS_NONSEQ burst=AHB_BURST_SINGLE size=8B mastlock=0 resp=AHB_RESP_OKAY waits=0 | data=0xb3b2b1b0afaeadac
# UVM_INFO ../10_tb/env/scoreboard.sv(519) @ 785000: uvm_test_top.env.scb [scoreboard] [SCB][AHB][PASS] AHB AHB_WRITE addr=0x1030 trans=AHB_TRANS_NONSEQ burst=AHB_BURST_SINGLE size=8B mastlock=0 resp=AHB_RESP_OKAY waits=0 | data=0xb3b2b1b0afaeadac | total=10
# UVM_INFO ../10_tb/axi4_mst/axi4_mst_driver.sv(286) @ 795000: uvm_test_top.env.axi_agent.drv [axi4_mst_driver] [DRV][AXI][B] id=0x3 resp=AXI4_RESP_OKAY
# UVM_INFO ../10_tb/axi4_mst/axi4_mst_monitor.sv(177) @ 795000: uvm_test_top.env.axi_agent.mon [axi4_mst_monitor] [MON][AXI][RSP] WRITE id=0x3 resp=AXI4_RESP_OKAY
# UVM_INFO ../10_tb/env/scoreboard.sv(659) @ 795000: uvm_test_top.env.scb [scoreboard] [SCB][AXI][PASS] AXI4 AXI4_WRITE id=0x3 addr=0x1030 burst=AXI4_BURST_INCR beats=1 size=8B lock=0 | bresp=AXI4_RESP_OKAY | total=10
# UVM_INFO ../10_tb/axi4_mst/axi4_mst_driver.sv(105) @ 795000: uvm_test_top.env.axi_agent.drv [axi4_mst_driver] [DRV][AXI][REQ] AXI4 AXI4_WRITE id=0x5 addr=0x1033 burst=AXI4_BURST_INCR beats=1 size=1B lock=0 | outstanding=1
# UVM_INFO ../10_tb/axi4_mst/axi4_mst_driver.sv(178) @ 835000: uvm_test_top.env.axi_agent.drv [axi4_mst_driver] [DRV][AXI][AW] id=0x5 addr=0x1033 burst=AXI4_BURST_INCR beats=1 size=1B
# UVM_INFO ../10_tb/axi4_mst/axi4_mst_driver.sv(204) @ 835000: uvm_test_top.env.axi_agent.drv [axi4_mst_driver] [DRV][AXI][W] id=0x5 beat=1/1 data=0x636261605f5e5d5c strb=0x8 last=1
# UVM_INFO ../10_tb/axi4_mst/axi4_mst_monitor.sv(151) @ 835000: uvm_test_top.env.axi_agent.mon [axi4_mst_monitor] [MON][AXI][REQ] AXI4 AXI4_WRITE id=0x5 addr=0x1033 burst=AXI4_BURST_INCR beats=1 size=1B lock=0
# UVM_INFO ../10_tb/env/predictor.sv(84) @ 835000: uvm_test_top.env.pred [predictor] [PRED][AXI][IN] AXI4 AXI4_WRITE id=0x5 addr=0x1033 burst=AXI4_BURST_INCR beats=1 size=1B lock=0 | queued=1
# UVM_INFO ../10_tb/env/predictor.sv(155) @ 835000: uvm_test_top.env.pred [predictor] [PRED][MAP] AXI4 AXI4_WRITE id=0x5 addr=0x1033 burst=AXI4_BURST_INCR beats=1 size=1B lock=0 -> AHB burst=AHB_BURST_SINGLE size=1B crosses_1kb=0
# UVM_INFO ../10_tb/env/predictor.sv(186) @ 835000: uvm_test_top.env.pred [predictor] [PRED][AHB] beat=1/1 | AHB AHB_WRITE addr=0x1033 trans=AHB_TRANS_NONSEQ burst=AHB_BURST_SINGLE size=1B mastlock=0 resp=AHB_RESP_OKAY waits=0 | wdata=0x636261605f5e5d5c
# UVM_INFO ../10_tb/ahb_slv/ahb_slv_driver.sv(87) @ 845000: uvm_test_top.env.ahb_agent.drv [ahb_slv_driver] [DRV][AHB][REQ] AHB_WRITE addr=0x1033 trans=AHB_TRANS_NONSEQ burst=AHB_BURST_SINGLE size=1B
# UVM_INFO ../10_tb/ahb_slv/ahb_slv_driver.sv(201) @ 855000: uvm_test_top.env.ahb_agent.drv [ahb_slv_driver] [DRV][AHB][RSP] AHB_WRITE addr=0x1033 data=0x636261605f5e5d5c resp=AHB_RESP_OKAY ready_delay=0
# UVM_INFO ../10_tb/ahb_slv/ahb_slv_monitor.sv(119) @ 855000: uvm_test_top.env.ahb_agent.mon [ahb_slv_monitor] [MON][AHB][TR] AHB AHB_WRITE addr=0x1033 trans=AHB_TRANS_NONSEQ burst=AHB_BURST_SINGLE size=1B mastlock=0 resp=AHB_RESP_OKAY waits=0 | data=0x636261605f5e5d5c
# UVM_INFO ../10_tb/env/scoreboard.sv(519) @ 855000: uvm_test_top.env.scb [scoreboard] [SCB][AHB][PASS] AHB AHB_WRITE addr=0x1033 trans=AHB_TRANS_NONSEQ burst=AHB_BURST_SINGLE size=1B mastlock=0 resp=AHB_RESP_OKAY waits=0 | data=0x636261605f5e5d5c | total=11
# UVM_INFO ../10_tb/axi4_mst/axi4_mst_driver.sv(286) @ 865000: uvm_test_top.env.axi_agent.drv [axi4_mst_driver] [DRV][AXI][B] id=0x5 resp=AXI4_RESP_OKAY
# UVM_INFO ../10_tb/axi4_mst/axi4_mst_monitor.sv(177) @ 865000: uvm_test_top.env.axi_agent.mon [axi4_mst_monitor] [MON][AXI][RSP] WRITE id=0x5 resp=AXI4_RESP_OKAY
# UVM_INFO ../10_tb/env/scoreboard.sv(659) @ 865000: uvm_test_top.env.scb [scoreboard] [SCB][AXI][PASS] AXI4 AXI4_WRITE id=0x5 addr=0x1033 burst=AXI4_BURST_INCR beats=1 size=1B lock=0 | bresp=AXI4_RESP_OKAY | total=11
# UVM_INFO ../10_tb/axi4_mst/axi4_mst_driver.sv(105) @ 865000: uvm_test_top.env.axi_agent.drv [axi4_mst_driver] [DRV][AXI][REQ] AXI4 AXI4_READ id=0xe addr=0x1030 burst=AXI4_BURST_INCR beats=1 size=8B lock=0 | outstanding=1
# UVM_INFO ../10_tb/axi4_mst/axi4_mst_driver.sv(261) @ 895000: uvm_test_top.env.axi_agent.drv [axi4_mst_driver] [DRV][AXI][AR] id=0xe addr=0x1030 burst=AXI4_BURST_INCR beats=1 size=8B
# UVM_INFO ../10_tb/axi4_mst/axi4_mst_monitor.sv(211) @ 895000: uvm_test_top.env.axi_agent.mon [axi4_mst_monitor] [MON][AXI][REQ] AXI4 AXI4_READ id=0xe addr=0x1030 burst=AXI4_BURST_INCR beats=1 size=8B lock=0
# UVM_INFO ../10_tb/env/predictor.sv(84) @ 895000: uvm_test_top.env.pred [predictor] [PRED][AXI][IN] AXI4 AXI4_READ id=0xe addr=0x1030 burst=AXI4_BURST_INCR beats=1 size=8B lock=0 | queued=1
# UVM_INFO ../10_tb/env/predictor.sv(155) @ 895000: uvm_test_top.env.pred [predictor] [PRED][MAP] AXI4 AXI4_READ id=0xe addr=0x1030 burst=AXI4_BURST_INCR beats=1 size=8B lock=0 -> AHB burst=AHB_BURST_SINGLE size=8B crosses_1kb=0
# UVM_INFO ../10_tb/env/predictor.sv(192) @ 895000: uvm_test_top.env.pred [predictor] [PRED][AHB] beat=1/1 | AHB AHB_READ addr=0x1030 trans=AHB_TRANS_NONSEQ burst=AHB_BURST_SINGLE size=8B mastlock=0 resp=AHB_RESP_OKAY waits=0
# UVM_INFO ../10_tb/ahb_slv/ahb_slv_driver.sv(87) @ 905000: uvm_test_top.env.ahb_agent.drv [ahb_slv_driver] [DRV][AHB][REQ] AHB_READ addr=0x1030 trans=AHB_TRANS_NONSEQ burst=AHB_BURST_SINGLE size=8B
# UVM_INFO ../10_tb/ahb_slv/ahb_slv_driver.sv(201) @ 915000: uvm_test_top.env.ahb_agent.drv [ahb_slv_driver] [DRV][AHB][RSP] AHB_READ addr=0x1030 data=0xb3b2b1b05faeadac resp=AHB_RESP_OKAY ready_delay=0
# UVM_INFO ../10_tb/ahb_slv/ahb_slv_monitor.sv(119) @ 915000: uvm_test_top.env.ahb_agent.mon [ahb_slv_monitor] [MON][AHB][TR] AHB AHB_READ addr=0x1030 trans=AHB_TRANS_NONSEQ burst=AHB_BURST_SINGLE size=8B mastlock=0 resp=AHB_RESP_OKAY waits=0 | data=0xb3b2b1b05faeadac
# UVM_INFO ../10_tb/env/scoreboard.sv(519) @ 915000: uvm_test_top.env.scb [scoreboard] [SCB][AHB][PASS] AHB AHB_READ addr=0x1030 trans=AHB_TRANS_NONSEQ burst=AHB_BURST_SINGLE size=8B mastlock=0 resp=AHB_RESP_OKAY waits=0 | data=0xb3b2b1b05faeadac | total=12
# UVM_INFO ../10_tb/axi4_mst/axi4_mst_driver.sv(326) @ 935000: uvm_test_top.env.axi_agent.drv [axi4_mst_driver] [DRV][AXI][R] id=0xe beat=1/1 data=0xb3b2b1b05faeadac resp=AXI4_RESP_OKAY last=1
# UVM_INFO ../10_tb/axi4_mst/axi4_mst_monitor.sv(256) @ 935000: uvm_test_top.env.axi_agent.mon [axi4_mst_monitor] [MON][AXI][R] id=0xe beat=1/1 data=0xb3b2b1b05faeadac resp=AXI4_RESP_OKAY last=1
# UVM_INFO ../10_tb/axi4_mst/axi4_mst_monitor.sv(262) @ 935000: uvm_test_top.env.axi_agent.mon [axi4_mst_monitor] [MON][AXI][RSP] READ id=0xe beats=1
# UVM_INFO ../10_tb/env/scoreboard.sv(666) @ 935000: uvm_test_top.env.scb [scoreboard] [SCB][AXI][PASS] AXI4 AXI4_READ id=0xe addr=0x1030 burst=AXI4_BURST_INCR beats=1 size=8B lock=0 | read beats=1 | total=12
# UVM_INFO ../10_tb/seq/axi4_mst_seq/axi4_mst_single_wstrb_seq.sv(212) @ 935000: uvm_test_top.env.axi_agent.sqr@@axi_seq [axi4_mst_single_wstrb_seq] [4] WSTRB_LEGAL AWSIZE_1B_LANE4 addr=0x1044 AWSIZE=1B WSTRB=0x10 expected HSIZE=1B HADDR=0x1044
# UVM_INFO ../10_tb/axi4_mst/axi4_mst_driver.sv(105) @ 935000: uvm_test_top.env.axi_agent.drv [axi4_mst_driver] [DRV][AXI][REQ] AXI4 AXI4_WRITE id=0x8 addr=0x1040 burst=AXI4_BURST_INCR beats=1 size=8B lock=0 | outstanding=1
# UVM_INFO ../10_tb/axi4_mst/axi4_mst_driver.sv(178) @ 975000: uvm_test_top.env.axi_agent.drv [axi4_mst_driver] [DRV][AXI][AW] id=0x8 addr=0x1040 burst=AXI4_BURST_INCR beats=1 size=8B
# UVM_INFO ../10_tb/axi4_mst/axi4_mst_driver.sv(204) @ 975000: uvm_test_top.env.axi_agent.drv [axi4_mst_driver] [DRV][AXI][W] id=0x8 beat=1/1 data=0xb7b6b5b4b3b2b1b0 strb=0xff last=1
# UVM_INFO ../10_tb/axi4_mst/axi4_mst_monitor.sv(151) @ 975000: uvm_test_top.env.axi_agent.mon [axi4_mst_monitor] [MON][AXI][REQ] AXI4 AXI4_WRITE id=0x8 addr=0x1040 burst=AXI4_BURST_INCR beats=1 size=8B lock=0
# UVM_INFO ../10_tb/env/predictor.sv(84) @ 975000: uvm_test_top.env.pred [predictor] [PRED][AXI][IN] AXI4 AXI4_WRITE id=0x8 addr=0x1040 burst=AXI4_BURST_INCR beats=1 size=8B lock=0 | queued=1
# UVM_INFO ../10_tb/env/predictor.sv(155) @ 975000: uvm_test_top.env.pred [predictor] [PRED][MAP] AXI4 AXI4_WRITE id=0x8 addr=0x1040 burst=AXI4_BURST_INCR beats=1 size=8B lock=0 -> AHB burst=AHB_BURST_SINGLE size=8B crosses_1kb=0
# UVM_INFO ../10_tb/env/predictor.sv(186) @ 975000: uvm_test_top.env.pred [predictor] [PRED][AHB] beat=1/1 | AHB AHB_WRITE addr=0x1040 trans=AHB_TRANS_NONSEQ burst=AHB_BURST_SINGLE size=8B mastlock=0 resp=AHB_RESP_OKAY waits=0 | wdata=0xb7b6b5b4b3b2b1b0
# UVM_INFO ../10_tb/ahb_slv/ahb_slv_driver.sv(87) @ 985000: uvm_test_top.env.ahb_agent.drv [ahb_slv_driver] [DRV][AHB][REQ] AHB_WRITE addr=0x1040 trans=AHB_TRANS_NONSEQ burst=AHB_BURST_SINGLE size=8B
# UVM_INFO ../10_tb/ahb_slv/ahb_slv_driver.sv(201) @ 995000: uvm_test_top.env.ahb_agent.drv [ahb_slv_driver] [DRV][AHB][RSP] AHB_WRITE addr=0x1040 data=0xb7b6b5b4b3b2b1b0 resp=AHB_RESP_OKAY ready_delay=0
# UVM_INFO ../10_tb/ahb_slv/ahb_slv_monitor.sv(119) @ 995000: uvm_test_top.env.ahb_agent.mon [ahb_slv_monitor] [MON][AHB][TR] AHB AHB_WRITE addr=0x1040 trans=AHB_TRANS_NONSEQ burst=AHB_BURST_SINGLE size=8B mastlock=0 resp=AHB_RESP_OKAY waits=0 | data=0xb7b6b5b4b3b2b1b0
# UVM_INFO ../10_tb/env/scoreboard.sv(519) @ 995000: uvm_test_top.env.scb [scoreboard] [SCB][AHB][PASS] AHB AHB_WRITE addr=0x1040 trans=AHB_TRANS_NONSEQ burst=AHB_BURST_SINGLE size=8B mastlock=0 resp=AHB_RESP_OKAY waits=0 | data=0xb7b6b5b4b3b2b1b0 | total=13
# UVM_INFO ../10_tb/axi4_mst/axi4_mst_driver.sv(286) @ 1005000: uvm_test_top.env.axi_agent.drv [axi4_mst_driver] [DRV][AXI][B] id=0x8 resp=AXI4_RESP_OKAY
# UVM_INFO ../10_tb/axi4_mst/axi4_mst_monitor.sv(177) @ 1005000: uvm_test_top.env.axi_agent.mon [axi4_mst_monitor] [MON][AXI][RSP] WRITE id=0x8 resp=AXI4_RESP_OKAY
# UVM_INFO ../10_tb/env/scoreboard.sv(659) @ 1005000: uvm_test_top.env.scb [scoreboard] [SCB][AXI][PASS] AXI4 AXI4_WRITE id=0x8 addr=0x1040 burst=AXI4_BURST_INCR beats=1 size=8B lock=0 | bresp=AXI4_RESP_OKAY | total=13
# UVM_INFO ../10_tb/axi4_mst/axi4_mst_driver.sv(105) @ 1005000: uvm_test_top.env.axi_agent.drv [axi4_mst_driver] [DRV][AXI][REQ] AXI4 AXI4_WRITE id=0x8 addr=0x1044 burst=AXI4_BURST_INCR beats=1 size=1B lock=0 | outstanding=1
# UVM_INFO ../10_tb/axi4_mst/axi4_mst_driver.sv(178) @ 1045000: uvm_test_top.env.axi_agent.drv [axi4_mst_driver] [DRV][AXI][AW] id=0x8 addr=0x1044 burst=AXI4_BURST_INCR beats=1 size=1B
# UVM_INFO ../10_tb/axi4_mst/axi4_mst_driver.sv(204) @ 1045000: uvm_test_top.env.axi_agent.drv [axi4_mst_driver] [DRV][AXI][W] id=0x8 beat=1/1 data=0x6766656463626160 strb=0x10 last=1
# UVM_INFO ../10_tb/axi4_mst/axi4_mst_monitor.sv(151) @ 1045000: uvm_test_top.env.axi_agent.mon [axi4_mst_monitor] [MON][AXI][REQ] AXI4 AXI4_WRITE id=0x8 addr=0x1044 burst=AXI4_BURST_INCR beats=1 size=1B lock=0
# UVM_INFO ../10_tb/env/predictor.sv(84) @ 1045000: uvm_test_top.env.pred [predictor] [PRED][AXI][IN] AXI4 AXI4_WRITE id=0x8 addr=0x1044 burst=AXI4_BURST_INCR beats=1 size=1B lock=0 | queued=1
# UVM_INFO ../10_tb/env/predictor.sv(155) @ 1045000: uvm_test_top.env.pred [predictor] [PRED][MAP] AXI4 AXI4_WRITE id=0x8 addr=0x1044 burst=AXI4_BURST_INCR beats=1 size=1B lock=0 -> AHB burst=AHB_BURST_SINGLE size=1B crosses_1kb=0
# UVM_INFO ../10_tb/env/predictor.sv(186) @ 1045000: uvm_test_top.env.pred [predictor] [PRED][AHB] beat=1/1 | AHB AHB_WRITE addr=0x1044 trans=AHB_TRANS_NONSEQ burst=AHB_BURST_SINGLE size=1B mastlock=0 resp=AHB_RESP_OKAY waits=0 | wdata=0x6766656463626160
# UVM_INFO ../10_tb/ahb_slv/ahb_slv_driver.sv(87) @ 1055000: uvm_test_top.env.ahb_agent.drv [ahb_slv_driver] [DRV][AHB][REQ] AHB_WRITE addr=0x1044 trans=AHB_TRANS_NONSEQ burst=AHB_BURST_SINGLE size=1B
# UVM_INFO ../10_tb/ahb_slv/ahb_slv_driver.sv(201) @ 1065000: uvm_test_top.env.ahb_agent.drv [ahb_slv_driver] [DRV][AHB][RSP] AHB_WRITE addr=0x1044 data=0x6766656463626160 resp=AHB_RESP_OKAY ready_delay=0
# UVM_INFO ../10_tb/ahb_slv/ahb_slv_monitor.sv(119) @ 1065000: uvm_test_top.env.ahb_agent.mon [ahb_slv_monitor] [MON][AHB][TR] AHB AHB_WRITE addr=0x1044 trans=AHB_TRANS_NONSEQ burst=AHB_BURST_SINGLE size=1B mastlock=0 resp=AHB_RESP_OKAY waits=0 | data=0x6766656463626160
# UVM_INFO ../10_tb/env/scoreboard.sv(519) @ 1065000: uvm_test_top.env.scb [scoreboard] [SCB][AHB][PASS] AHB AHB_WRITE addr=0x1044 trans=AHB_TRANS_NONSEQ burst=AHB_BURST_SINGLE size=1B mastlock=0 resp=AHB_RESP_OKAY waits=0 | data=0x6766656463626160 | total=14
# UVM_INFO ../10_tb/axi4_mst/axi4_mst_driver.sv(286) @ 1075000: uvm_test_top.env.axi_agent.drv [axi4_mst_driver] [DRV][AXI][B] id=0x8 resp=AXI4_RESP_OKAY
# UVM_INFO ../10_tb/axi4_mst/axi4_mst_monitor.sv(177) @ 1075000: uvm_test_top.env.axi_agent.mon [axi4_mst_monitor] [MON][AXI][RSP] WRITE id=0x8 resp=AXI4_RESP_OKAY
# UVM_INFO ../10_tb/env/scoreboard.sv(659) @ 1075000: uvm_test_top.env.scb [scoreboard] [SCB][AXI][PASS] AXI4 AXI4_WRITE id=0x8 addr=0x1044 burst=AXI4_BURST_INCR beats=1 size=1B lock=0 | bresp=AXI4_RESP_OKAY | total=14
# UVM_INFO ../10_tb/axi4_mst/axi4_mst_driver.sv(105) @ 1075000: uvm_test_top.env.axi_agent.drv [axi4_mst_driver] [DRV][AXI][REQ] AXI4 AXI4_READ id=0x1 addr=0x1040 burst=AXI4_BURST_INCR beats=1 size=8B lock=0 | outstanding=1
# UVM_INFO ../10_tb/axi4_mst/axi4_mst_driver.sv(261) @ 1105000: uvm_test_top.env.axi_agent.drv [axi4_mst_driver] [DRV][AXI][AR] id=0x1 addr=0x1040 burst=AXI4_BURST_INCR beats=1 size=8B
# UVM_INFO ../10_tb/axi4_mst/axi4_mst_monitor.sv(211) @ 1105000: uvm_test_top.env.axi_agent.mon [axi4_mst_monitor] [MON][AXI][REQ] AXI4 AXI4_READ id=0x1 addr=0x1040 burst=AXI4_BURST_INCR beats=1 size=8B lock=0
# UVM_INFO ../10_tb/env/predictor.sv(84) @ 1105000: uvm_test_top.env.pred [predictor] [PRED][AXI][IN] AXI4 AXI4_READ id=0x1 addr=0x1040 burst=AXI4_BURST_INCR beats=1 size=8B lock=0 | queued=1
# UVM_INFO ../10_tb/env/predictor.sv(155) @ 1105000: uvm_test_top.env.pred [predictor] [PRED][MAP] AXI4 AXI4_READ id=0x1 addr=0x1040 burst=AXI4_BURST_INCR beats=1 size=8B lock=0 -> AHB burst=AHB_BURST_SINGLE size=8B crosses_1kb=0
# UVM_INFO ../10_tb/env/predictor.sv(192) @ 1105000: uvm_test_top.env.pred [predictor] [PRED][AHB] beat=1/1 | AHB AHB_READ addr=0x1040 trans=AHB_TRANS_NONSEQ burst=AHB_BURST_SINGLE size=8B mastlock=0 resp=AHB_RESP_OKAY waits=0
# UVM_INFO ../10_tb/ahb_slv/ahb_slv_driver.sv(87) @ 1115000: uvm_test_top.env.ahb_agent.drv [ahb_slv_driver] [DRV][AHB][REQ] AHB_READ addr=0x1040 trans=AHB_TRANS_NONSEQ burst=AHB_BURST_SINGLE size=8B
# UVM_INFO ../10_tb/ahb_slv/ahb_slv_driver.sv(201) @ 1125000: uvm_test_top.env.ahb_agent.drv [ahb_slv_driver] [DRV][AHB][RSP] AHB_READ addr=0x1040 data=0xb7b6b564b3b2b1b0 resp=AHB_RESP_OKAY ready_delay=0
# UVM_INFO ../10_tb/ahb_slv/ahb_slv_monitor.sv(119) @ 1125000: uvm_test_top.env.ahb_agent.mon [ahb_slv_monitor] [MON][AHB][TR] AHB AHB_READ addr=0x1040 trans=AHB_TRANS_NONSEQ burst=AHB_BURST_SINGLE size=8B mastlock=0 resp=AHB_RESP_OKAY waits=0 | data=0xb7b6b564b3b2b1b0
# UVM_INFO ../10_tb/env/scoreboard.sv(519) @ 1125000: uvm_test_top.env.scb [scoreboard] [SCB][AHB][PASS] AHB AHB_READ addr=0x1040 trans=AHB_TRANS_NONSEQ burst=AHB_BURST_SINGLE size=8B mastlock=0 resp=AHB_RESP_OKAY waits=0 | data=0xb7b6b564b3b2b1b0 | total=15
# UVM_INFO ../10_tb/axi4_mst/axi4_mst_driver.sv(326) @ 1145000: uvm_test_top.env.axi_agent.drv [axi4_mst_driver] [DRV][AXI][R] id=0x1 beat=1/1 data=0xb7b6b564b3b2b1b0 resp=AXI4_RESP_OKAY last=1
# UVM_INFO ../10_tb/axi4_mst/axi4_mst_monitor.sv(256) @ 1145000: uvm_test_top.env.axi_agent.mon [axi4_mst_monitor] [MON][AXI][R] id=0x1 beat=1/1 data=0xb7b6b564b3b2b1b0 resp=AXI4_RESP_OKAY last=1
# UVM_INFO ../10_tb/axi4_mst/axi4_mst_monitor.sv(262) @ 1145000: uvm_test_top.env.axi_agent.mon [axi4_mst_monitor] [MON][AXI][RSP] READ id=0x1 beats=1
# UVM_INFO ../10_tb/env/scoreboard.sv(666) @ 1145000: uvm_test_top.env.scb [scoreboard] [SCB][AXI][PASS] AXI4 AXI4_READ id=0x1 addr=0x1040 burst=AXI4_BURST_INCR beats=1 size=8B lock=0 | read beats=1 | total=15
# UVM_INFO ../10_tb/seq/axi4_mst_seq/axi4_mst_single_wstrb_seq.sv(212) @ 1145000: uvm_test_top.env.axi_agent.sqr@@axi_seq [axi4_mst_single_wstrb_seq] [5] WSTRB_LEGAL AWSIZE_1B_LANE5 addr=0x1055 AWSIZE=1B WSTRB=0x20 expected HSIZE=1B HADDR=0x1055
# UVM_INFO ../10_tb/axi4_mst/axi4_mst_driver.sv(105) @ 1145000: uvm_test_top.env.axi_agent.drv [axi4_mst_driver] [DRV][AXI][REQ] AXI4 AXI4_WRITE id=0x7 addr=0x1050 burst=AXI4_BURST_INCR beats=1 size=8B lock=0 | outstanding=1
# UVM_INFO ../10_tb/axi4_mst/axi4_mst_driver.sv(178) @ 1185000: uvm_test_top.env.axi_agent.drv [axi4_mst_driver] [DRV][AXI][AW] id=0x7 addr=0x1050 burst=AXI4_BURST_INCR beats=1 size=8B
# UVM_INFO ../10_tb/axi4_mst/axi4_mst_driver.sv(204) @ 1185000: uvm_test_top.env.axi_agent.drv [axi4_mst_driver] [DRV][AXI][W] id=0x7 beat=1/1 data=0xbbbab9b8b7b6b5b4 strb=0xff last=1
# UVM_INFO ../10_tb/axi4_mst/axi4_mst_monitor.sv(151) @ 1185000: uvm_test_top.env.axi_agent.mon [axi4_mst_monitor] [MON][AXI][REQ] AXI4 AXI4_WRITE id=0x7 addr=0x1050 burst=AXI4_BURST_INCR beats=1 size=8B lock=0
# UVM_INFO ../10_tb/env/predictor.sv(84) @ 1185000: uvm_test_top.env.pred [predictor] [PRED][AXI][IN] AXI4 AXI4_WRITE id=0x7 addr=0x1050 burst=AXI4_BURST_INCR beats=1 size=8B lock=0 | queued=1
# UVM_INFO ../10_tb/env/predictor.sv(155) @ 1185000: uvm_test_top.env.pred [predictor] [PRED][MAP] AXI4 AXI4_WRITE id=0x7 addr=0x1050 burst=AXI4_BURST_INCR beats=1 size=8B lock=0 -> AHB burst=AHB_BURST_SINGLE size=8B crosses_1kb=0
# UVM_INFO ../10_tb/env/predictor.sv(186) @ 1185000: uvm_test_top.env.pred [predictor] [PRED][AHB] beat=1/1 | AHB AHB_WRITE addr=0x1050 trans=AHB_TRANS_NONSEQ burst=AHB_BURST_SINGLE size=8B mastlock=0 resp=AHB_RESP_OKAY waits=0 | wdata=0xbbbab9b8b7b6b5b4
# UVM_INFO ../10_tb/ahb_slv/ahb_slv_driver.sv(87) @ 1195000: uvm_test_top.env.ahb_agent.drv [ahb_slv_driver] [DRV][AHB][REQ] AHB_WRITE addr=0x1050 trans=AHB_TRANS_NONSEQ burst=AHB_BURST_SINGLE size=8B
# UVM_INFO ../10_tb/ahb_slv/ahb_slv_driver.sv(201) @ 1205000: uvm_test_top.env.ahb_agent.drv [ahb_slv_driver] [DRV][AHB][RSP] AHB_WRITE addr=0x1050 data=0xbbbab9b8b7b6b5b4 resp=AHB_RESP_OKAY ready_delay=0
# UVM_INFO ../10_tb/ahb_slv/ahb_slv_monitor.sv(119) @ 1205000: uvm_test_top.env.ahb_agent.mon [ahb_slv_monitor] [MON][AHB][TR] AHB AHB_WRITE addr=0x1050 trans=AHB_TRANS_NONSEQ burst=AHB_BURST_SINGLE size=8B mastlock=0 resp=AHB_RESP_OKAY waits=0 | data=0xbbbab9b8b7b6b5b4
# UVM_INFO ../10_tb/env/scoreboard.sv(519) @ 1205000: uvm_test_top.env.scb [scoreboard] [SCB][AHB][PASS] AHB AHB_WRITE addr=0x1050 trans=AHB_TRANS_NONSEQ burst=AHB_BURST_SINGLE size=8B mastlock=0 resp=AHB_RESP_OKAY waits=0 | data=0xbbbab9b8b7b6b5b4 | total=16
# UVM_INFO ../10_tb/axi4_mst/axi4_mst_driver.sv(286) @ 1215000: uvm_test_top.env.axi_agent.drv [axi4_mst_driver] [DRV][AXI][B] id=0x7 resp=AXI4_RESP_OKAY
# UVM_INFO ../10_tb/axi4_mst/axi4_mst_monitor.sv(177) @ 1215000: uvm_test_top.env.axi_agent.mon [axi4_mst_monitor] [MON][AXI][RSP] WRITE id=0x7 resp=AXI4_RESP_OKAY
# UVM_INFO ../10_tb/env/scoreboard.sv(659) @ 1215000: uvm_test_top.env.scb [scoreboard] [SCB][AXI][PASS] AXI4 AXI4_WRITE id=0x7 addr=0x1050 burst=AXI4_BURST_INCR beats=1 size=8B lock=0 | bresp=AXI4_RESP_OKAY | total=16
# UVM_INFO ../10_tb/axi4_mst/axi4_mst_driver.sv(105) @ 1215000: uvm_test_top.env.axi_agent.drv [axi4_mst_driver] [DRV][AXI][REQ] AXI4 AXI4_WRITE id=0x4 addr=0x1055 burst=AXI4_BURST_INCR beats=1 size=1B lock=0 | outstanding=1
# UVM_INFO ../10_tb/axi4_mst/axi4_mst_driver.sv(178) @ 1255000: uvm_test_top.env.axi_agent.drv [axi4_mst_driver] [DRV][AXI][AW] id=0x4 addr=0x1055 burst=AXI4_BURST_INCR beats=1 size=1B
# UVM_INFO ../10_tb/axi4_mst/axi4_mst_driver.sv(204) @ 1255000: uvm_test_top.env.axi_agent.drv [axi4_mst_driver] [DRV][AXI][W] id=0x4 beat=1/1 data=0x6b6a696867666564 strb=0x20 last=1
# UVM_INFO ../10_tb/axi4_mst/axi4_mst_monitor.sv(151) @ 1255000: uvm_test_top.env.axi_agent.mon [axi4_mst_monitor] [MON][AXI][REQ] AXI4 AXI4_WRITE id=0x4 addr=0x1055 burst=AXI4_BURST_INCR beats=1 size=1B lock=0
# UVM_INFO ../10_tb/env/predictor.sv(84) @ 1255000: uvm_test_top.env.pred [predictor] [PRED][AXI][IN] AXI4 AXI4_WRITE id=0x4 addr=0x1055 burst=AXI4_BURST_INCR beats=1 size=1B lock=0 | queued=1
# UVM_INFO ../10_tb/env/predictor.sv(155) @ 1255000: uvm_test_top.env.pred [predictor] [PRED][MAP] AXI4 AXI4_WRITE id=0x4 addr=0x1055 burst=AXI4_BURST_INCR beats=1 size=1B lock=0 -> AHB burst=AHB_BURST_SINGLE size=1B crosses_1kb=0
# UVM_INFO ../10_tb/env/predictor.sv(186) @ 1255000: uvm_test_top.env.pred [predictor] [PRED][AHB] beat=1/1 | AHB AHB_WRITE addr=0x1055 trans=AHB_TRANS_NONSEQ burst=AHB_BURST_SINGLE size=1B mastlock=0 resp=AHB_RESP_OKAY waits=0 | wdata=0x6b6a696867666564
# UVM_INFO ../10_tb/ahb_slv/ahb_slv_driver.sv(87) @ 1265000: uvm_test_top.env.ahb_agent.drv [ahb_slv_driver] [DRV][AHB][REQ] AHB_WRITE addr=0x1055 trans=AHB_TRANS_NONSEQ burst=AHB_BURST_SINGLE size=1B
# UVM_INFO ../10_tb/ahb_slv/ahb_slv_driver.sv(201) @ 1275000: uvm_test_top.env.ahb_agent.drv [ahb_slv_driver] [DRV][AHB][RSP] AHB_WRITE addr=0x1055 data=0x6b6a696867666564 resp=AHB_RESP_OKAY ready_delay=0
# UVM_INFO ../10_tb/ahb_slv/ahb_slv_monitor.sv(119) @ 1275000: uvm_test_top.env.ahb_agent.mon [ahb_slv_monitor] [MON][AHB][TR] AHB AHB_WRITE addr=0x1055 trans=AHB_TRANS_NONSEQ burst=AHB_BURST_SINGLE size=1B mastlock=0 resp=AHB_RESP_OKAY waits=0 | data=0x6b6a696867666564
# UVM_INFO ../10_tb/env/scoreboard.sv(519) @ 1275000: uvm_test_top.env.scb [scoreboard] [SCB][AHB][PASS] AHB AHB_WRITE addr=0x1055 trans=AHB_TRANS_NONSEQ burst=AHB_BURST_SINGLE size=1B mastlock=0 resp=AHB_RESP_OKAY waits=0 | data=0x6b6a696867666564 | total=17
# UVM_INFO ../10_tb/axi4_mst/axi4_mst_driver.sv(286) @ 1285000: uvm_test_top.env.axi_agent.drv [axi4_mst_driver] [DRV][AXI][B] id=0x4 resp=AXI4_RESP_OKAY
# UVM_INFO ../10_tb/axi4_mst/axi4_mst_monitor.sv(177) @ 1285000: uvm_test_top.env.axi_agent.mon [axi4_mst_monitor] [MON][AXI][RSP] WRITE id=0x4 resp=AXI4_RESP_OKAY
# UVM_INFO ../10_tb/env/scoreboard.sv(659) @ 1285000: uvm_test_top.env.scb [scoreboard] [SCB][AXI][PASS] AXI4 AXI4_WRITE id=0x4 addr=0x1055 burst=AXI4_BURST_INCR beats=1 size=1B lock=0 | bresp=AXI4_RESP_OKAY | total=17
# UVM_INFO ../10_tb/axi4_mst/axi4_mst_driver.sv(105) @ 1285000: uvm_test_top.env.axi_agent.drv [axi4_mst_driver] [DRV][AXI][REQ] AXI4 AXI4_READ id=0x9 addr=0x1050 burst=AXI4_BURST_INCR beats=1 size=8B lock=0 | outstanding=1
# UVM_INFO ../10_tb/axi4_mst/axi4_mst_driver.sv(261) @ 1315000: uvm_test_top.env.axi_agent.drv [axi4_mst_driver] [DRV][AXI][AR] id=0x9 addr=0x1050 burst=AXI4_BURST_INCR beats=1 size=8B
# UVM_INFO ../10_tb/axi4_mst/axi4_mst_monitor.sv(211) @ 1315000: uvm_test_top.env.axi_agent.mon [axi4_mst_monitor] [MON][AXI][REQ] AXI4 AXI4_READ id=0x9 addr=0x1050 burst=AXI4_BURST_INCR beats=1 size=8B lock=0
# UVM_INFO ../10_tb/env/predictor.sv(84) @ 1315000: uvm_test_top.env.pred [predictor] [PRED][AXI][IN] AXI4 AXI4_READ id=0x9 addr=0x1050 burst=AXI4_BURST_INCR beats=1 size=8B lock=0 | queued=1
# UVM_INFO ../10_tb/env/predictor.sv(155) @ 1315000: uvm_test_top.env.pred [predictor] [PRED][MAP] AXI4 AXI4_READ id=0x9 addr=0x1050 burst=AXI4_BURST_INCR beats=1 size=8B lock=0 -> AHB burst=AHB_BURST_SINGLE size=8B crosses_1kb=0
# UVM_INFO ../10_tb/env/predictor.sv(192) @ 1315000: uvm_test_top.env.pred [predictor] [PRED][AHB] beat=1/1 | AHB AHB_READ addr=0x1050 trans=AHB_TRANS_NONSEQ burst=AHB_BURST_SINGLE size=8B mastlock=0 resp=AHB_RESP_OKAY waits=0
# UVM_INFO ../10_tb/ahb_slv/ahb_slv_driver.sv(87) @ 1325000: uvm_test_top.env.ahb_agent.drv [ahb_slv_driver] [DRV][AHB][REQ] AHB_READ addr=0x1050 trans=AHB_TRANS_NONSEQ burst=AHB_BURST_SINGLE size=8B
# UVM_INFO ../10_tb/ahb_slv/ahb_slv_driver.sv(201) @ 1335000: uvm_test_top.env.ahb_agent.drv [ahb_slv_driver] [DRV][AHB][RSP] AHB_READ addr=0x1050 data=0xbbba69b8b7b6b5b4 resp=AHB_RESP_OKAY ready_delay=0
# UVM_INFO ../10_tb/ahb_slv/ahb_slv_monitor.sv(119) @ 1335000: uvm_test_top.env.ahb_agent.mon [ahb_slv_monitor] [MON][AHB][TR] AHB AHB_READ addr=0x1050 trans=AHB_TRANS_NONSEQ burst=AHB_BURST_SINGLE size=8B mastlock=0 resp=AHB_RESP_OKAY waits=0 | data=0xbbba69b8b7b6b5b4
# UVM_INFO ../10_tb/env/scoreboard.sv(519) @ 1335000: uvm_test_top.env.scb [scoreboard] [SCB][AHB][PASS] AHB AHB_READ addr=0x1050 trans=AHB_TRANS_NONSEQ burst=AHB_BURST_SINGLE size=8B mastlock=0 resp=AHB_RESP_OKAY waits=0 | data=0xbbba69b8b7b6b5b4 | total=18
# UVM_INFO ../10_tb/axi4_mst/axi4_mst_driver.sv(326) @ 1355000: uvm_test_top.env.axi_agent.drv [axi4_mst_driver] [DRV][AXI][R] id=0x9 beat=1/1 data=0xbbba69b8b7b6b5b4 resp=AXI4_RESP_OKAY last=1
# UVM_INFO ../10_tb/axi4_mst/axi4_mst_monitor.sv(256) @ 1355000: uvm_test_top.env.axi_agent.mon [axi4_mst_monitor] [MON][AXI][R] id=0x9 beat=1/1 data=0xbbba69b8b7b6b5b4 resp=AXI4_RESP_OKAY last=1
# UVM_INFO ../10_tb/axi4_mst/axi4_mst_monitor.sv(262) @ 1355000: uvm_test_top.env.axi_agent.mon [axi4_mst_monitor] [MON][AXI][RSP] READ id=0x9 beats=1
# UVM_INFO ../10_tb/env/scoreboard.sv(666) @ 1355000: uvm_test_top.env.scb [scoreboard] [SCB][AXI][PASS] AXI4 AXI4_READ id=0x9 addr=0x1050 burst=AXI4_BURST_INCR beats=1 size=8B lock=0 | read beats=1 | total=18
# UVM_INFO ../10_tb/seq/axi4_mst_seq/axi4_mst_single_wstrb_seq.sv(212) @ 1355000: uvm_test_top.env.axi_agent.sqr@@axi_seq [axi4_mst_single_wstrb_seq] [6] WSTRB_LEGAL AWSIZE_1B_LANE6 addr=0x1066 AWSIZE=1B WSTRB=0x40 expected HSIZE=1B HADDR=0x1066
# UVM_INFO ../10_tb/axi4_mst/axi4_mst_driver.sv(105) @ 1355000: uvm_test_top.env.axi_agent.drv [axi4_mst_driver] [DRV][AXI][REQ] AXI4 AXI4_WRITE id=0x1 addr=0x1060 burst=AXI4_BURST_INCR beats=1 size=8B lock=0 | outstanding=1
# UVM_INFO ../10_tb/axi4_mst/axi4_mst_driver.sv(178) @ 1395000: uvm_test_top.env.axi_agent.drv [axi4_mst_driver] [DRV][AXI][AW] id=0x1 addr=0x1060 burst=AXI4_BURST_INCR beats=1 size=8B
# UVM_INFO ../10_tb/axi4_mst/axi4_mst_driver.sv(204) @ 1395000: uvm_test_top.env.axi_agent.drv [axi4_mst_driver] [DRV][AXI][W] id=0x1 beat=1/1 data=0xbfbebdbcbbbab9b8 strb=0xff last=1
# UVM_INFO ../10_tb/axi4_mst/axi4_mst_monitor.sv(151) @ 1395000: uvm_test_top.env.axi_agent.mon [axi4_mst_monitor] [MON][AXI][REQ] AXI4 AXI4_WRITE id=0x1 addr=0x1060 burst=AXI4_BURST_INCR beats=1 size=8B lock=0
# UVM_INFO ../10_tb/env/predictor.sv(84) @ 1395000: uvm_test_top.env.pred [predictor] [PRED][AXI][IN] AXI4 AXI4_WRITE id=0x1 addr=0x1060 burst=AXI4_BURST_INCR beats=1 size=8B lock=0 | queued=1
# UVM_INFO ../10_tb/env/predictor.sv(155) @ 1395000: uvm_test_top.env.pred [predictor] [PRED][MAP] AXI4 AXI4_WRITE id=0x1 addr=0x1060 burst=AXI4_BURST_INCR beats=1 size=8B lock=0 -> AHB burst=AHB_BURST_SINGLE size=8B crosses_1kb=0
# UVM_INFO ../10_tb/env/predictor.sv(186) @ 1395000: uvm_test_top.env.pred [predictor] [PRED][AHB] beat=1/1 | AHB AHB_WRITE addr=0x1060 trans=AHB_TRANS_NONSEQ burst=AHB_BURST_SINGLE size=8B mastlock=0 resp=AHB_RESP_OKAY waits=0 | wdata=0xbfbebdbcbbbab9b8
# UVM_INFO ../10_tb/ahb_slv/ahb_slv_driver.sv(87) @ 1405000: uvm_test_top.env.ahb_agent.drv [ahb_slv_driver] [DRV][AHB][REQ] AHB_WRITE addr=0x1060 trans=AHB_TRANS_NONSEQ burst=AHB_BURST_SINGLE size=8B
# UVM_INFO ../10_tb/ahb_slv/ahb_slv_driver.sv(201) @ 1415000: uvm_test_top.env.ahb_agent.drv [ahb_slv_driver] [DRV][AHB][RSP] AHB_WRITE addr=0x1060 data=0xbfbebdbcbbbab9b8 resp=AHB_RESP_OKAY ready_delay=0
# UVM_INFO ../10_tb/ahb_slv/ahb_slv_monitor.sv(119) @ 1415000: uvm_test_top.env.ahb_agent.mon [ahb_slv_monitor] [MON][AHB][TR] AHB AHB_WRITE addr=0x1060 trans=AHB_TRANS_NONSEQ burst=AHB_BURST_SINGLE size=8B mastlock=0 resp=AHB_RESP_OKAY waits=0 | data=0xbfbebdbcbbbab9b8
# UVM_INFO ../10_tb/env/scoreboard.sv(519) @ 1415000: uvm_test_top.env.scb [scoreboard] [SCB][AHB][PASS] AHB AHB_WRITE addr=0x1060 trans=AHB_TRANS_NONSEQ burst=AHB_BURST_SINGLE size=8B mastlock=0 resp=AHB_RESP_OKAY waits=0 | data=0xbfbebdbcbbbab9b8 | total=19
# UVM_INFO ../10_tb/axi4_mst/axi4_mst_driver.sv(286) @ 1425000: uvm_test_top.env.axi_agent.drv [axi4_mst_driver] [DRV][AXI][B] id=0x1 resp=AXI4_RESP_OKAY
# UVM_INFO ../10_tb/axi4_mst/axi4_mst_monitor.sv(177) @ 1425000: uvm_test_top.env.axi_agent.mon [axi4_mst_monitor] [MON][AXI][RSP] WRITE id=0x1 resp=AXI4_RESP_OKAY
# UVM_INFO ../10_tb/env/scoreboard.sv(659) @ 1425000: uvm_test_top.env.scb [scoreboard] [SCB][AXI][PASS] AXI4 AXI4_WRITE id=0x1 addr=0x1060 burst=AXI4_BURST_INCR beats=1 size=8B lock=0 | bresp=AXI4_RESP_OKAY | total=19
# UVM_INFO ../10_tb/axi4_mst/axi4_mst_driver.sv(105) @ 1425000: uvm_test_top.env.axi_agent.drv [axi4_mst_driver] [DRV][AXI][REQ] AXI4 AXI4_WRITE id=0x9 addr=0x1066 burst=AXI4_BURST_INCR beats=1 size=1B lock=0 | outstanding=1
# UVM_INFO ../10_tb/axi4_mst/axi4_mst_driver.sv(178) @ 1465000: uvm_test_top.env.axi_agent.drv [axi4_mst_driver] [DRV][AXI][AW] id=0x9 addr=0x1066 burst=AXI4_BURST_INCR beats=1 size=1B
# UVM_INFO ../10_tb/axi4_mst/axi4_mst_driver.sv(204) @ 1465000: uvm_test_top.env.axi_agent.drv [axi4_mst_driver] [DRV][AXI][W] id=0x9 beat=1/1 data=0x6f6e6d6c6b6a6968 strb=0x40 last=1
# UVM_INFO ../10_tb/axi4_mst/axi4_mst_monitor.sv(151) @ 1465000: uvm_test_top.env.axi_agent.mon [axi4_mst_monitor] [MON][AXI][REQ] AXI4 AXI4_WRITE id=0x9 addr=0x1066 burst=AXI4_BURST_INCR beats=1 size=1B lock=0
# UVM_INFO ../10_tb/env/predictor.sv(84) @ 1465000: uvm_test_top.env.pred [predictor] [PRED][AXI][IN] AXI4 AXI4_WRITE id=0x9 addr=0x1066 burst=AXI4_BURST_INCR beats=1 size=1B lock=0 | queued=1
# UVM_INFO ../10_tb/env/predictor.sv(155) @ 1465000: uvm_test_top.env.pred [predictor] [PRED][MAP] AXI4 AXI4_WRITE id=0x9 addr=0x1066 burst=AXI4_BURST_INCR beats=1 size=1B lock=0 -> AHB burst=AHB_BURST_SINGLE size=1B crosses_1kb=0
# UVM_INFO ../10_tb/env/predictor.sv(186) @ 1465000: uvm_test_top.env.pred [predictor] [PRED][AHB] beat=1/1 | AHB AHB_WRITE addr=0x1066 trans=AHB_TRANS_NONSEQ burst=AHB_BURST_SINGLE size=1B mastlock=0 resp=AHB_RESP_OKAY waits=0 | wdata=0x6f6e6d6c6b6a6968
# UVM_INFO ../10_tb/ahb_slv/ahb_slv_driver.sv(87) @ 1475000: uvm_test_top.env.ahb_agent.drv [ahb_slv_driver] [DRV][AHB][REQ] AHB_WRITE addr=0x1066 trans=AHB_TRANS_NONSEQ burst=AHB_BURST_SINGLE size=1B
# UVM_INFO ../10_tb/ahb_slv/ahb_slv_driver.sv(201) @ 1485000: uvm_test_top.env.ahb_agent.drv [ahb_slv_driver] [DRV][AHB][RSP] AHB_WRITE addr=0x1066 data=0x6f6e6d6c6b6a6968 resp=AHB_RESP_OKAY ready_delay=0
# UVM_INFO ../10_tb/ahb_slv/ahb_slv_monitor.sv(119) @ 1485000: uvm_test_top.env.ahb_agent.mon [ahb_slv_monitor] [MON][AHB][TR] AHB AHB_WRITE addr=0x1066 trans=AHB_TRANS_NONSEQ burst=AHB_BURST_SINGLE size=1B mastlock=0 resp=AHB_RESP_OKAY waits=0 | data=0x6f6e6d6c6b6a6968
# UVM_INFO ../10_tb/env/scoreboard.sv(519) @ 1485000: uvm_test_top.env.scb [scoreboard] [SCB][AHB][PASS] AHB AHB_WRITE addr=0x1066 trans=AHB_TRANS_NONSEQ burst=AHB_BURST_SINGLE size=1B mastlock=0 resp=AHB_RESP_OKAY waits=0 | data=0x6f6e6d6c6b6a6968 | total=20
# UVM_INFO ../10_tb/axi4_mst/axi4_mst_driver.sv(286) @ 1495000: uvm_test_top.env.axi_agent.drv [axi4_mst_driver] [DRV][AXI][B] id=0x9 resp=AXI4_RESP_OKAY
# UVM_INFO ../10_tb/axi4_mst/axi4_mst_monitor.sv(177) @ 1495000: uvm_test_top.env.axi_agent.mon [axi4_mst_monitor] [MON][AXI][RSP] WRITE id=0x9 resp=AXI4_RESP_OKAY
# UVM_INFO ../10_tb/env/scoreboard.sv(659) @ 1495000: uvm_test_top.env.scb [scoreboard] [SCB][AXI][PASS] AXI4 AXI4_WRITE id=0x9 addr=0x1066 burst=AXI4_BURST_INCR beats=1 size=1B lock=0 | bresp=AXI4_RESP_OKAY | total=20
# UVM_INFO ../10_tb/axi4_mst/axi4_mst_driver.sv(105) @ 1495000: uvm_test_top.env.axi_agent.drv [axi4_mst_driver] [DRV][AXI][REQ] AXI4 AXI4_READ id=0x1 addr=0x1060 burst=AXI4_BURST_INCR beats=1 size=8B lock=0 | outstanding=1
# UVM_INFO ../10_tb/axi4_mst/axi4_mst_driver.sv(261) @ 1525000: uvm_test_top.env.axi_agent.drv [axi4_mst_driver] [DRV][AXI][AR] id=0x1 addr=0x1060 burst=AXI4_BURST_INCR beats=1 size=8B
# UVM_INFO ../10_tb/axi4_mst/axi4_mst_monitor.sv(211) @ 1525000: uvm_test_top.env.axi_agent.mon [axi4_mst_monitor] [MON][AXI][REQ] AXI4 AXI4_READ id=0x1 addr=0x1060 burst=AXI4_BURST_INCR beats=1 size=8B lock=0
# UVM_INFO ../10_tb/env/predictor.sv(84) @ 1525000: uvm_test_top.env.pred [predictor] [PRED][AXI][IN] AXI4 AXI4_READ id=0x1 addr=0x1060 burst=AXI4_BURST_INCR beats=1 size=8B lock=0 | queued=1
# UVM_INFO ../10_tb/env/predictor.sv(155) @ 1525000: uvm_test_top.env.pred [predictor] [PRED][MAP] AXI4 AXI4_READ id=0x1 addr=0x1060 burst=AXI4_BURST_INCR beats=1 size=8B lock=0 -> AHB burst=AHB_BURST_SINGLE size=8B crosses_1kb=0
# UVM_INFO ../10_tb/env/predictor.sv(192) @ 1525000: uvm_test_top.env.pred [predictor] [PRED][AHB] beat=1/1 | AHB AHB_READ addr=0x1060 trans=AHB_TRANS_NONSEQ burst=AHB_BURST_SINGLE size=8B mastlock=0 resp=AHB_RESP_OKAY waits=0
# UVM_INFO ../10_tb/ahb_slv/ahb_slv_driver.sv(87) @ 1535000: uvm_test_top.env.ahb_agent.drv [ahb_slv_driver] [DRV][AHB][REQ] AHB_READ addr=0x1060 trans=AHB_TRANS_NONSEQ burst=AHB_BURST_SINGLE size=8B
# UVM_INFO ../10_tb/ahb_slv/ahb_slv_driver.sv(201) @ 1545000: uvm_test_top.env.ahb_agent.drv [ahb_slv_driver] [DRV][AHB][RSP] AHB_READ addr=0x1060 data=0xbf6ebdbcbbbab9b8 resp=AHB_RESP_OKAY ready_delay=0
# UVM_INFO ../10_tb/ahb_slv/ahb_slv_monitor.sv(119) @ 1545000: uvm_test_top.env.ahb_agent.mon [ahb_slv_monitor] [MON][AHB][TR] AHB AHB_READ addr=0x1060 trans=AHB_TRANS_NONSEQ burst=AHB_BURST_SINGLE size=8B mastlock=0 resp=AHB_RESP_OKAY waits=0 | data=0xbf6ebdbcbbbab9b8
# UVM_INFO ../10_tb/env/scoreboard.sv(519) @ 1545000: uvm_test_top.env.scb [scoreboard] [SCB][AHB][PASS] AHB AHB_READ addr=0x1060 trans=AHB_TRANS_NONSEQ burst=AHB_BURST_SINGLE size=8B mastlock=0 resp=AHB_RESP_OKAY waits=0 | data=0xbf6ebdbcbbbab9b8 | total=21
# UVM_INFO ../10_tb/axi4_mst/axi4_mst_driver.sv(326) @ 1565000: uvm_test_top.env.axi_agent.drv [axi4_mst_driver] [DRV][AXI][R] id=0x1 beat=1/1 data=0xbf6ebdbcbbbab9b8 resp=AXI4_RESP_OKAY last=1
# UVM_INFO ../10_tb/axi4_mst/axi4_mst_monitor.sv(256) @ 1565000: uvm_test_top.env.axi_agent.mon [axi4_mst_monitor] [MON][AXI][R] id=0x1 beat=1/1 data=0xbf6ebdbcbbbab9b8 resp=AXI4_RESP_OKAY last=1
# UVM_INFO ../10_tb/axi4_mst/axi4_mst_monitor.sv(262) @ 1565000: uvm_test_top.env.axi_agent.mon [axi4_mst_monitor] [MON][AXI][RSP] READ id=0x1 beats=1
# UVM_INFO ../10_tb/env/scoreboard.sv(666) @ 1565000: uvm_test_top.env.scb [scoreboard] [SCB][AXI][PASS] AXI4 AXI4_READ id=0x1 addr=0x1060 burst=AXI4_BURST_INCR beats=1 size=8B lock=0 | read beats=1 | total=21
# UVM_INFO ../10_tb/seq/axi4_mst_seq/axi4_mst_single_wstrb_seq.sv(212) @ 1565000: uvm_test_top.env.axi_agent.sqr@@axi_seq [axi4_mst_single_wstrb_seq] [7] WSTRB_LEGAL AWSIZE_1B_LANE7 addr=0x1077 AWSIZE=1B WSTRB=0x80 expected HSIZE=1B HADDR=0x1077
# UVM_INFO ../10_tb/axi4_mst/axi4_mst_driver.sv(105) @ 1565000: uvm_test_top.env.axi_agent.drv [axi4_mst_driver] [DRV][AXI][REQ] AXI4 AXI4_WRITE id=0xc addr=0x1070 burst=AXI4_BURST_INCR beats=1 size=8B lock=0 | outstanding=1
# UVM_INFO ../10_tb/axi4_mst/axi4_mst_driver.sv(178) @ 1605000: uvm_test_top.env.axi_agent.drv [axi4_mst_driver] [DRV][AXI][AW] id=0xc addr=0x1070 burst=AXI4_BURST_INCR beats=1 size=8B
# UVM_INFO ../10_tb/axi4_mst/axi4_mst_driver.sv(204) @ 1605000: uvm_test_top.env.axi_agent.drv [axi4_mst_driver] [DRV][AXI][W] id=0xc beat=1/1 data=0xc3c2c1c0bfbebdbc strb=0xff last=1
# UVM_INFO ../10_tb/axi4_mst/axi4_mst_monitor.sv(151) @ 1605000: uvm_test_top.env.axi_agent.mon [axi4_mst_monitor] [MON][AXI][REQ] AXI4 AXI4_WRITE id=0xc addr=0x1070 burst=AXI4_BURST_INCR beats=1 size=8B lock=0
# UVM_INFO ../10_tb/env/predictor.sv(84) @ 1605000: uvm_test_top.env.pred [predictor] [PRED][AXI][IN] AXI4 AXI4_WRITE id=0xc addr=0x1070 burst=AXI4_BURST_INCR beats=1 size=8B lock=0 | queued=1
# UVM_INFO ../10_tb/env/predictor.sv(155) @ 1605000: uvm_test_top.env.pred [predictor] [PRED][MAP] AXI4 AXI4_WRITE id=0xc addr=0x1070 burst=AXI4_BURST_INCR beats=1 size=8B lock=0 -> AHB burst=AHB_BURST_SINGLE size=8B crosses_1kb=0
# UVM_INFO ../10_tb/env/predictor.sv(186) @ 1605000: uvm_test_top.env.pred [predictor] [PRED][AHB] beat=1/1 | AHB AHB_WRITE addr=0x1070 trans=AHB_TRANS_NONSEQ burst=AHB_BURST_SINGLE size=8B mastlock=0 resp=AHB_RESP_OKAY waits=0 | wdata=0xc3c2c1c0bfbebdbc
# UVM_INFO ../10_tb/ahb_slv/ahb_slv_driver.sv(87) @ 1615000: uvm_test_top.env.ahb_agent.drv [ahb_slv_driver] [DRV][AHB][REQ] AHB_WRITE addr=0x1070 trans=AHB_TRANS_NONSEQ burst=AHB_BURST_SINGLE size=8B
# UVM_INFO ../10_tb/ahb_slv/ahb_slv_driver.sv(201) @ 1625000: uvm_test_top.env.ahb_agent.drv [ahb_slv_driver] [DRV][AHB][RSP] AHB_WRITE addr=0x1070 data=0xc3c2c1c0bfbebdbc resp=AHB_RESP_OKAY ready_delay=0
# UVM_INFO ../10_tb/ahb_slv/ahb_slv_monitor.sv(119) @ 1625000: uvm_test_top.env.ahb_agent.mon [ahb_slv_monitor] [MON][AHB][TR] AHB AHB_WRITE addr=0x1070 trans=AHB_TRANS_NONSEQ burst=AHB_BURST_SINGLE size=8B mastlock=0 resp=AHB_RESP_OKAY waits=0 | data=0xc3c2c1c0bfbebdbc
# UVM_INFO ../10_tb/env/scoreboard.sv(519) @ 1625000: uvm_test_top.env.scb [scoreboard] [SCB][AHB][PASS] AHB AHB_WRITE addr=0x1070 trans=AHB_TRANS_NONSEQ burst=AHB_BURST_SINGLE size=8B mastlock=0 resp=AHB_RESP_OKAY waits=0 | data=0xc3c2c1c0bfbebdbc | total=22
# UVM_INFO ../10_tb/axi4_mst/axi4_mst_driver.sv(286) @ 1635000: uvm_test_top.env.axi_agent.drv [axi4_mst_driver] [DRV][AXI][B] id=0xc resp=AXI4_RESP_OKAY
# UVM_INFO ../10_tb/axi4_mst/axi4_mst_monitor.sv(177) @ 1635000: uvm_test_top.env.axi_agent.mon [axi4_mst_monitor] [MON][AXI][RSP] WRITE id=0xc resp=AXI4_RESP_OKAY
# UVM_INFO ../10_tb/env/scoreboard.sv(659) @ 1635000: uvm_test_top.env.scb [scoreboard] [SCB][AXI][PASS] AXI4 AXI4_WRITE id=0xc addr=0x1070 burst=AXI4_BURST_INCR beats=1 size=8B lock=0 | bresp=AXI4_RESP_OKAY | total=22
# UVM_INFO ../10_tb/axi4_mst/axi4_mst_driver.sv(105) @ 1635000: uvm_test_top.env.axi_agent.drv [axi4_mst_driver] [DRV][AXI][REQ] AXI4 AXI4_WRITE id=0x8 addr=0x1077 burst=AXI4_BURST_INCR beats=1 size=1B lock=0 | outstanding=1
# UVM_INFO ../10_tb/axi4_mst/axi4_mst_driver.sv(178) @ 1675000: uvm_test_top.env.axi_agent.drv [axi4_mst_driver] [DRV][AXI][AW] id=0x8 addr=0x1077 burst=AXI4_BURST_INCR beats=1 size=1B
# UVM_INFO ../10_tb/axi4_mst/axi4_mst_driver.sv(204) @ 1675000: uvm_test_top.env.axi_agent.drv [axi4_mst_driver] [DRV][AXI][W] id=0x8 beat=1/1 data=0x737271706f6e6d6c strb=0x80 last=1
# UVM_INFO ../10_tb/axi4_mst/axi4_mst_monitor.sv(151) @ 1675000: uvm_test_top.env.axi_agent.mon [axi4_mst_monitor] [MON][AXI][REQ] AXI4 AXI4_WRITE id=0x8 addr=0x1077 burst=AXI4_BURST_INCR beats=1 size=1B lock=0
# UVM_INFO ../10_tb/env/predictor.sv(84) @ 1675000: uvm_test_top.env.pred [predictor] [PRED][AXI][IN] AXI4 AXI4_WRITE id=0x8 addr=0x1077 burst=AXI4_BURST_INCR beats=1 size=1B lock=0 | queued=1
# UVM_INFO ../10_tb/env/predictor.sv(155) @ 1675000: uvm_test_top.env.pred [predictor] [PRED][MAP] AXI4 AXI4_WRITE id=0x8 addr=0x1077 burst=AXI4_BURST_INCR beats=1 size=1B lock=0 -> AHB burst=AHB_BURST_SINGLE size=1B crosses_1kb=0
# UVM_INFO ../10_tb/env/predictor.sv(186) @ 1675000: uvm_test_top.env.pred [predictor] [PRED][AHB] beat=1/1 | AHB AHB_WRITE addr=0x1077 trans=AHB_TRANS_NONSEQ burst=AHB_BURST_SINGLE size=1B mastlock=0 resp=AHB_RESP_OKAY waits=0 | wdata=0x737271706f6e6d6c
# UVM_INFO ../10_tb/ahb_slv/ahb_slv_driver.sv(87) @ 1685000: uvm_test_top.env.ahb_agent.drv [ahb_slv_driver] [DRV][AHB][REQ] AHB_WRITE addr=0x1077 trans=AHB_TRANS_NONSEQ burst=AHB_BURST_SINGLE size=1B
# UVM_INFO ../10_tb/ahb_slv/ahb_slv_driver.sv(201) @ 1695000: uvm_test_top.env.ahb_agent.drv [ahb_slv_driver] [DRV][AHB][RSP] AHB_WRITE addr=0x1077 data=0x737271706f6e6d6c resp=AHB_RESP_OKAY ready_delay=0
# UVM_INFO ../10_tb/ahb_slv/ahb_slv_monitor.sv(119) @ 1695000: uvm_test_top.env.ahb_agent.mon [ahb_slv_monitor] [MON][AHB][TR] AHB AHB_WRITE addr=0x1077 trans=AHB_TRANS_NONSEQ burst=AHB_BURST_SINGLE size=1B mastlock=0 resp=AHB_RESP_OKAY waits=0 | data=0x737271706f6e6d6c
# UVM_INFO ../10_tb/env/scoreboard.sv(519) @ 1695000: uvm_test_top.env.scb [scoreboard] [SCB][AHB][PASS] AHB AHB_WRITE addr=0x1077 trans=AHB_TRANS_NONSEQ burst=AHB_BURST_SINGLE size=1B mastlock=0 resp=AHB_RESP_OKAY waits=0 | data=0x737271706f6e6d6c | total=23
# UVM_INFO ../10_tb/axi4_mst/axi4_mst_driver.sv(286) @ 1705000: uvm_test_top.env.axi_agent.drv [axi4_mst_driver] [DRV][AXI][B] id=0x8 resp=AXI4_RESP_OKAY
# UVM_INFO ../10_tb/axi4_mst/axi4_mst_monitor.sv(177) @ 1705000: uvm_test_top.env.axi_agent.mon [axi4_mst_monitor] [MON][AXI][RSP] WRITE id=0x8 resp=AXI4_RESP_OKAY
# UVM_INFO ../10_tb/env/scoreboard.sv(659) @ 1705000: uvm_test_top.env.scb [scoreboard] [SCB][AXI][PASS] AXI4 AXI4_WRITE id=0x8 addr=0x1077 burst=AXI4_BURST_INCR beats=1 size=1B lock=0 | bresp=AXI4_RESP_OKAY | total=23
# UVM_INFO ../10_tb/axi4_mst/axi4_mst_driver.sv(105) @ 1705000: uvm_test_top.env.axi_agent.drv [axi4_mst_driver] [DRV][AXI][REQ] AXI4 AXI4_READ id=0xf addr=0x1070 burst=AXI4_BURST_INCR beats=1 size=8B lock=0 | outstanding=1
# UVM_INFO ../10_tb/axi4_mst/axi4_mst_driver.sv(261) @ 1735000: uvm_test_top.env.axi_agent.drv [axi4_mst_driver] [DRV][AXI][AR] id=0xf addr=0x1070 burst=AXI4_BURST_INCR beats=1 size=8B
# UVM_INFO ../10_tb/axi4_mst/axi4_mst_monitor.sv(211) @ 1735000: uvm_test_top.env.axi_agent.mon [axi4_mst_monitor] [MON][AXI][REQ] AXI4 AXI4_READ id=0xf addr=0x1070 burst=AXI4_BURST_INCR beats=1 size=8B lock=0
# UVM_INFO ../10_tb/env/predictor.sv(84) @ 1735000: uvm_test_top.env.pred [predictor] [PRED][AXI][IN] AXI4 AXI4_READ id=0xf addr=0x1070 burst=AXI4_BURST_INCR beats=1 size=8B lock=0 | queued=1
# UVM_INFO ../10_tb/env/predictor.sv(155) @ 1735000: uvm_test_top.env.pred [predictor] [PRED][MAP] AXI4 AXI4_READ id=0xf addr=0x1070 burst=AXI4_BURST_INCR beats=1 size=8B lock=0 -> AHB burst=AHB_BURST_SINGLE size=8B crosses_1kb=0
# UVM_INFO ../10_tb/env/predictor.sv(192) @ 1735000: uvm_test_top.env.pred [predictor] [PRED][AHB] beat=1/1 | AHB AHB_READ addr=0x1070 trans=AHB_TRANS_NONSEQ burst=AHB_BURST_SINGLE size=8B mastlock=0 resp=AHB_RESP_OKAY waits=0
# UVM_INFO ../10_tb/ahb_slv/ahb_slv_driver.sv(87) @ 1745000: uvm_test_top.env.ahb_agent.drv [ahb_slv_driver] [DRV][AHB][REQ] AHB_READ addr=0x1070 trans=AHB_TRANS_NONSEQ burst=AHB_BURST_SINGLE size=8B
# UVM_INFO ../10_tb/ahb_slv/ahb_slv_driver.sv(201) @ 1755000: uvm_test_top.env.ahb_agent.drv [ahb_slv_driver] [DRV][AHB][RSP] AHB_READ addr=0x1070 data=0x73c2c1c0bfbebdbc resp=AHB_RESP_OKAY ready_delay=0
# UVM_INFO ../10_tb/ahb_slv/ahb_slv_monitor.sv(119) @ 1755000: uvm_test_top.env.ahb_agent.mon [ahb_slv_monitor] [MON][AHB][TR] AHB AHB_READ addr=0x1070 trans=AHB_TRANS_NONSEQ burst=AHB_BURST_SINGLE size=8B mastlock=0 resp=AHB_RESP_OKAY waits=0 | data=0x73c2c1c0bfbebdbc
# UVM_INFO ../10_tb/env/scoreboard.sv(519) @ 1755000: uvm_test_top.env.scb [scoreboard] [SCB][AHB][PASS] AHB AHB_READ addr=0x1070 trans=AHB_TRANS_NONSEQ burst=AHB_BURST_SINGLE size=8B mastlock=0 resp=AHB_RESP_OKAY waits=0 | data=0x73c2c1c0bfbebdbc | total=24
# UVM_INFO ../10_tb/axi4_mst/axi4_mst_driver.sv(326) @ 1775000: uvm_test_top.env.axi_agent.drv [axi4_mst_driver] [DRV][AXI][R] id=0xf beat=1/1 data=0x73c2c1c0bfbebdbc resp=AXI4_RESP_OKAY last=1
# UVM_INFO ../10_tb/axi4_mst/axi4_mst_monitor.sv(256) @ 1775000: uvm_test_top.env.axi_agent.mon [axi4_mst_monitor] [MON][AXI][R] id=0xf beat=1/1 data=0x73c2c1c0bfbebdbc resp=AXI4_RESP_OKAY last=1
# UVM_INFO ../10_tb/axi4_mst/axi4_mst_monitor.sv(262) @ 1775000: uvm_test_top.env.axi_agent.mon [axi4_mst_monitor] [MON][AXI][RSP] READ id=0xf beats=1
# UVM_INFO ../10_tb/env/scoreboard.sv(666) @ 1775000: uvm_test_top.env.scb [scoreboard] [SCB][AXI][PASS] AXI4 AXI4_READ id=0xf addr=0x1070 burst=AXI4_BURST_INCR beats=1 size=8B lock=0 | read beats=1 | total=24
# UVM_INFO ../10_tb/seq/axi4_mst_seq/axi4_mst_single_wstrb_seq.sv(212) @ 1775000: uvm_test_top.env.axi_agent.sqr@@axi_seq [axi4_mst_single_wstrb_seq] [8] WSTRB_FALLBACK AWSIZE_1B_LANE7_WSTRB_0x0 addr=0x1087 AWSIZE=1B WSTRB=0x0 expected HSIZE=1B HADDR=0x1087
# UVM_INFO ../10_tb/axi4_mst/axi4_mst_driver.sv(105) @ 1775000: uvm_test_top.env.axi_agent.drv [axi4_mst_driver] [DRV][AXI][REQ] AXI4 AXI4_WRITE id=0x5 addr=0x1080 burst=AXI4_BURST_INCR beats=1 size=8B lock=0 | outstanding=1
# UVM_INFO ../10_tb/axi4_mst/axi4_mst_driver.sv(178) @ 1815000: uvm_test_top.env.axi_agent.drv [axi4_mst_driver] [DRV][AXI][AW] id=0x5 addr=0x1080 burst=AXI4_BURST_INCR beats=1 size=8B
# UVM_INFO ../10_tb/axi4_mst/axi4_mst_driver.sv(204) @ 1815000: uvm_test_top.env.axi_agent.drv [axi4_mst_driver] [DRV][AXI][W] id=0x5 beat=1/1 data=0xc7c6c5c4c3c2c1c0 strb=0xff last=1
# UVM_INFO ../10_tb/axi4_mst/axi4_mst_monitor.sv(151) @ 1815000: uvm_test_top.env.axi_agent.mon [axi4_mst_monitor] [MON][AXI][REQ] AXI4 AXI4_WRITE id=0x5 addr=0x1080 burst=AXI4_BURST_INCR beats=1 size=8B lock=0
# UVM_INFO ../10_tb/env/predictor.sv(84) @ 1815000: uvm_test_top.env.pred [predictor] [PRED][AXI][IN] AXI4 AXI4_WRITE id=0x5 addr=0x1080 burst=AXI4_BURST_INCR beats=1 size=8B lock=0 | queued=1
# UVM_INFO ../10_tb/env/predictor.sv(155) @ 1815000: uvm_test_top.env.pred [predictor] [PRED][MAP] AXI4 AXI4_WRITE id=0x5 addr=0x1080 burst=AXI4_BURST_INCR beats=1 size=8B lock=0 -> AHB burst=AHB_BURST_SINGLE size=8B crosses_1kb=0
# UVM_INFO ../10_tb/env/predictor.sv(186) @ 1815000: uvm_test_top.env.pred [predictor] [PRED][AHB] beat=1/1 | AHB AHB_WRITE addr=0x1080 trans=AHB_TRANS_NONSEQ burst=AHB_BURST_SINGLE size=8B mastlock=0 resp=AHB_RESP_OKAY waits=0 | wdata=0xc7c6c5c4c3c2c1c0
# UVM_INFO ../10_tb/ahb_slv/ahb_slv_driver.sv(87) @ 1825000: uvm_test_top.env.ahb_agent.drv [ahb_slv_driver] [DRV][AHB][REQ] AHB_WRITE addr=0x1080 trans=AHB_TRANS_NONSEQ burst=AHB_BURST_SINGLE size=8B
# UVM_INFO ../10_tb/ahb_slv/ahb_slv_driver.sv(201) @ 1835000: uvm_test_top.env.ahb_agent.drv [ahb_slv_driver] [DRV][AHB][RSP] AHB_WRITE addr=0x1080 data=0xc7c6c5c4c3c2c1c0 resp=AHB_RESP_OKAY ready_delay=0
# UVM_INFO ../10_tb/ahb_slv/ahb_slv_monitor.sv(119) @ 1835000: uvm_test_top.env.ahb_agent.mon [ahb_slv_monitor] [MON][AHB][TR] AHB AHB_WRITE addr=0x1080 trans=AHB_TRANS_NONSEQ burst=AHB_BURST_SINGLE size=8B mastlock=0 resp=AHB_RESP_OKAY waits=0 | data=0xc7c6c5c4c3c2c1c0
# UVM_INFO ../10_tb/env/scoreboard.sv(519) @ 1835000: uvm_test_top.env.scb [scoreboard] [SCB][AHB][PASS] AHB AHB_WRITE addr=0x1080 trans=AHB_TRANS_NONSEQ burst=AHB_BURST_SINGLE size=8B mastlock=0 resp=AHB_RESP_OKAY waits=0 | data=0xc7c6c5c4c3c2c1c0 | total=25
# UVM_INFO ../10_tb/axi4_mst/axi4_mst_driver.sv(286) @ 1845000: uvm_test_top.env.axi_agent.drv [axi4_mst_driver] [DRV][AXI][B] id=0x5 resp=AXI4_RESP_OKAY
# UVM_INFO ../10_tb/axi4_mst/axi4_mst_monitor.sv(177) @ 1845000: uvm_test_top.env.axi_agent.mon [axi4_mst_monitor] [MON][AXI][RSP] WRITE id=0x5 resp=AXI4_RESP_OKAY
# UVM_INFO ../10_tb/env/scoreboard.sv(659) @ 1845000: uvm_test_top.env.scb [scoreboard] [SCB][AXI][PASS] AXI4 AXI4_WRITE id=0x5 addr=0x1080 burst=AXI4_BURST_INCR beats=1 size=8B lock=0 | bresp=AXI4_RESP_OKAY | total=25
# UVM_INFO ../10_tb/axi4_mst/axi4_mst_driver.sv(105) @ 1845000: uvm_test_top.env.axi_agent.drv [axi4_mst_driver] [DRV][AXI][REQ] AXI4 AXI4_WRITE id=0x3 addr=0x1087 burst=AXI4_BURST_INCR beats=1 size=1B lock=0 | outstanding=1
# UVM_INFO ../10_tb/axi4_mst/axi4_mst_driver.sv(178) @ 1885000: uvm_test_top.env.axi_agent.drv [axi4_mst_driver] [DRV][AXI][AW] id=0x3 addr=0x1087 burst=AXI4_BURST_INCR beats=1 size=1B
# UVM_INFO ../10_tb/axi4_mst/axi4_mst_driver.sv(204) @ 1885000: uvm_test_top.env.axi_agent.drv [axi4_mst_driver] [DRV][AXI][W] id=0x3 beat=1/1 data=0x7776757473727170 strb=0x0 last=1
# UVM_INFO ../10_tb/axi4_mst/axi4_mst_monitor.sv(151) @ 1885000: uvm_test_top.env.axi_agent.mon [axi4_mst_monitor] [MON][AXI][REQ] AXI4 AXI4_WRITE id=0x3 addr=0x1087 burst=AXI4_BURST_INCR beats=1 size=1B lock=0
# UVM_INFO ../10_tb/env/predictor.sv(84) @ 1885000: uvm_test_top.env.pred [predictor] [PRED][AXI][IN] AXI4 AXI4_WRITE id=0x3 addr=0x1087 burst=AXI4_BURST_INCR beats=1 size=1B lock=0 | queued=1
# UVM_INFO ../10_tb/env/predictor.sv(155) @ 1885000: uvm_test_top.env.pred [predictor] [PRED][MAP] AXI4 AXI4_WRITE id=0x3 addr=0x1087 burst=AXI4_BURST_INCR beats=1 size=1B lock=0 -> AHB burst=AHB_BURST_SINGLE size=1B crosses_1kb=0
# UVM_INFO ../10_tb/env/predictor.sv(186) @ 1885000: uvm_test_top.env.pred [predictor] [PRED][AHB] beat=1/1 | AHB AHB_WRITE addr=0x1087 trans=AHB_TRANS_NONSEQ burst=AHB_BURST_SINGLE size=1B mastlock=0 resp=AHB_RESP_OKAY waits=0 | wdata=0x7776757473727170
# UVM_INFO ../10_tb/ahb_slv/ahb_slv_driver.sv(87) @ 1895000: uvm_test_top.env.ahb_agent.drv [ahb_slv_driver] [DRV][AHB][REQ] AHB_WRITE addr=0x1087 trans=AHB_TRANS_NONSEQ burst=AHB_BURST_SINGLE size=1B
# UVM_INFO ../10_tb/ahb_slv/ahb_slv_driver.sv(201) @ 1905000: uvm_test_top.env.ahb_agent.drv [ahb_slv_driver] [DRV][AHB][RSP] AHB_WRITE addr=0x1087 data=0x7776757473727170 resp=AHB_RESP_OKAY ready_delay=0
# UVM_INFO ../10_tb/ahb_slv/ahb_slv_monitor.sv(119) @ 1905000: uvm_test_top.env.ahb_agent.mon [ahb_slv_monitor] [MON][AHB][TR] AHB AHB_WRITE addr=0x1087 trans=AHB_TRANS_NONSEQ burst=AHB_BURST_SINGLE size=1B mastlock=0 resp=AHB_RESP_OKAY waits=0 | data=0x7776757473727170
# UVM_INFO ../10_tb/env/scoreboard.sv(519) @ 1905000: uvm_test_top.env.scb [scoreboard] [SCB][AHB][PASS] AHB AHB_WRITE addr=0x1087 trans=AHB_TRANS_NONSEQ burst=AHB_BURST_SINGLE size=1B mastlock=0 resp=AHB_RESP_OKAY waits=0 | data=0x7776757473727170 | total=26
# UVM_INFO ../10_tb/axi4_mst/axi4_mst_driver.sv(286) @ 1915000: uvm_test_top.env.axi_agent.drv [axi4_mst_driver] [DRV][AXI][B] id=0x3 resp=AXI4_RESP_OKAY
# UVM_INFO ../10_tb/axi4_mst/axi4_mst_monitor.sv(177) @ 1915000: uvm_test_top.env.axi_agent.mon [axi4_mst_monitor] [MON][AXI][RSP] WRITE id=0x3 resp=AXI4_RESP_OKAY
# UVM_INFO ../10_tb/env/scoreboard.sv(659) @ 1915000: uvm_test_top.env.scb [scoreboard] [SCB][AXI][PASS] AXI4 AXI4_WRITE id=0x3 addr=0x1087 burst=AXI4_BURST_INCR beats=1 size=1B lock=0 | bresp=AXI4_RESP_OKAY | total=26
# UVM_INFO ../10_tb/axi4_mst/axi4_mst_driver.sv(105) @ 1915000: uvm_test_top.env.axi_agent.drv [axi4_mst_driver] [DRV][AXI][REQ] AXI4 AXI4_READ id=0x7 addr=0x1080 burst=AXI4_BURST_INCR beats=1 size=8B lock=0 | outstanding=1
# UVM_INFO ../10_tb/axi4_mst/axi4_mst_driver.sv(261) @ 1945000: uvm_test_top.env.axi_agent.drv [axi4_mst_driver] [DRV][AXI][AR] id=0x7 addr=0x1080 burst=AXI4_BURST_INCR beats=1 size=8B
# UVM_INFO ../10_tb/axi4_mst/axi4_mst_monitor.sv(211) @ 1945000: uvm_test_top.env.axi_agent.mon [axi4_mst_monitor] [MON][AXI][REQ] AXI4 AXI4_READ id=0x7 addr=0x1080 burst=AXI4_BURST_INCR beats=1 size=8B lock=0
# UVM_INFO ../10_tb/env/predictor.sv(84) @ 1945000: uvm_test_top.env.pred [predictor] [PRED][AXI][IN] AXI4 AXI4_READ id=0x7 addr=0x1080 burst=AXI4_BURST_INCR beats=1 size=8B lock=0 | queued=1
# UVM_INFO ../10_tb/env/predictor.sv(155) @ 1945000: uvm_test_top.env.pred [predictor] [PRED][MAP] AXI4 AXI4_READ id=0x7 addr=0x1080 burst=AXI4_BURST_INCR beats=1 size=8B lock=0 -> AHB burst=AHB_BURST_SINGLE size=8B crosses_1kb=0
# UVM_INFO ../10_tb/env/predictor.sv(192) @ 1945000: uvm_test_top.env.pred [predictor] [PRED][AHB] beat=1/1 | AHB AHB_READ addr=0x1080 trans=AHB_TRANS_NONSEQ burst=AHB_BURST_SINGLE size=8B mastlock=0 resp=AHB_RESP_OKAY waits=0
# UVM_INFO ../10_tb/ahb_slv/ahb_slv_driver.sv(87) @ 1955000: uvm_test_top.env.ahb_agent.drv [ahb_slv_driver] [DRV][AHB][REQ] AHB_READ addr=0x1080 trans=AHB_TRANS_NONSEQ burst=AHB_BURST_SINGLE size=8B
# UVM_INFO ../10_tb/ahb_slv/ahb_slv_driver.sv(201) @ 1965000: uvm_test_top.env.ahb_agent.drv [ahb_slv_driver] [DRV][AHB][RSP] AHB_READ addr=0x1080 data=0x77c6c5c4c3c2c1c0 resp=AHB_RESP_OKAY ready_delay=0
# UVM_INFO ../10_tb/ahb_slv/ahb_slv_monitor.sv(119) @ 1965000: uvm_test_top.env.ahb_agent.mon [ahb_slv_monitor] [MON][AHB][TR] AHB AHB_READ addr=0x1080 trans=AHB_TRANS_NONSEQ burst=AHB_BURST_SINGLE size=8B mastlock=0 resp=AHB_RESP_OKAY waits=0 | data=0x77c6c5c4c3c2c1c0
# UVM_INFO ../10_tb/env/scoreboard.sv(519) @ 1965000: uvm_test_top.env.scb [scoreboard] [SCB][AHB][PASS] AHB AHB_READ addr=0x1080 trans=AHB_TRANS_NONSEQ burst=AHB_BURST_SINGLE size=8B mastlock=0 resp=AHB_RESP_OKAY waits=0 | data=0x77c6c5c4c3c2c1c0 | total=27
# UVM_INFO ../10_tb/axi4_mst/axi4_mst_driver.sv(326) @ 1985000: uvm_test_top.env.axi_agent.drv [axi4_mst_driver] [DRV][AXI][R] id=0x7 beat=1/1 data=0x77c6c5c4c3c2c1c0 resp=AXI4_RESP_OKAY last=1
# UVM_INFO ../10_tb/axi4_mst/axi4_mst_monitor.sv(256) @ 1985000: uvm_test_top.env.axi_agent.mon [axi4_mst_monitor] [MON][AXI][R] id=0x7 beat=1/1 data=0x77c6c5c4c3c2c1c0 resp=AXI4_RESP_OKAY last=1
# UVM_INFO ../10_tb/axi4_mst/axi4_mst_monitor.sv(262) @ 1985000: uvm_test_top.env.axi_agent.mon [axi4_mst_monitor] [MON][AXI][RSP] READ id=0x7 beats=1
# UVM_INFO ../10_tb/env/scoreboard.sv(666) @ 1985000: uvm_test_top.env.scb [scoreboard] [SCB][AXI][PASS] AXI4 AXI4_READ id=0x7 addr=0x1080 burst=AXI4_BURST_INCR beats=1 size=8B lock=0 | read beats=1 | total=27
# UVM_INFO ../10_tb/seq/axi4_mst_seq/axi4_mst_single_wstrb_seq.sv(278) @ 1985000: uvm_test_top.env.axi_agent.sqr@@axi_seq [axi4_mst_single_wstrb_seq] [NEG] AWSIZE_1B_LANE7_WSTRB_0x0: bridge writes lanes 0x80, AXI WSTRB selects 0x0 (AXI-correct word 0xc7c6c5c4c3c2c1c0, bridge word 0x77c6c5c4c3c2c1c0)
# UVM_INFO ../10_tb/seq/axi4_mst_seq/axi4_mst_single_wstrb_seq.sv(212) @ 1985000: uvm_test_top.env.axi_agent.sqr@@axi_seq [axi4_mst_single_wstrb_seq] [9] WSTRB_LEGAL AWSIZE_2B_LANE0 addr=0x1090 AWSIZE=2B WSTRB=0x3 expected HSIZE=2B HADDR=0x1090
# UVM_INFO ../10_tb/axi4_mst/axi4_mst_driver.sv(105) @ 1985000: uvm_test_top.env.axi_agent.drv [axi4_mst_driver] [DRV][AXI][REQ] AXI4 AXI4_WRITE id=0x9 addr=0x1090 burst=AXI4_BURST_INCR beats=1 size=8B lock=0 | outstanding=1
# UVM_INFO ../10_tb/axi4_mst/axi4_mst_driver.sv(178) @ 2025000: uvm_test_top.env.axi_agent.drv [axi4_mst_driver] [DRV][AXI][AW] id=0x9 addr=0x1090 burst=AXI4_BURST_INCR beats=1 size=8B
# UVM_INFO ../10_tb/axi4_mst/axi4_mst_driver.sv(204) @ 2025000: uvm_test_top.env.axi_agent.drv [axi4_mst_driver] [DRV][AXI][W] id=0x9 beat=1/1 data=0xcbcac9c8c7c6c5c4 strb=0xff last=1
# UVM_INFO ../10_tb/axi4_mst/axi4_mst_monitor.sv(151) @ 2025000: uvm_test_top.env.axi_agent.mon [axi4_mst_monitor] [MON][AXI][REQ] AXI4 AXI4_WRITE id=0x9 addr=0x1090 burst=AXI4_BURST_INCR beats=1 size=8B lock=0
# UVM_INFO ../10_tb/env/predictor.sv(84) @ 2025000: uvm_test_top.env.pred [predictor] [PRED][AXI][IN] AXI4 AXI4_WRITE id=0x9 addr=0x1090 burst=AXI4_BURST_INCR beats=1 size=8B lock=0 | queued=1
# UVM_INFO ../10_tb/env/predictor.sv(155) @ 2025000: uvm_test_top.env.pred [predictor] [PRED][MAP] AXI4 AXI4_WRITE id=0x9 addr=0x1090 burst=AXI4_BURST_INCR beats=1 size=8B lock=0 -> AHB burst=AHB_BURST_SINGLE size=8B crosses_1kb=0
# UVM_INFO ../10_tb/env/predictor.sv(186) @ 2025000: uvm_test_top.env.pred [predictor] [PRED][AHB] beat=1/1 | AHB AHB_WRITE addr=0x1090 trans=AHB_TRANS_NONSEQ burst=AHB_BURST_SINGLE size=8B mastlock=0 resp=AHB_RESP_OKAY waits=0 | wdata=0xcbcac9c8c7c6c5c4
# UVM_INFO ../10_tb/ahb_slv/ahb_slv_driver.sv(87) @ 2035000: uvm_test_top.env.ahb_agent.drv [ahb_slv_driver] [DRV][AHB][REQ] AHB_WRITE addr=0x1090 trans=AHB_TRANS_NONSEQ burst=AHB_BURST_SINGLE size=8B
# UVM_INFO ../10_tb/ahb_slv/ahb_slv_driver.sv(201) @ 2045000: uvm_test_top.env.ahb_agent.drv [ahb_slv_driver] [DRV][AHB][RSP] AHB_WRITE addr=0x1090 data=0xcbcac9c8c7c6c5c4 resp=AHB_RESP_OKAY ready_delay=0
# UVM_INFO ../10_tb/ahb_slv/ahb_slv_monitor.sv(119) @ 2045000: uvm_test_top.env.ahb_agent.mon [ahb_slv_monitor] [MON][AHB][TR] AHB AHB_WRITE addr=0x1090 trans=AHB_TRANS_NONSEQ burst=AHB_BURST_SINGLE size=8B mastlock=0 resp=AHB_RESP_OKAY waits=0 | data=0xcbcac9c8c7c6c5c4
# UVM_INFO ../10_tb/env/scoreboard.sv(519) @ 2045000: uvm_test_top.env.scb [scoreboard] [SCB][AHB][PASS] AHB AHB_WRITE addr=0x1090 trans=AHB_TRANS_NONSEQ burst=AHB_BURST_SINGLE size=8B mastlock=0 resp=AHB_RESP_OKAY waits=0 | data=0xcbcac9c8c7c6c5c4 | total=28
# UVM_INFO ../10_tb/axi4_mst/axi4_mst_driver.sv(286) @ 2055000: uvm_test_top.env.axi_agent.drv [axi4_mst_driver] [DRV][AXI][B] id=0x9 resp=AXI4_RESP_OKAY
# UVM_INFO ../10_tb/axi4_mst/axi4_mst_monitor.sv(177) @ 2055000: uvm_test_top.env.axi_agent.mon [axi4_mst_monitor] [MON][AXI][RSP] WRITE id=0x9 resp=AXI4_RESP_OKAY
# UVM_INFO ../10_tb/env/scoreboard.sv(659) @ 2055000: uvm_test_top.env.scb [scoreboard] [SCB][AXI][PASS] AXI4 AXI4_WRITE id=0x9 addr=0x1090 burst=AXI4_BURST_INCR beats=1 size=8B lock=0 | bresp=AXI4_RESP_OKAY | total=28
# UVM_INFO ../10_tb/axi4_mst/axi4_mst_driver.sv(105) @ 2055000: uvm_test_top.env.axi_agent.drv [axi4_mst_driver] [DRV][AXI][REQ] AXI4 AXI4_WRITE id=0x4 addr=0x1090 burst=AXI4_BURST_INCR beats=1 size=2B lock=0 | outstanding=1
# UVM_INFO ../10_tb/axi4_mst/axi4_mst_driver.sv(178) @ 2095000: uvm_test_top.env.axi_agent.drv [axi4_mst_driver] [DRV][AXI][AW] id=0x4 addr=0x1090 burst=AXI4_BURST_INCR beats=1 size=2B
# UVM_INFO ../10_tb/axi4_mst/axi4_mst_driver.sv(204) @ 2095000: uvm_test_top.env.axi_agent.drv [axi4_mst_driver] [DRV][AXI][W] id=0x4 beat=1/1 data=0x7b7a797877767574 strb=0x3 last=1
# UVM_INFO ../10_tb/axi4_mst/axi4_mst_monitor.sv(151) @ 2095000: uvm_test_top.env.axi_agent.mon [axi4_mst_monitor] [MON][AXI][REQ] AXI4 AXI4_WRITE id=0x4 addr=0x1090 burst=AXI4_BURST_INCR beats=1 size=2B lock=0
# UVM_INFO ../10_tb/env/predictor.sv(84) @ 2095000: uvm_test_top.env.pred [predictor] [PRED][AXI][IN] AXI4 AXI4_WRITE id=0x4 addr=0x1090 burst=AXI4_BURST_INCR beats=1 size=2B lock=0 | queued=1
# UVM_INFO ../10_tb/env/predictor.sv(155) @ 2095000: uvm_test_top.env.pred [predictor] [PRED][MAP] AXI4 AXI4_WRITE id=0x4 addr=0x1090 burst=AXI4_BURST_INCR beats=1 size=2B lock=0 -> AHB burst=AHB_BURST_SINGLE size=2B crosses_1kb=0
# UVM_INFO ../10_tb/env/predictor.sv(186) @ 2095000: uvm_test_top.env.pred [predictor] [PRED][AHB] beat=1/1 | AHB AHB_WRITE addr=0x1090 trans=AHB_TRANS_NONSEQ burst=AHB_BURST_SINGLE size=2B mastlock=0 resp=AHB_RESP_OKAY waits=0 | wdata=0x7b7a797877767574
# UVM_INFO ../10_tb/ahb_slv/ahb_slv_driver.sv(87) @ 2105000: uvm_test_top.env.ahb_agent.drv [ahb_slv_driver] [DRV][AHB][REQ] AHB_WRITE addr=0x1090 trans=AHB_TRANS_NONSEQ burst=AHB_BURST_SINGLE size=2B
# UVM_INFO ../10_tb/ahb_slv/ahb_slv_driver.sv(201) @ 2115000: uvm_test_top.env.ahb_agent.drv [ahb_slv_driver] [DRV][AHB][RSP] AHB_WRITE addr=0x1090 data=0x7b7a797877767574 resp=AHB_RESP_OKAY ready_delay=0
# UVM_INFO ../10_tb/ahb_slv/ahb_slv_monitor.sv(119) @ 2115000: uvm_test_top.env.ahb_agent.mon [ahb_slv_monitor] [MON][AHB][TR] AHB AHB_WRITE addr=0x1090 trans=AHB_TRANS_NONSEQ burst=AHB_BURST_SINGLE size=2B mastlock=0 resp=AHB_RESP_OKAY waits=0 | data=0x7b7a797877767574
# UVM_INFO ../10_tb/env/scoreboard.sv(519) @ 2115000: uvm_test_top.env.scb [scoreboard] [SCB][AHB][PASS] AHB AHB_WRITE addr=0x1090 trans=AHB_TRANS_NONSEQ burst=AHB_BURST_SINGLE size=2B mastlock=0 resp=AHB_RESP_OKAY waits=0 | data=0x7b7a797877767574 | total=29
# UVM_INFO ../10_tb/axi4_mst/axi4_mst_driver.sv(286) @ 2125000: uvm_test_top.env.axi_agent.drv [axi4_mst_driver] [DRV][AXI][B] id=0x4 resp=AXI4_RESP_OKAY
# UVM_INFO ../10_tb/axi4_mst/axi4_mst_monitor.sv(177) @ 2125000: uvm_test_top.env.axi_agent.mon [axi4_mst_monitor] [MON][AXI][RSP] WRITE id=0x4 resp=AXI4_RESP_OKAY
# UVM_INFO ../10_tb/env/scoreboard.sv(659) @ 2125000: uvm_test_top.env.scb [scoreboard] [SCB][AXI][PASS] AXI4 AXI4_WRITE id=0x4 addr=0x1090 burst=AXI4_BURST_INCR beats=1 size=2B lock=0 | bresp=AXI4_RESP_OKAY | total=29
# UVM_INFO ../10_tb/axi4_mst/axi4_mst_driver.sv(105) @ 2125000: uvm_test_top.env.axi_agent.drv [axi4_mst_driver] [DRV][AXI][REQ] AXI4 AXI4_READ id=0x9 addr=0x1090 burst=AXI4_BURST_INCR beats=1 size=8B lock=0 | outstanding=1
# UVM_INFO ../10_tb/axi4_mst/axi4_mst_driver.sv(261) @ 2155000: uvm_test_top.env.axi_agent.drv [axi4_mst_driver] [DRV][AXI][AR] id=0x9 addr=0x1090 burst=AXI4_BURST_INCR beats=1 size=8B
# UVM_INFO ../10_tb/axi4_mst/axi4_mst_monitor.sv(211) @ 2155000: uvm_test_top.env.axi_agent.mon [axi4_mst_monitor] [MON][AXI][REQ] AXI4 AXI4_READ id=0x9 addr=0x1090 burst=AXI4_BURST_INCR beats=1 size=8B lock=0
# UVM_INFO ../10_tb/env/predictor.sv(84) @ 2155000: uvm_test_top.env.pred [predictor] [PRED][AXI][IN] AXI4 AXI4_READ id=0x9 addr=0x1090 burst=AXI4_BURST_INCR beats=1 size=8B lock=0 | queued=1
# UVM_INFO ../10_tb/env/predictor.sv(155) @ 2155000: uvm_test_top.env.pred [predictor] [PRED][MAP] AXI4 AXI4_READ id=0x9 addr=0x1090 burst=AXI4_BURST_INCR beats=1 size=8B lock=0 -> AHB burst=AHB_BURST_SINGLE size=8B crosses_1kb=0
# UVM_INFO ../10_tb/env/predictor.sv(192) @ 2155000: uvm_test_top.env.pred [predictor] [PRED][AHB] beat=1/1 | AHB AHB_READ addr=0x1090 trans=AHB_TRANS_NONSEQ burst=AHB_BURST_SINGLE size=8B mastlock=0 resp=AHB_RESP_OKAY waits=0
# UVM_INFO ../10_tb/ahb_slv/ahb_slv_driver.sv(87) @ 2165000: uvm_test_top.env.ahb_agent.drv [ahb_slv_driver] [DRV][AHB][REQ] AHB_READ addr=0x1090 trans=AHB_TRANS_NONSEQ burst=AHB_BURST_SINGLE size=8B
# UVM_INFO ../10_tb/ahb_slv/ahb_slv_driver.sv(201) @ 2175000: uvm_test_top.env.ahb_agent.drv [ahb_slv_driver] [DRV][AHB][RSP] AHB_READ addr=0x1090 data=0xcbcac9c8c7c67574 resp=AHB_RESP_OKAY ready_delay=0
# UVM_INFO ../10_tb/ahb_slv/ahb_slv_monitor.sv(119) @ 2175000: uvm_test_top.env.ahb_agent.mon [ahb_slv_monitor] [MON][AHB][TR] AHB AHB_READ addr=0x1090 trans=AHB_TRANS_NONSEQ burst=AHB_BURST_SINGLE size=8B mastlock=0 resp=AHB_RESP_OKAY waits=0 | data=0xcbcac9c8c7c67574
# UVM_INFO ../10_tb/env/scoreboard.sv(519) @ 2175000: uvm_test_top.env.scb [scoreboard] [SCB][AHB][PASS] AHB AHB_READ addr=0x1090 trans=AHB_TRANS_NONSEQ burst=AHB_BURST_SINGLE size=8B mastlock=0 resp=AHB_RESP_OKAY waits=0 | data=0xcbcac9c8c7c67574 | total=30
# UVM_INFO ../10_tb/axi4_mst/axi4_mst_driver.sv(326) @ 2195000: uvm_test_top.env.axi_agent.drv [axi4_mst_driver] [DRV][AXI][R] id=0x9 beat=1/1 data=0xcbcac9c8c7c67574 resp=AXI4_RESP_OKAY last=1
# UVM_INFO ../10_tb/axi4_mst/axi4_mst_monitor.sv(256) @ 2195000: uvm_test_top.env.axi_agent.mon [axi4_mst_monitor] [MON][AXI][R] id=0x9 beat=1/1 data=0xcbcac9c8c7c67574 resp=AXI4_RESP_OKAY last=1
# UVM_INFO ../10_tb/axi4_mst/axi4_mst_monitor.sv(262) @ 2195000: uvm_test_top.env.axi_agent.mon [axi4_mst_monitor] [MON][AXI][RSP] READ id=0x9 beats=1
# UVM_INFO ../10_tb/env/scoreboard.sv(666) @ 2195000: uvm_test_top.env.scb [scoreboard] [SCB][AXI][PASS] AXI4 AXI4_READ id=0x9 addr=0x1090 burst=AXI4_BURST_INCR beats=1 size=8B lock=0 | read beats=1 | total=30
# UVM_INFO ../10_tb/seq/axi4_mst_seq/axi4_mst_single_wstrb_seq.sv(212) @ 2195000: uvm_test_top.env.axi_agent.sqr@@axi_seq [axi4_mst_single_wstrb_seq] [10] WSTRB_LEGAL AWSIZE_2B_LANE2 addr=0x10a2 AWSIZE=2B WSTRB=0xc expected HSIZE=2B HADDR=0x10a2
# UVM_INFO ../10_tb/axi4_mst/axi4_mst_driver.sv(105) @ 2195000: uvm_test_top.env.axi_agent.drv [axi4_mst_driver] [DRV][AXI][REQ] AXI4 AXI4_WRITE id=0x5 addr=0x10a0 burst=AXI4_BURST_INCR beats=1 size=8B lock=0 | outstanding=1
