# vsim -c -coverage -sv_seed 70949183 "+UVM_TESTNAME=bridge_random_stress_test" "+UVM_VERBOSITY=UVM_HIGH" -l report/logs/bridge_random_stress_test_tmo256_run_5_seed_70949183.log -wlf report/wlf/bridge_random_stress_test_tmo256_run_5_seed_70949183.wlf -do "coverage save -onexit report/coverage/bridge_random_stress_test_tmo256_run_5_seed_70949183.ucdb; run -all; quit -f" work.opt_bridge_tb_top_tmo256 
# Start time: 09:15:55 on Oct 01,2026
# //  Questa Sim-64
# //  Version 10.6b linux_x86_64 May 25 2017
# //
# //  Copyright 1991-2017 Mentor Graphics Corporation
# //  All Rights Reserved.
# //
# //  QuestaSim and its associated documentation contain trade
# //  secrets and commercial or financial information that are the property of
# //  Mentor Graphics Corporation and are privileged, confidential,
# //  and exempt from disclosure under the Freedom of Information Act,
# //  5 U.S.C. Section 552. Furthermore, this information
# //  is prohibited from disclosure under the Trade Secrets Act,
# //  18 U.S.C. Section 1905.
# //
# Loading sv_std.std
# Loading work.axi4_if(fast)
# Loading work.ahb_if(fast)
# Loading mtiUvm.uvm_pkg
# Loading work.bridge_vip_pkg(fast)
# Loading work.bridge_seq_pkg(fast)
# Loading work.bridge_test_pkg(fast)
# Loading work.bridge_tb_top(fast)
# Loading work.axi4_if(fast)
# Loading work.ahb_if(fast)
# Loading work.axi_ahblite_bridge(fast)
# Loading work.ahb_skid_buf(fast)
# Loading work.axi_slv_if(fast)
# Loading work.ahb_mstr_if(fast)
# Loading work.time_out(fast)
# Loading work.counter_f(fast)
# Loading work.axi4_sva(fast)
# Loading work.ahb_sva(fast)
# Loading mtiUvm.questa_uvm_pkg(fast)
# Loading /cadtools/mentor/Questa_10.6b/questasim/uvm-1.1d/linux_x86_64/uvm_dpi.so
# coverage save -onexit report/coverage/bridge_random_stress_test_tmo256_run_5_seed_70949183.ucdb
#  run -all
# ----------------------------------------------------------------
# UVM-1.1d
# (C) 2007-2013 Mentor Graphics Corporation
# (C) 2007-2013 Cadence Design Systems, Inc.
# (C) 2006-2013 Synopsys, Inc.
# (C) 2011-2013 Cypress Semiconductor Corp.
# ----------------------------------------------------------------
# 
#   ***********       IMPORTANT RELEASE NOTES         ************
# 
#   You are using a version of the UVM library that has been compiled
#   with `UVM_NO_DEPRECATED undefined.
#   See http://www.eda.org/svdb/view.php?id=3313 for more details.
# 
#   You are using a version of the UVM library that has been compiled
#   with `UVM_OBJECT_MUST_HAVE_CONSTRUCTOR undefined.
#   See http://www.eda.org/svdb/view.php?id=3770 for more details.
# 
#       (Specify +UVM_NO_RELNOTES to turn off this notice)
# 
# UVM_INFO verilog_src/questa_uvm_pkg-1.2/src/questa_uvm_pkg.sv(215) @ 0: reporter [Questa UVM] QUESTA_UVM-1.2.3
# UVM_INFO verilog_src/questa_uvm_pkg-1.2/src/questa_uvm_pkg.sv(217) @ 0: reporter [Questa UVM]  questa_uvm::init(+struct)
# UVM_INFO @ 0: reporter [RNTST] Running test bridge_random_stress_test...
# UVM_INFO @ 0: reporter [UVMTOP] UVM testbench topology:
# -------------------------------------------------------------------------
# Name                       Type                               Size  Value
# -------------------------------------------------------------------------
# uvm_test_top               bridge_random_stress_test          -     @490 
#   env                      vip_env                            -     @508 
#     ahb_agent              ahb_slv_agent                      -     @529 
#       ap                   uvm_analysis_port                  -     @667 
#       cov                  ahb_slv_coverage                   -     @693 
#         analysis_imp       uvm_analysis_imp                   -     @700 
#         trans_export       uvm_analysis_imp_ahb_trans         -     @841 
#       drv                  ahb_slv_driver                     -     @818 
#         rsp_port           uvm_analysis_port                  -     @833 
#         seq_item_port      uvm_seq_item_pull_port             -     @825 
#       mon                  ahb_slv_monitor                    -     @686 
#         ap                 uvm_analysis_port                  -     @850 
#         trans_ap           uvm_analysis_port                  -     @858 
#       sqr                  ahb_slv_sequencer                  -     @709 
#         rsp_export         uvm_analysis_export                -     @716 
#         seq_item_export    uvm_seq_item_pull_imp              -     @810 
#         arbitration_queue  array                              0     -    
#         lock_queue         array                              0     -    
#         num_last_reqs      integral                           32    'd1  
#         num_last_rsps      integral                           32    'd1  
#       trans_ap             uvm_analysis_port                  -     @675 
#     axi_agent              axi4_mst_agent                     -     @522 
#       ap                   uvm_analysis_port                  -     @881 
#       cov                  axi4_mst_coverage                  -     @899 
#         analysis_imp       uvm_analysis_imp                   -     @906 
#       drv                  axi4_mst_driver                    -     @1024
#         rsp_port           uvm_analysis_port                  -     @1039
#         seq_item_port      uvm_seq_item_pull_port             -     @1031
#       mon                  axi4_mst_monitor                   -     @892 
#         ap                 uvm_analysis_port                  -     @1056
#         req_ap             uvm_analysis_port                  -     @1048
#       req_ap               uvm_analysis_port                  -     @873 
#       sqr                  axi4_mst_sequencer                 -     @915 
#         rsp_export         uvm_analysis_export                -     @922 
#         seq_item_export    uvm_seq_item_pull_imp              -     @1016
#         arbitration_queue  array                              0     -    
#         lock_queue         array                              0     -    
#         num_last_reqs      integral                           32    'd1  
#         num_last_rsps      integral                           32    'd1  
#     cov                    e2e_cov                            -     @659 
#       actual_ahb_export    uvm_analysis_imp_e2e_actual_ahb    -     @1086
#       axi_req_export       uvm_analysis_imp_e2e_axi_req       -     @1070
#       axi_rsp_export       uvm_analysis_imp_e2e_axi_rsp       -     @1094
#       expected_ahb_export  uvm_analysis_imp_e2e_expected_ahb  -     @1078
#     pred                   predictor                          -     @645 
#       axi_request_export   uvm_analysis_imp_axi_request       -     @1102
#       expected_ahb_ap      uvm_analysis_port                  -     @1110
#       expected_axi_ap      uvm_analysis_port                  -     @1118
#     scb                    scoreboard                         -     @652 
#       actual_ahb_export    uvm_analysis_imp_actual_ahb        -     @1134
#       actual_axi_export    uvm_analysis_imp_actual_axi        -     @1150
#       expected_ahb_export  uvm_analysis_imp_expected_ahb      -     @1126
#       expected_axi_export  uvm_analysis_imp_expected_axi      -     @1142
#     vseqr                  virtual_sequencer                  -     @536 
#       rsp_export           uvm_analysis_export                -     @543 
#       seq_item_export      uvm_seq_item_pull_imp              -     @637 
#       arbitration_queue    array                              0     -    
#       lock_queue           array                              0     -    
#       num_last_reqs        integral                           32    'd1  
#       num_last_rsps        integral                           32    'd1  
# -------------------------------------------------------------------------
# 
# UVM_INFO verilog_src/questa_uvm_pkg-1.2/src/questa_uvm_pkg.sv(277) @ 0: reporter [Questa UVM] End Of Elaboration
# UVM_INFO ../10_tb/test/bridge_random_stress_test.sv(98) @ 0: uvm_test_top [bridge_random_stress_test] Built configuration: data=32 narrow=0 C_DPHASE_TIMEOUT=256
# UVM_INFO ../10_tb/bridge_tb_top.sv(47) @ 95000: reporter [BRIDGE_TB_TOP] Power-on reset released
# UVM_INFO ../10_tb/seq/axi4_mst_seq/axi4_mst_random_stress_seq.sv(175) @ 95000: uvm_test_top.env.axi_agent.sqr@@axi_seq [axi4_mst_random_stress_seq] Random stress: 64 requests, window 0x4000..0x7fff, error=12% max_wait=4 narrow=0 C_DPHASE_TIMEOUT=256
# UVM_INFO ../10_tb/axi4_mst/axi4_mst_driver.sv(105) @ 95000: uvm_test_top.env.axi_agent.drv [axi4_mst_driver] [DRV][AXI][REQ] AXI4 AXI4_READ id=0x8 addr=0x4844 burst=AXI4_BURST_INCR beats=6 size=4B lock=0 | outstanding=1
# UVM_INFO ../10_tb/axi4_mst/axi4_mst_driver.sv(261) @ 125000: uvm_test_top.env.axi_agent.drv [axi4_mst_driver] [DRV][AXI][AR] id=0x8 addr=0x4844 burst=AXI4_BURST_INCR beats=6 size=4B
# UVM_INFO ../10_tb/axi4_mst/axi4_mst_monitor.sv(211) @ 125000: uvm_test_top.env.axi_agent.mon [axi4_mst_monitor] [MON][AXI][REQ] AXI4 AXI4_READ id=0x8 addr=0x4844 burst=AXI4_BURST_INCR beats=6 size=4B lock=0
# UVM_INFO ../10_tb/env/predictor.sv(84) @ 125000: uvm_test_top.env.pred [predictor] [PRED][AXI][IN] AXI4 AXI4_READ id=0x8 addr=0x4844 burst=AXI4_BURST_INCR beats=6 size=4B lock=0 | queued=1
# UVM_INFO ../10_tb/env/predictor.sv(155) @ 125000: uvm_test_top.env.pred [predictor] [PRED][MAP] AXI4 AXI4_READ id=0x8 addr=0x4844 burst=AXI4_BURST_INCR beats=6 size=4B lock=0 -> AHB burst=AHB_BURST_INCR size=4B crosses_1kb=0
# UVM_INFO ../10_tb/env/predictor.sv(192) @ 125000: uvm_test_top.env.pred [predictor] [PRED][AHB] beat=1/6 | AHB AHB_READ addr=0x4844 trans=AHB_TRANS_NONSEQ burst=AHB_BURST_INCR size=4B mastlock=0 resp=AHB_RESP_OKAY waits=0
# UVM_INFO ../10_tb/env/predictor.sv(192) @ 125000: uvm_test_top.env.pred [predictor] [PRED][AHB] beat=2/6 | AHB AHB_READ addr=0x4848 trans=AHB_TRANS_SEQ burst=AHB_BURST_INCR size=4B mastlock=0 resp=AHB_RESP_OKAY waits=0
# UVM_INFO ../10_tb/env/predictor.sv(192) @ 125000: uvm_test_top.env.pred [predictor] [PRED][AHB] beat=3/6 | AHB AHB_READ addr=0x484c trans=AHB_TRANS_SEQ burst=AHB_BURST_INCR size=4B mastlock=0 resp=AHB_RESP_OKAY waits=0
# UVM_INFO ../10_tb/env/predictor.sv(192) @ 125000: uvm_test_top.env.pred [predictor] [PRED][AHB] beat=4/6 | AHB AHB_READ addr=0x4850 trans=AHB_TRANS_SEQ burst=AHB_BURST_INCR size=4B mastlock=0 resp=AHB_RESP_OKAY waits=0
# UVM_INFO ../10_tb/env/predictor.sv(192) @ 125000: uvm_test_top.env.pred [predictor] [PRED][AHB] beat=5/6 | AHB AHB_READ addr=0x4854 trans=AHB_TRANS_SEQ burst=AHB_BURST_INCR size=4B mastlock=0 resp=AHB_RESP_OKAY waits=0
# UVM_INFO ../10_tb/env/predictor.sv(192) @ 125000: uvm_test_top.env.pred [predictor] [PRED][AHB] beat=6/6 | AHB AHB_READ addr=0x4858 trans=AHB_TRANS_SEQ burst=AHB_BURST_INCR size=4B mastlock=0 resp=AHB_RESP_OKAY waits=0
# UVM_INFO ../10_tb/ahb_slv/ahb_slv_driver.sv(87) @ 135000: uvm_test_top.env.ahb_agent.drv [ahb_slv_driver] [DRV][AHB][REQ] AHB_READ addr=0x4844 trans=AHB_TRANS_NONSEQ burst=AHB_BURST_INCR size=4B
# UVM_INFO ../10_tb/seq/ahb_slv_seq/ahb_slv_response_mapping_seq.sv(54) @ 135000: uvm_test_top.env.ahb_agent.sqr@@ahb_seq [ahb_slv_response_mapping_seq] [RSP][AHB] AHB_READ addr=0x4844 resp=AHB_RESP_OKAY waits=4
# UVM_INFO ../10_tb/ahb_slv/ahb_slv_driver.sv(201) @ 185000: uvm_test_top.env.ahb_agent.drv [ahb_slv_driver] [DRV][AHB][RSP] AHB_READ addr=0x4844 data=0xffffb7bb resp=AHB_RESP_OKAY ready_delay=4
# UVM_INFO ../10_tb/ahb_slv/ahb_slv_monitor.sv(119) @ 185000: uvm_test_top.env.ahb_agent.mon [ahb_slv_monitor] [MON][AHB][TR] AHB AHB_READ addr=0x4844 trans=AHB_TRANS_NONSEQ burst=AHB_BURST_INCR size=4B mastlock=0 resp=AHB_RESP_OKAY waits=4 | data=0xffffb7bb
# UVM_INFO ../10_tb/env/scoreboard.sv(359) @ 185000: uvm_test_top.env.scb [scoreboard] [SCB][AHB][PASS] AHB AHB_READ addr=0x4844 trans=AHB_TRANS_NONSEQ burst=AHB_BURST_INCR size=4B mastlock=0 resp=AHB_RESP_OKAY waits=4 | data=0xffffb7bb | total=1
# UVM_INFO ../10_tb/ahb_slv/ahb_slv_driver.sv(87) @ 195000: uvm_test_top.env.ahb_agent.drv [ahb_slv_driver] [DRV][AHB][REQ] AHB_READ addr=0x4848 trans=AHB_TRANS_SEQ burst=AHB_BURST_INCR size=4B
# UVM_INFO ../10_tb/seq/ahb_slv_seq/ahb_slv_response_mapping_seq.sv(54) @ 195000: uvm_test_top.env.ahb_agent.sqr@@ahb_seq [ahb_slv_response_mapping_seq] [RSP][AHB] AHB_READ addr=0x4848 resp=AHB_RESP_ERROR waits=0
# UVM_INFO ../10_tb/ahb_slv/ahb_slv_driver.sv(201) @ 215000: uvm_test_top.env.ahb_agent.drv [ahb_slv_driver] [DRV][AHB][RSP] AHB_READ addr=0x4848 data=0xffffb7b7 resp=AHB_RESP_ERROR ready_delay=0
# UVM_INFO ../10_tb/ahb_slv/ahb_slv_monitor.sv(119) @ 215000: uvm_test_top.env.ahb_agent.mon [ahb_slv_monitor] [MON][AHB][TR] AHB AHB_READ addr=0x4848 trans=AHB_TRANS_SEQ burst=AHB_BURST_INCR size=4B mastlock=0 resp=AHB_RESP_ERROR waits=1 | data=0xffffb7b7
# UVM_INFO ../10_tb/env/scoreboard.sv(359) @ 215000: uvm_test_top.env.scb [scoreboard] [SCB][AHB][PASS] AHB AHB_READ addr=0x4848 trans=AHB_TRANS_SEQ burst=AHB_BURST_INCR size=4B mastlock=0 resp=AHB_RESP_ERROR waits=1 | data=0xffffb7b7 | total=2
# UVM_INFO ../10_tb/axi4_mst/axi4_mst_driver.sv(326) @ 215000: uvm_test_top.env.axi_agent.drv [axi4_mst_driver] [DRV][AXI][R] id=0x8 beat=1/6 data=0xffffb7bb resp=AXI4_RESP_OKAY last=0
# UVM_INFO ../10_tb/axi4_mst/axi4_mst_monitor.sv(256) @ 215000: uvm_test_top.env.axi_agent.mon [axi4_mst_monitor] [MON][AXI][R] id=0x8 beat=1/6 data=0xffffb7bb resp=AXI4_RESP_OKAY last=0
# UVM_INFO ../10_tb/ahb_slv/ahb_slv_driver.sv(87) @ 225000: uvm_test_top.env.ahb_agent.drv [ahb_slv_driver] [DRV][AHB][REQ] AHB_READ addr=0x484c trans=AHB_TRANS_SEQ burst=AHB_BURST_INCR size=4B
# UVM_INFO ../10_tb/seq/ahb_slv_seq/ahb_slv_response_mapping_seq.sv(54) @ 225000: uvm_test_top.env.ahb_agent.sqr@@ahb_seq [ahb_slv_response_mapping_seq] [RSP][AHB] AHB_READ addr=0x484c resp=AHB_RESP_OKAY waits=0
# UVM_INFO ../10_tb/ahb_slv/ahb_slv_driver.sv(201) @ 235000: uvm_test_top.env.ahb_agent.drv [ahb_slv_driver] [DRV][AHB][RSP] AHB_READ addr=0x484c data=0xffffb7b3 resp=AHB_RESP_OKAY ready_delay=0
# UVM_INFO ../10_tb/ahb_slv/ahb_slv_monitor.sv(119) @ 235000: uvm_test_top.env.ahb_agent.mon [ahb_slv_monitor] [MON][AHB][TR] AHB AHB_READ addr=0x484c trans=AHB_TRANS_SEQ burst=AHB_BURST_INCR size=4B mastlock=0 resp=AHB_RESP_OKAY waits=0 | data=0xffffb7b3
# UVM_INFO ../10_tb/env/scoreboard.sv(359) @ 235000: uvm_test_top.env.scb [scoreboard] [SCB][AHB][PASS] AHB AHB_READ addr=0x484c trans=AHB_TRANS_SEQ burst=AHB_BURST_INCR size=4B mastlock=0 resp=AHB_RESP_OKAY waits=0 | data=0xffffb7b3 | total=3
# UVM_INFO ../10_tb/ahb_slv/ahb_slv_driver.sv(87) @ 245000: uvm_test_top.env.ahb_agent.drv [ahb_slv_driver] [DRV][AHB][REQ] AHB_READ addr=0x4850 trans=AHB_TRANS_SEQ burst=AHB_BURST_INCR size=4B
# UVM_INFO ../10_tb/axi4_mst/axi4_mst_driver.sv(326) @ 245000: uvm_test_top.env.axi_agent.drv [axi4_mst_driver] [DRV][AXI][R] id=0x8 beat=2/6 data=0xffffb7b7 resp=AXI4_RESP_SLVERR last=0
# UVM_INFO ../10_tb/axi4_mst/axi4_mst_monitor.sv(256) @ 245000: uvm_test_top.env.axi_agent.mon [axi4_mst_monitor] [MON][AXI][R] id=0x8 beat=2/6 data=0xffffb7b7 resp=AXI4_RESP_SLVERR last=0
# UVM_INFO ../10_tb/seq/ahb_slv_seq/ahb_slv_response_mapping_seq.sv(54) @ 245000: uvm_test_top.env.ahb_agent.sqr@@ahb_seq [ahb_slv_response_mapping_seq] [RSP][AHB] AHB_READ addr=0x4850 resp=AHB_RESP_OKAY waits=0
# UVM_INFO ../10_tb/ahb_slv/ahb_slv_driver.sv(201) @ 255000: uvm_test_top.env.ahb_agent.drv [ahb_slv_driver] [DRV][AHB][RSP] AHB_READ addr=0x4850 data=0xffffb7af resp=AHB_RESP_OKAY ready_delay=0
# UVM_INFO ../10_tb/ahb_slv/ahb_slv_monitor.sv(119) @ 255000: uvm_test_top.env.ahb_agent.mon [ahb_slv_monitor] [MON][AHB][TR] AHB AHB_READ addr=0x4850 trans=AHB_TRANS_SEQ burst=AHB_BURST_INCR size=4B mastlock=0 resp=AHB_RESP_OKAY waits=0 | data=0xffffb7af
# UVM_INFO ../10_tb/env/scoreboard.sv(359) @ 255000: uvm_test_top.env.scb [scoreboard] [SCB][AHB][PASS] AHB AHB_READ addr=0x4850 trans=AHB_TRANS_SEQ burst=AHB_BURST_INCR size=4B mastlock=0 resp=AHB_RESP_OKAY waits=0 | data=0xffffb7af | total=4
# UVM_INFO ../10_tb/ahb_slv/ahb_slv_driver.sv(87) @ 265000: uvm_test_top.env.ahb_agent.drv [ahb_slv_driver] [DRV][AHB][REQ] AHB_READ addr=0x4854 trans=AHB_TRANS_SEQ burst=AHB_BURST_INCR size=4B
# UVM_INFO ../10_tb/axi4_mst/axi4_mst_driver.sv(326) @ 265000: uvm_test_top.env.axi_agent.drv [axi4_mst_driver] [DRV][AXI][R] id=0x8 beat=3/6 data=0xffffb7b3 resp=AXI4_RESP_OKAY last=0
# UVM_INFO ../10_tb/axi4_mst/axi4_mst_monitor.sv(256) @ 265000: uvm_test_top.env.axi_agent.mon [axi4_mst_monitor] [MON][AXI][R] id=0x8 beat=3/6 data=0xffffb7b3 resp=AXI4_RESP_OKAY last=0
# UVM_INFO ../10_tb/seq/ahb_slv_seq/ahb_slv_response_mapping_seq.sv(54) @ 265000: uvm_test_top.env.ahb_agent.sqr@@ahb_seq [ahb_slv_response_mapping_seq] [RSP][AHB] AHB_READ addr=0x4854 resp=AHB_RESP_OKAY waits=0
# UVM_INFO ../10_tb/ahb_slv/ahb_slv_driver.sv(201) @ 275000: uvm_test_top.env.ahb_agent.drv [ahb_slv_driver] [DRV][AHB][RSP] AHB_READ addr=0x4854 data=0xffffb7ab resp=AHB_RESP_OKAY ready_delay=0
# UVM_INFO ../10_tb/ahb_slv/ahb_slv_monitor.sv(119) @ 275000: uvm_test_top.env.ahb_agent.mon [ahb_slv_monitor] [MON][AHB][TR] AHB AHB_READ addr=0x4854 trans=AHB_TRANS_SEQ burst=AHB_BURST_INCR size=4B mastlock=0 resp=AHB_RESP_OKAY waits=0 | data=0xffffb7ab
# UVM_INFO ../10_tb/env/scoreboard.sv(359) @ 275000: uvm_test_top.env.scb [scoreboard] [SCB][AHB][PASS] AHB AHB_READ addr=0x4854 trans=AHB_TRANS_SEQ burst=AHB_BURST_INCR size=4B mastlock=0 resp=AHB_RESP_OKAY waits=0 | data=0xffffb7ab | total=5
# UVM_INFO ../10_tb/ahb_slv/ahb_slv_driver.sv(87) @ 285000: uvm_test_top.env.ahb_agent.drv [ahb_slv_driver] [DRV][AHB][REQ] AHB_READ addr=0x4858 trans=AHB_TRANS_SEQ burst=AHB_BURST_INCR size=4B
# UVM_INFO ../10_tb/seq/ahb_slv_seq/ahb_slv_response_mapping_seq.sv(54) @ 285000: uvm_test_top.env.ahb_agent.sqr@@ahb_seq [ahb_slv_response_mapping_seq] [RSP][AHB] AHB_READ addr=0x4858 resp=AHB_RESP_OKAY waits=3
# UVM_INFO ../10_tb/axi4_mst/axi4_mst_driver.sv(326) @ 295000: uvm_test_top.env.axi_agent.drv [axi4_mst_driver] [DRV][AXI][R] id=0x8 beat=4/6 data=0xffffb7af resp=AXI4_RESP_OKAY last=0
# UVM_INFO ../10_tb/axi4_mst/axi4_mst_monitor.sv(256) @ 295000: uvm_test_top.env.axi_agent.mon [axi4_mst_monitor] [MON][AXI][R] id=0x8 beat=4/6 data=0xffffb7af resp=AXI4_RESP_OKAY last=0
# UVM_INFO ../10_tb/ahb_slv/ahb_slv_driver.sv(201) @ 325000: uvm_test_top.env.ahb_agent.drv [ahb_slv_driver] [DRV][AHB][RSP] AHB_READ addr=0x4858 data=0xffffb7a7 resp=AHB_RESP_OKAY ready_delay=3
# UVM_INFO ../10_tb/ahb_slv/ahb_slv_monitor.sv(119) @ 325000: uvm_test_top.env.ahb_agent.mon [ahb_slv_monitor] [MON][AHB][TR] AHB AHB_READ addr=0x4858 trans=AHB_TRANS_SEQ burst=AHB_BURST_INCR size=4B mastlock=0 resp=AHB_RESP_OKAY waits=3 | data=0xffffb7a7
# UVM_INFO ../10_tb/env/scoreboard.sv(359) @ 325000: uvm_test_top.env.scb [scoreboard] [SCB][AHB][PASS] AHB AHB_READ addr=0x4858 trans=AHB_TRANS_SEQ burst=AHB_BURST_INCR size=4B mastlock=0 resp=AHB_RESP_OKAY waits=3 | data=0xffffb7a7 | total=6
# UVM_INFO ../10_tb/axi4_mst/axi4_mst_driver.sv(326) @ 325000: uvm_test_top.env.axi_agent.drv [axi4_mst_driver] [DRV][AXI][R] id=0x8 beat=5/6 data=0xffffb7ab resp=AXI4_RESP_OKAY last=0
# UVM_INFO ../10_tb/axi4_mst/axi4_mst_monitor.sv(256) @ 325000: uvm_test_top.env.axi_agent.mon [axi4_mst_monitor] [MON][AXI][R] id=0x8 beat=5/6 data=0xffffb7ab resp=AXI4_RESP_OKAY last=0
# UVM_INFO ../10_tb/axi4_mst/axi4_mst_driver.sv(326) @ 365000: uvm_test_top.env.axi_agent.drv [axi4_mst_driver] [DRV][AXI][R] id=0x8 beat=6/6 data=0xffffb7a7 resp=AXI4_RESP_OKAY last=1
# UVM_INFO ../10_tb/axi4_mst/axi4_mst_monitor.sv(256) @ 365000: uvm_test_top.env.axi_agent.mon [axi4_mst_monitor] [MON][AXI][R] id=0x8 beat=6/6 data=0xffffb7a7 resp=AXI4_RESP_OKAY last=1
# UVM_INFO ../10_tb/axi4_mst/axi4_mst_monitor.sv(262) @ 365000: uvm_test_top.env.axi_agent.mon [axi4_mst_monitor] [MON][AXI][RSP] READ id=0x8 beats=6
# UVM_INFO ../10_tb/env/scoreboard.sv(506) @ 365000: uvm_test_top.env.scb [scoreboard] [SCB][AXI][PASS] AXI4 AXI4_READ id=0x8 addr=0x4844 burst=AXI4_BURST_INCR beats=6 size=4B lock=0 | read beats=6 | total=1
# UVM_INFO ../10_tb/axi4_mst/axi4_mst_driver.sv(105) @ 365000: uvm_test_top.env.axi_agent.drv [axi4_mst_driver] [DRV][AXI][REQ] AXI4 AXI4_WRITE id=0xe addr=0x56e4 burst=AXI4_BURST_INCR beats=6 size=4B lock=0 | outstanding=1
# UVM_INFO ../10_tb/axi4_mst/axi4_mst_driver.sv(204) @ 405000: uvm_test_top.env.axi_agent.drv [axi4_mst_driver] [DRV][AXI][W] id=0xe beat=1/6 data=0x302d2a27 strb=0xf last=0
# UVM_INFO ../10_tb/axi4_mst/axi4_mst_driver.sv(178) @ 405000: uvm_test_top.env.axi_agent.drv [axi4_mst_driver] [DRV][AXI][AW] id=0xe addr=0x56e4 burst=AXI4_BURST_INCR beats=6 size=4B
# UVM_INFO ../10_tb/ahb_slv/ahb_slv_driver.sv(87) @ 415000: uvm_test_top.env.ahb_agent.drv [ahb_slv_driver] [DRV][AHB][REQ] AHB_WRITE addr=0x56e4 trans=AHB_TRANS_NONSEQ burst=AHB_BURST_INCR size=4B
# UVM_INFO ../10_tb/seq/ahb_slv_seq/ahb_slv_response_mapping_seq.sv(54) @ 415000: uvm_test_top.env.ahb_agent.sqr@@ahb_seq [ahb_slv_response_mapping_seq] [RSP][AHB] AHB_WRITE addr=0x56e4 resp=AHB_RESP_OKAY waits=0
# UVM_INFO ../10_tb/ahb_slv/ahb_slv_driver.sv(201) @ 425000: uvm_test_top.env.ahb_agent.drv [ahb_slv_driver] [DRV][AHB][RSP] AHB_WRITE addr=0x56e4 data=0x302d2a27 resp=AHB_RESP_OKAY ready_delay=0
# UVM_INFO ../10_tb/ahb_slv/ahb_slv_monitor.sv(119) @ 425000: uvm_test_top.env.ahb_agent.mon [ahb_slv_monitor] [MON][AHB][TR] AHB AHB_WRITE addr=0x56e4 trans=AHB_TRANS_NONSEQ burst=AHB_BURST_INCR size=4B mastlock=0 resp=AHB_RESP_OKAY waits=0 | data=0x302d2a27
# UVM_INFO ../10_tb/ahb_slv/ahb_slv_driver.sv(87) @ 435000: uvm_test_top.env.ahb_agent.drv [ahb_slv_driver] [DRV][AHB][REQ] AHB_WRITE addr=0x56e8 trans=AHB_TRANS_SEQ burst=AHB_BURST_INCR size=4B
# UVM_INFO ../10_tb/axi4_mst/axi4_mst_driver.sv(204) @ 435000: uvm_test_top.env.axi_agent.drv [axi4_mst_driver] [DRV][AXI][W] id=0xe beat=2/6 data=0x35322f2c strb=0xf last=0
# UVM_INFO ../10_tb/seq/ahb_slv_seq/ahb_slv_response_mapping_seq.sv(54) @ 435000: uvm_test_top.env.ahb_agent.sqr@@ahb_seq [ahb_slv_response_mapping_seq] [RSP][AHB] AHB_WRITE addr=0x56e8 resp=AHB_RESP_ERROR waits=1
# UVM_INFO ../10_tb/ahb_slv/ahb_slv_driver.sv(201) @ 465000: uvm_test_top.env.ahb_agent.drv [ahb_slv_driver] [DRV][AHB][RSP] AHB_WRITE addr=0x56e8 data=0x35322f2c resp=AHB_RESP_ERROR ready_delay=1
# UVM_INFO ../10_tb/ahb_slv/ahb_slv_monitor.sv(119) @ 465000: uvm_test_top.env.ahb_agent.mon [ahb_slv_monitor] [MON][AHB][TR] AHB AHB_WRITE addr=0x56e8 trans=AHB_TRANS_SEQ burst=AHB_BURST_INCR size=4B mastlock=0 resp=AHB_RESP_ERROR waits=2 | data=0x35322f2c
# UVM_INFO ../10_tb/ahb_slv/ahb_slv_driver.sv(87) @ 475000: uvm_test_top.env.ahb_agent.drv [ahb_slv_driver] [DRV][AHB][REQ] AHB_WRITE addr=0x56ec trans=AHB_TRANS_SEQ burst=AHB_BURST_INCR size=4B
# UVM_INFO ../10_tb/axi4_mst/axi4_mst_driver.sv(204) @ 475000: uvm_test_top.env.axi_agent.drv [axi4_mst_driver] [DRV][AXI][W] id=0xe beat=3/6 data=0x3a373431 strb=0xf last=0
# UVM_INFO ../10_tb/seq/ahb_slv_seq/ahb_slv_response_mapping_seq.sv(54) @ 475000: uvm_test_top.env.ahb_agent.sqr@@ahb_seq [ahb_slv_response_mapping_seq] [RSP][AHB] AHB_WRITE addr=0x56ec resp=AHB_RESP_OKAY waits=0
# UVM_INFO ../10_tb/ahb_slv/ahb_slv_driver.sv(201) @ 485000: uvm_test_top.env.ahb_agent.drv [ahb_slv_driver] [DRV][AHB][RSP] AHB_WRITE addr=0x56ec data=0x3a373431 resp=AHB_RESP_OKAY ready_delay=0
# UVM_INFO ../10_tb/ahb_slv/ahb_slv_monitor.sv(119) @ 485000: uvm_test_top.env.ahb_agent.mon [ahb_slv_monitor] [MON][AHB][TR] AHB AHB_WRITE addr=0x56ec trans=AHB_TRANS_SEQ burst=AHB_BURST_INCR size=4B mastlock=0 resp=AHB_RESP_OKAY waits=0 | data=0x3a373431
# UVM_INFO ../10_tb/ahb_slv/ahb_slv_driver.sv(87) @ 495000: uvm_test_top.env.ahb_agent.drv [ahb_slv_driver] [DRV][AHB][REQ] AHB_WRITE addr=0x56f0 trans=AHB_TRANS_SEQ burst=AHB_BURST_INCR size=4B
# UVM_INFO ../10_tb/axi4_mst/axi4_mst_driver.sv(204) @ 495000: uvm_test_top.env.axi_agent.drv [axi4_mst_driver] [DRV][AXI][W] id=0xe beat=4/6 data=0x3f3c3936 strb=0xf last=0
# UVM_INFO ../10_tb/seq/ahb_slv_seq/ahb_slv_response_mapping_seq.sv(54) @ 495000: uvm_test_top.env.ahb_agent.sqr@@ahb_seq [ahb_slv_response_mapping_seq] [RSP][AHB] AHB_WRITE addr=0x56f0 resp=AHB_RESP_OKAY waits=0
# UVM_INFO ../10_tb/ahb_slv/ahb_slv_driver.sv(201) @ 505000: uvm_test_top.env.ahb_agent.drv [ahb_slv_driver] [DRV][AHB][RSP] AHB_WRITE addr=0x56f0 data=0x3f3c3936 resp=AHB_RESP_OKAY ready_delay=0
# UVM_INFO ../10_tb/ahb_slv/ahb_slv_monitor.sv(119) @ 505000: uvm_test_top.env.ahb_agent.mon [ahb_slv_monitor] [MON][AHB][TR] AHB AHB_WRITE addr=0x56f0 trans=AHB_TRANS_SEQ burst=AHB_BURST_INCR size=4B mastlock=0 resp=AHB_RESP_OKAY waits=0 | data=0x3f3c3936
# UVM_INFO ../10_tb/ahb_slv/ahb_slv_driver.sv(87) @ 515000: uvm_test_top.env.ahb_agent.drv [ahb_slv_driver] [DRV][AHB][REQ] AHB_WRITE addr=0x56f4 trans=AHB_TRANS_SEQ burst=AHB_BURST_INCR size=4B
# UVM_INFO ../10_tb/axi4_mst/axi4_mst_driver.sv(204) @ 515000: uvm_test_top.env.axi_agent.drv [axi4_mst_driver] [DRV][AXI][W] id=0xe beat=5/6 data=0x44413e3b strb=0xf last=0
# UVM_INFO ../10_tb/seq/ahb_slv_seq/ahb_slv_response_mapping_seq.sv(54) @ 515000: uvm_test_top.env.ahb_agent.sqr@@ahb_seq [ahb_slv_response_mapping_seq] [RSP][AHB] AHB_WRITE addr=0x56f4 resp=AHB_RESP_ERROR waits=0
# UVM_INFO ../10_tb/ahb_slv/ahb_slv_driver.sv(201) @ 535000: uvm_test_top.env.ahb_agent.drv [ahb_slv_driver] [DRV][AHB][RSP] AHB_WRITE addr=0x56f4 data=0x44413e3b resp=AHB_RESP_ERROR ready_delay=0
# UVM_INFO ../10_tb/ahb_slv/ahb_slv_monitor.sv(119) @ 535000: uvm_test_top.env.ahb_agent.mon [ahb_slv_monitor] [MON][AHB][TR] AHB AHB_WRITE addr=0x56f4 trans=AHB_TRANS_SEQ burst=AHB_BURST_INCR size=4B mastlock=0 resp=AHB_RESP_ERROR waits=1 | data=0x44413e3b
# UVM_INFO ../10_tb/ahb_slv/ahb_slv_driver.sv(87) @ 545000: uvm_test_top.env.ahb_agent.drv [ahb_slv_driver] [DRV][AHB][REQ] AHB_WRITE addr=0x56f8 trans=AHB_TRANS_SEQ burst=AHB_BURST_INCR size=4B
# UVM_INFO ../10_tb/axi4_mst/axi4_mst_driver.sv(204) @ 545000: uvm_test_top.env.axi_agent.drv [axi4_mst_driver] [DRV][AXI][W] id=0xe beat=6/6 data=0x49464340 strb=0xf last=1
# UVM_INFO ../10_tb/seq/ahb_slv_seq/ahb_slv_response_mapping_seq.sv(54) @ 545000: uvm_test_top.env.ahb_agent.sqr@@ahb_seq [ahb_slv_response_mapping_seq] [RSP][AHB] AHB_WRITE addr=0x56f8 resp=AHB_RESP_OKAY waits=3
# UVM_INFO ../10_tb/axi4_mst/axi4_mst_monitor.sv(151) @ 545000: uvm_test_top.env.axi_agent.mon [axi4_mst_monitor] [MON][AXI][REQ] AXI4 AXI4_WRITE id=0xe addr=0x56e4 burst=AXI4_BURST_INCR beats=6 size=4B lock=0
# UVM_INFO ../10_tb/env/predictor.sv(84) @ 545000: uvm_test_top.env.pred [predictor] [PRED][AXI][IN] AXI4 AXI4_WRITE id=0xe addr=0x56e4 burst=AXI4_BURST_INCR beats=6 size=4B lock=0 | queued=1
# UVM_INFO ../10_tb/env/predictor.sv(155) @ 545000: uvm_test_top.env.pred [predictor] [PRED][MAP] AXI4 AXI4_WRITE id=0xe addr=0x56e4 burst=AXI4_BURST_INCR beats=6 size=4B lock=0 -> AHB burst=AHB_BURST_INCR size=4B crosses_1kb=0
# UVM_INFO ../10_tb/env/predictor.sv(186) @ 545000: uvm_test_top.env.pred [predictor] [PRED][AHB] beat=1/6 | AHB AHB_WRITE addr=0x56e4 trans=AHB_TRANS_NONSEQ burst=AHB_BURST_INCR size=4B mastlock=0 resp=AHB_RESP_OKAY waits=0 | wdata=0x302d2a27
# UVM_INFO ../10_tb/env/scoreboard.sv(359) @ 545000: uvm_test_top.env.scb [scoreboard] [SCB][AHB][PASS] AHB AHB_WRITE addr=0x56e4 trans=AHB_TRANS_NONSEQ burst=AHB_BURST_INCR size=4B mastlock=0 resp=AHB_RESP_OKAY waits=0 | data=0x302d2a27 | total=7
# UVM_INFO ../10_tb/env/predictor.sv(186) @ 545000: uvm_test_top.env.pred [predictor] [PRED][AHB] beat=2/6 | AHB AHB_WRITE addr=0x56e8 trans=AHB_TRANS_SEQ burst=AHB_BURST_INCR size=4B mastlock=0 resp=AHB_RESP_OKAY waits=0 | wdata=0x35322f2c
# UVM_INFO ../10_tb/env/scoreboard.sv(359) @ 545000: uvm_test_top.env.scb [scoreboard] [SCB][AHB][PASS] AHB AHB_WRITE addr=0x56e8 trans=AHB_TRANS_SEQ burst=AHB_BURST_INCR size=4B mastlock=0 resp=AHB_RESP_ERROR waits=2 | data=0x35322f2c | total=8
# UVM_INFO ../10_tb/env/predictor.sv(186) @ 545000: uvm_test_top.env.pred [predictor] [PRED][AHB] beat=3/6 | AHB AHB_WRITE addr=0x56ec trans=AHB_TRANS_SEQ burst=AHB_BURST_INCR size=4B mastlock=0 resp=AHB_RESP_OKAY waits=0 | wdata=0x3a373431
# UVM_INFO ../10_tb/env/scoreboard.sv(359) @ 545000: uvm_test_top.env.scb [scoreboard] [SCB][AHB][PASS] AHB AHB_WRITE addr=0x56ec trans=AHB_TRANS_SEQ burst=AHB_BURST_INCR size=4B mastlock=0 resp=AHB_RESP_OKAY waits=0 | data=0x3a373431 | total=9
# UVM_INFO ../10_tb/env/predictor.sv(186) @ 545000: uvm_test_top.env.pred [predictor] [PRED][AHB] beat=4/6 | AHB AHB_WRITE addr=0x56f0 trans=AHB_TRANS_SEQ burst=AHB_BURST_INCR size=4B mastlock=0 resp=AHB_RESP_OKAY waits=0 | wdata=0x3f3c3936
# UVM_INFO ../10_tb/env/scoreboard.sv(359) @ 545000: uvm_test_top.env.scb [scoreboard] [SCB][AHB][PASS] AHB AHB_WRITE addr=0x56f0 trans=AHB_TRANS_SEQ burst=AHB_BURST_INCR size=4B mastlock=0 resp=AHB_RESP_OKAY waits=0 | data=0x3f3c3936 | total=10
# UVM_INFO ../10_tb/env/predictor.sv(186) @ 545000: uvm_test_top.env.pred [predictor] [PRED][AHB] beat=5/6 | AHB AHB_WRITE addr=0x56f4 trans=AHB_TRANS_SEQ burst=AHB_BURST_INCR size=4B mastlock=0 resp=AHB_RESP_OKAY waits=0 | wdata=0x44413e3b
# UVM_INFO ../10_tb/env/scoreboard.sv(359) @ 545000: uvm_test_top.env.scb [scoreboard] [SCB][AHB][PASS] AHB AHB_WRITE addr=0x56f4 trans=AHB_TRANS_SEQ burst=AHB_BURST_INCR size=4B mastlock=0 resp=AHB_RESP_ERROR waits=1 | data=0x44413e3b | total=11
# UVM_INFO ../10_tb/env/predictor.sv(186) @ 545000: uvm_test_top.env.pred [predictor] [PRED][AHB] beat=6/6 | AHB AHB_WRITE addr=0x56f8 trans=AHB_TRANS_SEQ burst=AHB_BURST_INCR size=4B mastlock=0 resp=AHB_RESP_OKAY waits=0 | wdata=0x49464340
# UVM_INFO ../10_tb/ahb_slv/ahb_slv_driver.sv(201) @ 585000: uvm_test_top.env.ahb_agent.drv [ahb_slv_driver] [DRV][AHB][RSP] AHB_WRITE addr=0x56f8 data=0x49464340 resp=AHB_RESP_OKAY ready_delay=3
# UVM_INFO ../10_tb/ahb_slv/ahb_slv_monitor.sv(119) @ 585000: uvm_test_top.env.ahb_agent.mon [ahb_slv_monitor] [MON][AHB][TR] AHB AHB_WRITE addr=0x56f8 trans=AHB_TRANS_SEQ burst=AHB_BURST_INCR size=4B mastlock=0 resp=AHB_RESP_OKAY waits=3 | data=0x49464340
# UVM_INFO ../10_tb/env/scoreboard.sv(359) @ 585000: uvm_test_top.env.scb [scoreboard] [SCB][AHB][PASS] AHB AHB_WRITE addr=0x56f8 trans=AHB_TRANS_SEQ burst=AHB_BURST_INCR size=4B mastlock=0 resp=AHB_RESP_OKAY waits=3 | data=0x49464340 | total=12
# UVM_INFO ../10_tb/axi4_mst/axi4_mst_driver.sv(286) @ 625000: uvm_test_top.env.axi_agent.drv [axi4_mst_driver] [DRV][AXI][B] id=0xe resp=AXI4_RESP_SLVERR
# UVM_INFO ../10_tb/axi4_mst/axi4_mst_monitor.sv(177) @ 625000: uvm_test_top.env.axi_agent.mon [axi4_mst_monitor] [MON][AXI][RSP] WRITE id=0xe resp=AXI4_RESP_SLVERR
# UVM_INFO ../10_tb/env/scoreboard.sv(499) @ 625000: uvm_test_top.env.scb [scoreboard] [SCB][AXI][PASS] AXI4 AXI4_WRITE id=0xe addr=0x56e4 burst=AXI4_BURST_INCR beats=6 size=4B lock=0 | bresp=AXI4_RESP_SLVERR | total=2
# UVM_INFO ../10_tb/axi4_mst/axi4_mst_driver.sv(105) @ 625000: uvm_test_top.env.axi_agent.drv [axi4_mst_driver] [DRV][AXI][REQ] AXI4 AXI4_READ id=0xa addr=0x6a28 burst=AXI4_BURST_FIXED beats=14 size=4B lock=0 | outstanding=1
# UVM_INFO ../10_tb/axi4_mst/axi4_mst_driver.sv(261) @ 655000: uvm_test_top.env.axi_agent.drv [axi4_mst_driver] [DRV][AXI][AR] id=0xa addr=0x6a28 burst=AXI4_BURST_FIXED beats=14 size=4B
# UVM_INFO ../10_tb/axi4_mst/axi4_mst_monitor.sv(211) @ 655000: uvm_test_top.env.axi_agent.mon [axi4_mst_monitor] [MON][AXI][REQ] AXI4 AXI4_READ id=0xa addr=0x6a28 burst=AXI4_BURST_FIXED beats=14 size=4B lock=0
# UVM_INFO ../10_tb/env/predictor.sv(84) @ 655000: uvm_test_top.env.pred [predictor] [PRED][AXI][IN] AXI4 AXI4_READ id=0xa addr=0x6a28 burst=AXI4_BURST_FIXED beats=14 size=4B lock=0 | queued=1
# UVM_INFO ../10_tb/env/predictor.sv(155) @ 655000: uvm_test_top.env.pred [predictor] [PRED][MAP] AXI4 AXI4_READ id=0xa addr=0x6a28 burst=AXI4_BURST_FIXED beats=14 size=4B lock=0 -> AHB burst=AHB_BURST_SINGLE size=4B crosses_1kb=0
# UVM_INFO ../10_tb/env/predictor.sv(192) @ 655000: uvm_test_top.env.pred [predictor] [PRED][AHB] beat=1/14 | AHB AHB_READ addr=0x6a28 trans=AHB_TRANS_NONSEQ burst=AHB_BURST_SINGLE size=4B mastlock=0 resp=AHB_RESP_OKAY waits=0
# UVM_INFO ../10_tb/env/predictor.sv(192) @ 655000: uvm_test_top.env.pred [predictor] [PRED][AHB] beat=2/14 | AHB AHB_READ addr=0x6a28 trans=AHB_TRANS_NONSEQ burst=AHB_BURST_SINGLE size=4B mastlock=0 resp=AHB_RESP_OKAY waits=0
# UVM_INFO ../10_tb/env/predictor.sv(192) @ 655000: uvm_test_top.env.pred [predictor] [PRED][AHB] beat=3/14 | AHB AHB_READ addr=0x6a28 trans=AHB_TRANS_NONSEQ burst=AHB_BURST_SINGLE size=4B mastlock=0 resp=AHB_RESP_OKAY waits=0
# UVM_INFO ../10_tb/env/predictor.sv(192) @ 655000: uvm_test_top.env.pred [predictor] [PRED][AHB] beat=4/14 | AHB AHB_READ addr=0x6a28 trans=AHB_TRANS_NONSEQ burst=AHB_BURST_SINGLE size=4B mastlock=0 resp=AHB_RESP_OKAY waits=0
# UVM_INFO ../10_tb/env/predictor.sv(192) @ 655000: uvm_test_top.env.pred [predictor] [PRED][AHB] beat=5/14 | AHB AHB_READ addr=0x6a28 trans=AHB_TRANS_NONSEQ burst=AHB_BURST_SINGLE size=4B mastlock=0 resp=AHB_RESP_OKAY waits=0
# UVM_INFO ../10_tb/env/predictor.sv(192) @ 655000: uvm_test_top.env.pred [predictor] [PRED][AHB] beat=6/14 | AHB AHB_READ addr=0x6a28 trans=AHB_TRANS_NONSEQ burst=AHB_BURST_SINGLE size=4B mastlock=0 resp=AHB_RESP_OKAY waits=0
# UVM_INFO ../10_tb/env/predictor.sv(192) @ 655000: uvm_test_top.env.pred [predictor] [PRED][AHB] beat=7/14 | AHB AHB_READ addr=0x6a28 trans=AHB_TRANS_NONSEQ burst=AHB_BURST_SINGLE size=4B mastlock=0 resp=AHB_RESP_OKAY waits=0
# UVM_INFO ../10_tb/env/predictor.sv(192) @ 655000: uvm_test_top.env.pred [predictor] [PRED][AHB] beat=8/14 | AHB AHB_READ addr=0x6a28 trans=AHB_TRANS_NONSEQ burst=AHB_BURST_SINGLE size=4B mastlock=0 resp=AHB_RESP_OKAY waits=0
# UVM_INFO ../10_tb/env/predictor.sv(192) @ 655000: uvm_test_top.env.pred [predictor] [PRED][AHB] beat=9/14 | AHB AHB_READ addr=0x6a28 trans=AHB_TRANS_NONSEQ burst=AHB_BURST_SINGLE size=4B mastlock=0 resp=AHB_RESP_OKAY waits=0
# UVM_INFO ../10_tb/env/predictor.sv(192) @ 655000: uvm_test_top.env.pred [predictor] [PRED][AHB] beat=10/14 | AHB AHB_READ addr=0x6a28 trans=AHB_TRANS_NONSEQ burst=AHB_BURST_SINGLE size=4B mastlock=0 resp=AHB_RESP_OKAY waits=0
# UVM_INFO ../10_tb/env/predictor.sv(192) @ 655000: uvm_test_top.env.pred [predictor] [PRED][AHB] beat=11/14 | AHB AHB_READ addr=0x6a28 trans=AHB_TRANS_NONSEQ burst=AHB_BURST_SINGLE size=4B mastlock=0 resp=AHB_RESP_OKAY waits=0
# UVM_INFO ../10_tb/env/predictor.sv(192) @ 655000: uvm_test_top.env.pred [predictor] [PRED][AHB] beat=12/14 | AHB AHB_READ addr=0x6a28 trans=AHB_TRANS_NONSEQ burst=AHB_BURST_SINGLE size=4B mastlock=0 resp=AHB_RESP_OKAY waits=0
# UVM_INFO ../10_tb/env/predictor.sv(192) @ 655000: uvm_test_top.env.pred [predictor] [PRED][AHB] beat=13/14 | AHB AHB_READ addr=0x6a28 trans=AHB_TRANS_NONSEQ burst=AHB_BURST_SINGLE size=4B mastlock=0 resp=AHB_RESP_OKAY waits=0
# UVM_INFO ../10_tb/env/predictor.sv(192) @ 655000: uvm_test_top.env.pred [predictor] [PRED][AHB] beat=14/14 | AHB AHB_READ addr=0x6a28 trans=AHB_TRANS_NONSEQ burst=AHB_BURST_SINGLE size=4B mastlock=0 resp=AHB_RESP_OKAY waits=0
# UVM_INFO ../10_tb/ahb_slv/ahb_slv_driver.sv(87) @ 665000: uvm_test_top.env.ahb_agent.drv [ahb_slv_driver] [DRV][AHB][REQ] AHB_READ addr=0x6a28 trans=AHB_TRANS_NONSEQ burst=AHB_BURST_SINGLE size=4B
# UVM_INFO ../10_tb/seq/ahb_slv_seq/ahb_slv_response_mapping_seq.sv(54) @ 665000: uvm_test_top.env.ahb_agent.sqr@@ahb_seq [ahb_slv_response_mapping_seq] [RSP][AHB] AHB_READ addr=0x6a28 resp=AHB_RESP_OKAY waits=0
# UVM_INFO ../10_tb/ahb_slv/ahb_slv_driver.sv(201) @ 675000: uvm_test_top.env.ahb_agent.drv [ahb_slv_driver] [DRV][AHB][RSP] AHB_READ addr=0x6a28 data=0xffff95d7 resp=AHB_RESP_OKAY ready_delay=0
# UVM_INFO ../10_tb/ahb_slv/ahb_slv_monitor.sv(119) @ 675000: uvm_test_top.env.ahb_agent.mon [ahb_slv_monitor] [MON][AHB][TR] AHB AHB_READ addr=0x6a28 trans=AHB_TRANS_NONSEQ burst=AHB_BURST_SINGLE size=4B mastlock=0 resp=AHB_RESP_OKAY waits=0 | data=0xffff95d7
# UVM_INFO ../10_tb/env/scoreboard.sv(359) @ 675000: uvm_test_top.env.scb [scoreboard] [SCB][AHB][PASS] AHB AHB_READ addr=0x6a28 trans=AHB_TRANS_NONSEQ burst=AHB_BURST_SINGLE size=4B mastlock=0 resp=AHB_RESP_OKAY waits=0 | data=0xffff95d7 | total=13
# UVM_INFO ../10_tb/ahb_slv/ahb_slv_driver.sv(87) @ 685000: uvm_test_top.env.ahb_agent.drv [ahb_slv_driver] [DRV][AHB][REQ] AHB_READ addr=0x6a28 trans=AHB_TRANS_NONSEQ burst=AHB_BURST_SINGLE size=4B
# UVM_INFO ../10_tb/seq/ahb_slv_seq/ahb_slv_response_mapping_seq.sv(54) @ 685000: uvm_test_top.env.ahb_agent.sqr@@ahb_seq [ahb_slv_response_mapping_seq] [RSP][AHB] AHB_READ addr=0x6a28 resp=AHB_RESP_OKAY waits=0
# UVM_INFO ../10_tb/ahb_slv/ahb_slv_driver.sv(201) @ 695000: uvm_test_top.env.ahb_agent.drv [ahb_slv_driver] [DRV][AHB][RSP] AHB_READ addr=0x6a28 data=0xffff95d7 resp=AHB_RESP_OKAY ready_delay=0
# UVM_INFO ../10_tb/ahb_slv/ahb_slv_monitor.sv(119) @ 695000: uvm_test_top.env.ahb_agent.mon [ahb_slv_monitor] [MON][AHB][TR] AHB AHB_READ addr=0x6a28 trans=AHB_TRANS_NONSEQ burst=AHB_BURST_SINGLE size=4B mastlock=0 resp=AHB_RESP_OKAY waits=0 | data=0xffff95d7
# UVM_INFO ../10_tb/env/scoreboard.sv(359) @ 695000: uvm_test_top.env.scb [scoreboard] [SCB][AHB][PASS] AHB AHB_READ addr=0x6a28 trans=AHB_TRANS_NONSEQ burst=AHB_BURST_SINGLE size=4B mastlock=0 resp=AHB_RESP_OKAY waits=0 | data=0xffff95d7 | total=14
# UVM_INFO ../10_tb/ahb_slv/ahb_slv_driver.sv(87) @ 705000: uvm_test_top.env.ahb_agent.drv [ahb_slv_driver] [DRV][AHB][REQ] AHB_READ addr=0x6a28 trans=AHB_TRANS_NONSEQ burst=AHB_BURST_SINGLE size=4B
# UVM_INFO ../10_tb/seq/ahb_slv_seq/ahb_slv_response_mapping_seq.sv(54) @ 705000: uvm_test_top.env.ahb_agent.sqr@@ahb_seq [ahb_slv_response_mapping_seq] [RSP][AHB] AHB_READ addr=0x6a28 resp=AHB_RESP_OKAY waits=0
# UVM_INFO ../10_tb/ahb_slv/ahb_slv_driver.sv(201) @ 715000: uvm_test_top.env.ahb_agent.drv [ahb_slv_driver] [DRV][AHB][RSP] AHB_READ addr=0x6a28 data=0xffff95d7 resp=AHB_RESP_OKAY ready_delay=0
# UVM_INFO ../10_tb/ahb_slv/ahb_slv_monitor.sv(119) @ 715000: uvm_test_top.env.ahb_agent.mon [ahb_slv_monitor] [MON][AHB][TR] AHB AHB_READ addr=0x6a28 trans=AHB_TRANS_NONSEQ burst=AHB_BURST_SINGLE size=4B mastlock=0 resp=AHB_RESP_OKAY waits=0 | data=0xffff95d7
# UVM_INFO ../10_tb/env/scoreboard.sv(359) @ 715000: uvm_test_top.env.scb [scoreboard] [SCB][AHB][PASS] AHB AHB_READ addr=0x6a28 trans=AHB_TRANS_NONSEQ burst=AHB_BURST_SINGLE size=4B mastlock=0 resp=AHB_RESP_OKAY waits=0 | data=0xffff95d7 | total=15
# UVM_INFO ../10_tb/axi4_mst/axi4_mst_driver.sv(326) @ 715000: uvm_test_top.env.axi_agent.drv [axi4_mst_driver] [DRV][AXI][R] id=0xa beat=1/14 data=0xffff95d7 resp=AXI4_RESP_OKAY last=0
# UVM_INFO ../10_tb/axi4_mst/axi4_mst_monitor.sv(256) @ 715000: uvm_test_top.env.axi_agent.mon [axi4_mst_monitor] [MON][AXI][R] id=0xa beat=1/14 data=0xffff95d7 resp=AXI4_RESP_OKAY last=0
# UVM_INFO ../10_tb/ahb_slv/ahb_slv_driver.sv(87) @ 735000: uvm_test_top.env.ahb_agent.drv [ahb_slv_driver] [DRV][AHB][REQ] AHB_READ addr=0x6a28 trans=AHB_TRANS_NONSEQ burst=AHB_BURST_SINGLE size=4B
# UVM_INFO ../10_tb/seq/ahb_slv_seq/ahb_slv_response_mapping_seq.sv(54) @ 735000: uvm_test_top.env.ahb_agent.sqr@@ahb_seq [ahb_slv_response_mapping_seq] [RSP][AHB] AHB_READ addr=0x6a28 resp=AHB_RESP_OKAY waits=0
# UVM_INFO ../10_tb/ahb_slv/ahb_slv_driver.sv(201) @ 745000: uvm_test_top.env.ahb_agent.drv [ahb_slv_driver] [DRV][AHB][RSP] AHB_READ addr=0x6a28 data=0xffff95d7 resp=AHB_RESP_OKAY ready_delay=0
# UVM_INFO ../10_tb/ahb_slv/ahb_slv_monitor.sv(119) @ 745000: uvm_test_top.env.ahb_agent.mon [ahb_slv_monitor] [MON][AHB][TR] AHB AHB_READ addr=0x6a28 trans=AHB_TRANS_NONSEQ burst=AHB_BURST_SINGLE size=4B mastlock=0 resp=AHB_RESP_OKAY waits=0 | data=0xffff95d7
# UVM_INFO ../10_tb/env/scoreboard.sv(359) @ 745000: uvm_test_top.env.scb [scoreboard] [SCB][AHB][PASS] AHB AHB_READ addr=0x6a28 trans=AHB_TRANS_NONSEQ burst=AHB_BURST_SINGLE size=4B mastlock=0 resp=AHB_RESP_OKAY waits=0 | data=0xffff95d7 | total=16
# UVM_INFO ../10_tb/axi4_mst/axi4_mst_driver.sv(326) @ 745000: uvm_test_top.env.axi_agent.drv [axi4_mst_driver] [DRV][AXI][R] id=0xa beat=2/14 data=0xffff95d7 resp=AXI4_RESP_OKAY last=0
# UVM_INFO ../10_tb/axi4_mst/axi4_mst_monitor.sv(256) @ 745000: uvm_test_top.env.axi_agent.mon [axi4_mst_monitor] [MON][AXI][R] id=0xa beat=2/14 data=0xffff95d7 resp=AXI4_RESP_OKAY last=0
# UVM_INFO ../10_tb/ahb_slv/ahb_slv_driver.sv(87) @ 765000: uvm_test_top.env.ahb_agent.drv [ahb_slv_driver] [DRV][AHB][REQ] AHB_READ addr=0x6a28 trans=AHB_TRANS_NONSEQ burst=AHB_BURST_SINGLE size=4B
# UVM_INFO ../10_tb/seq/ahb_slv_seq/ahb_slv_response_mapping_seq.sv(54) @ 765000: uvm_test_top.env.ahb_agent.sqr@@ahb_seq [ahb_slv_response_mapping_seq] [RSP][AHB] AHB_READ addr=0x6a28 resp=AHB_RESP_OKAY waits=0
# UVM_INFO ../10_tb/ahb_slv/ahb_slv_driver.sv(201) @ 775000: uvm_test_top.env.ahb_agent.drv [ahb_slv_driver] [DRV][AHB][RSP] AHB_READ addr=0x6a28 data=0xffff95d7 resp=AHB_RESP_OKAY ready_delay=0
# UVM_INFO ../10_tb/ahb_slv/ahb_slv_monitor.sv(119) @ 775000: uvm_test_top.env.ahb_agent.mon [ahb_slv_monitor] [MON][AHB][TR] AHB AHB_READ addr=0x6a28 trans=AHB_TRANS_NONSEQ burst=AHB_BURST_SINGLE size=4B mastlock=0 resp=AHB_RESP_OKAY waits=0 | data=0xffff95d7
# UVM_INFO ../10_tb/env/scoreboard.sv(359) @ 775000: uvm_test_top.env.scb [scoreboard] [SCB][AHB][PASS] AHB AHB_READ addr=0x6a28 trans=AHB_TRANS_NONSEQ burst=AHB_BURST_SINGLE size=4B mastlock=0 resp=AHB_RESP_OKAY waits=0 | data=0xffff95d7 | total=17
# UVM_INFO ../10_tb/axi4_mst/axi4_mst_driver.sv(326) @ 785000: uvm_test_top.env.axi_agent.drv [axi4_mst_driver] [DRV][AXI][R] id=0xa beat=3/14 data=0xffff95d7 resp=AXI4_RESP_OKAY last=0
# UVM_INFO ../10_tb/axi4_mst/axi4_mst_monitor.sv(256) @ 785000: uvm_test_top.env.axi_agent.mon [axi4_mst_monitor] [MON][AXI][R] id=0xa beat=3/14 data=0xffff95d7 resp=AXI4_RESP_OKAY last=0
# UVM_INFO ../10_tb/ahb_slv/ahb_slv_driver.sv(87) @ 805000: uvm_test_top.env.ahb_agent.drv [ahb_slv_driver] [DRV][AHB][REQ] AHB_READ addr=0x6a28 trans=AHB_TRANS_NONSEQ burst=AHB_BURST_SINGLE size=4B
# UVM_INFO ../10_tb/seq/ahb_slv_seq/ahb_slv_response_mapping_seq.sv(54) @ 805000: uvm_test_top.env.ahb_agent.sqr@@ahb_seq [ahb_slv_response_mapping_seq] [RSP][AHB] AHB_READ addr=0x6a28 resp=AHB_RESP_ERROR waits=0
# UVM_INFO ../10_tb/axi4_mst/axi4_mst_driver.sv(326) @ 815000: uvm_test_top.env.axi_agent.drv [axi4_mst_driver] [DRV][AXI][R] id=0xa beat=4/14 data=0xffff95d7 resp=AXI4_RESP_OKAY last=0
# UVM_INFO ../10_tb/axi4_mst/axi4_mst_monitor.sv(256) @ 815000: uvm_test_top.env.axi_agent.mon [axi4_mst_monitor] [MON][AXI][R] id=0xa beat=4/14 data=0xffff95d7 resp=AXI4_RESP_OKAY last=0
# UVM_INFO ../10_tb/ahb_slv/ahb_slv_driver.sv(201) @ 825000: uvm_test_top.env.ahb_agent.drv [ahb_slv_driver] [DRV][AHB][RSP] AHB_READ addr=0x6a28 data=0xffff95d7 resp=AHB_RESP_ERROR ready_delay=0
# UVM_INFO ../10_tb/ahb_slv/ahb_slv_monitor.sv(119) @ 825000: uvm_test_top.env.ahb_agent.mon [ahb_slv_monitor] [MON][AHB][TR] AHB AHB_READ addr=0x6a28 trans=AHB_TRANS_NONSEQ burst=AHB_BURST_SINGLE size=4B mastlock=0 resp=AHB_RESP_ERROR waits=1 | data=0xffff95d7
# UVM_INFO ../10_tb/env/scoreboard.sv(359) @ 825000: uvm_test_top.env.scb [scoreboard] [SCB][AHB][PASS] AHB AHB_READ addr=0x6a28 trans=AHB_TRANS_NONSEQ burst=AHB_BURST_SINGLE size=4B mastlock=0 resp=AHB_RESP_ERROR waits=1 | data=0xffff95d7 | total=18
# UVM_INFO ../10_tb/ahb_slv/ahb_slv_driver.sv(87) @ 835000: uvm_test_top.env.ahb_agent.drv [ahb_slv_driver] [DRV][AHB][REQ] AHB_READ addr=0x6a28 trans=AHB_TRANS_NONSEQ burst=AHB_BURST_SINGLE size=4B
# UVM_INFO ../10_tb/seq/ahb_slv_seq/ahb_slv_response_mapping_seq.sv(54) @ 835000: uvm_test_top.env.ahb_agent.sqr@@ahb_seq [ahb_slv_response_mapping_seq] [RSP][AHB] AHB_READ addr=0x6a28 resp=AHB_RESP_OKAY waits=3
# UVM_INFO ../10_tb/axi4_mst/axi4_mst_driver.sv(326) @ 845000: uvm_test_top.env.axi_agent.drv [axi4_mst_driver] [DRV][AXI][R] id=0xa beat=5/14 data=0xffff95d7 resp=AXI4_RESP_OKAY last=0
# UVM_INFO ../10_tb/axi4_mst/axi4_mst_monitor.sv(256) @ 845000: uvm_test_top.env.axi_agent.mon [axi4_mst_monitor] [MON][AXI][R] id=0xa beat=5/14 data=0xffff95d7 resp=AXI4_RESP_OKAY last=0
# UVM_INFO ../10_tb/axi4_mst/axi4_mst_driver.sv(326) @ 865000: uvm_test_top.env.axi_agent.drv [axi4_mst_driver] [DRV][AXI][R] id=0xa beat=6/14 data=0xffff95d7 resp=AXI4_RESP_SLVERR last=0
# UVM_INFO ../10_tb/axi4_mst/axi4_mst_monitor.sv(256) @ 865000: uvm_test_top.env.axi_agent.mon [axi4_mst_monitor] [MON][AXI][R] id=0xa beat=6/14 data=0xffff95d7 resp=AXI4_RESP_SLVERR last=0
# UVM_INFO ../10_tb/ahb_slv/ahb_slv_driver.sv(201) @ 875000: uvm_test_top.env.ahb_agent.drv [ahb_slv_driver] [DRV][AHB][RSP] AHB_READ addr=0x6a28 data=0xffff95d7 resp=AHB_RESP_OKAY ready_delay=3
# UVM_INFO ../10_tb/ahb_slv/ahb_slv_monitor.sv(119) @ 875000: uvm_test_top.env.ahb_agent.mon [ahb_slv_monitor] [MON][AHB][TR] AHB AHB_READ addr=0x6a28 trans=AHB_TRANS_NONSEQ burst=AHB_BURST_SINGLE size=4B mastlock=0 resp=AHB_RESP_OKAY waits=3 | data=0xffff95d7
# UVM_INFO ../10_tb/env/scoreboard.sv(359) @ 875000: uvm_test_top.env.scb [scoreboard] [SCB][AHB][PASS] AHB AHB_READ addr=0x6a28 trans=AHB_TRANS_NONSEQ burst=AHB_BURST_SINGLE size=4B mastlock=0 resp=AHB_RESP_OKAY waits=3 | data=0xffff95d7 | total=19
# UVM_INFO ../10_tb/ahb_slv/ahb_slv_driver.sv(87) @ 885000: uvm_test_top.env.ahb_agent.drv [ahb_slv_driver] [DRV][AHB][REQ] AHB_READ addr=0x6a28 trans=AHB_TRANS_NONSEQ burst=AHB_BURST_SINGLE size=4B
# UVM_INFO ../10_tb/seq/ahb_slv_seq/ahb_slv_response_mapping_seq.sv(54) @ 885000: uvm_test_top.env.ahb_agent.sqr@@ahb_seq [ahb_slv_response_mapping_seq] [RSP][AHB] AHB_READ addr=0x6a28 resp=AHB_RESP_OKAY waits=0
# UVM_INFO ../10_tb/ahb_slv/ahb_slv_driver.sv(201) @ 895000: uvm_test_top.env.ahb_agent.drv [ahb_slv_driver] [DRV][AHB][RSP] AHB_READ addr=0x6a28 data=0xffff95d7 resp=AHB_RESP_OKAY ready_delay=0
# UVM_INFO ../10_tb/ahb_slv/ahb_slv_monitor.sv(119) @ 895000: uvm_test_top.env.ahb_agent.mon [ahb_slv_monitor] [MON][AHB][TR] AHB AHB_READ addr=0x6a28 trans=AHB_TRANS_NONSEQ burst=AHB_BURST_SINGLE size=4B mastlock=0 resp=AHB_RESP_OKAY waits=0 | data=0xffff95d7
# UVM_INFO ../10_tb/env/scoreboard.sv(359) @ 895000: uvm_test_top.env.scb [scoreboard] [SCB][AHB][PASS] AHB AHB_READ addr=0x6a28 trans=AHB_TRANS_NONSEQ burst=AHB_BURST_SINGLE size=4B mastlock=0 resp=AHB_RESP_OKAY waits=0 | data=0xffff95d7 | total=20
# UVM_INFO ../10_tb/ahb_slv/ahb_slv_driver.sv(87) @ 905000: uvm_test_top.env.ahb_agent.drv [ahb_slv_driver] [DRV][AHB][REQ] AHB_READ addr=0x6a28 trans=AHB_TRANS_NONSEQ burst=AHB_BURST_SINGLE size=4B
# UVM_INFO ../10_tb/axi4_mst/axi4_mst_driver.sv(326) @ 905000: uvm_test_top.env.axi_agent.drv [axi4_mst_driver] [DRV][AXI][R] id=0xa beat=7/14 data=0xffff95d7 resp=AXI4_RESP_OKAY last=0
# UVM_INFO ../10_tb/axi4_mst/axi4_mst_monitor.sv(256) @ 905000: uvm_test_top.env.axi_agent.mon [axi4_mst_monitor] [MON][AXI][R] id=0xa beat=7/14 data=0xffff95d7 resp=AXI4_RESP_OKAY last=0
# UVM_INFO ../10_tb/seq/ahb_slv_seq/ahb_slv_response_mapping_seq.sv(54) @ 905000: uvm_test_top.env.ahb_agent.sqr@@ahb_seq [ahb_slv_response_mapping_seq] [RSP][AHB] AHB_READ addr=0x6a28 resp=AHB_RESP_OKAY waits=0
# UVM_INFO ../10_tb/ahb_slv/ahb_slv_driver.sv(201) @ 915000: uvm_test_top.env.ahb_agent.drv [ahb_slv_driver] [DRV][AHB][RSP] AHB_READ addr=0x6a28 data=0xffff95d7 resp=AHB_RESP_OKAY ready_delay=0
# UVM_INFO ../10_tb/ahb_slv/ahb_slv_monitor.sv(119) @ 915000: uvm_test_top.env.ahb_agent.mon [ahb_slv_monitor] [MON][AHB][TR] AHB AHB_READ addr=0x6a28 trans=AHB_TRANS_NONSEQ burst=AHB_BURST_SINGLE size=4B mastlock=0 resp=AHB_RESP_OKAY waits=0 | data=0xffff95d7
# UVM_INFO ../10_tb/env/scoreboard.sv(359) @ 915000: uvm_test_top.env.scb [scoreboard] [SCB][AHB][PASS] AHB AHB_READ addr=0x6a28 trans=AHB_TRANS_NONSEQ burst=AHB_BURST_SINGLE size=4B mastlock=0 resp=AHB_RESP_OKAY waits=0 | data=0xffff95d7 | total=21
# UVM_INFO ../10_tb/ahb_slv/ahb_slv_driver.sv(87) @ 925000: uvm_test_top.env.ahb_agent.drv [ahb_slv_driver] [DRV][AHB][REQ] AHB_READ addr=0x6a28 trans=AHB_TRANS_NONSEQ burst=AHB_BURST_SINGLE size=4B
# UVM_INFO ../10_tb/seq/ahb_slv_seq/ahb_slv_response_mapping_seq.sv(54) @ 925000: uvm_test_top.env.ahb_agent.sqr@@ahb_seq [ahb_slv_response_mapping_seq] [RSP][AHB] AHB_READ addr=0x6a28 resp=AHB_RESP_OKAY waits=3
# UVM_INFO ../10_tb/axi4_mst/axi4_mst_driver.sv(326) @ 945000: uvm_test_top.env.axi_agent.drv [axi4_mst_driver] [DRV][AXI][R] id=0xa beat=8/14 data=0xffff95d7 resp=AXI4_RESP_OKAY last=0
# UVM_INFO ../10_tb/axi4_mst/axi4_mst_monitor.sv(256) @ 945000: uvm_test_top.env.axi_agent.mon [axi4_mst_monitor] [MON][AXI][R] id=0xa beat=8/14 data=0xffff95d7 resp=AXI4_RESP_OKAY last=0
# UVM_INFO ../10_tb/ahb_slv/ahb_slv_driver.sv(201) @ 965000: uvm_test_top.env.ahb_agent.drv [ahb_slv_driver] [DRV][AHB][RSP] AHB_READ addr=0x6a28 data=0xffff95d7 resp=AHB_RESP_OKAY ready_delay=3
# UVM_INFO ../10_tb/ahb_slv/ahb_slv_monitor.sv(119) @ 965000: uvm_test_top.env.ahb_agent.mon [ahb_slv_monitor] [MON][AHB][TR] AHB AHB_READ addr=0x6a28 trans=AHB_TRANS_NONSEQ burst=AHB_BURST_SINGLE size=4B mastlock=0 resp=AHB_RESP_OKAY waits=3 | data=0xffff95d7
# UVM_INFO ../10_tb/env/scoreboard.sv(359) @ 965000: uvm_test_top.env.scb [scoreboard] [SCB][AHB][PASS] AHB AHB_READ addr=0x6a28 trans=AHB_TRANS_NONSEQ burst=AHB_BURST_SINGLE size=4B mastlock=0 resp=AHB_RESP_OKAY waits=3 | data=0xffff95d7 | total=22
# UVM_INFO ../10_tb/ahb_slv/ahb_slv_driver.sv(87) @ 975000: uvm_test_top.env.ahb_agent.drv [ahb_slv_driver] [DRV][AHB][REQ] AHB_READ addr=0x6a28 trans=AHB_TRANS_NONSEQ burst=AHB_BURST_SINGLE size=4B
# UVM_INFO ../10_tb/axi4_mst/axi4_mst_driver.sv(326) @ 975000: uvm_test_top.env.axi_agent.drv [axi4_mst_driver] [DRV][AXI][R] id=0xa beat=9/14 data=0xffff95d7 resp=AXI4_RESP_OKAY last=0
# UVM_INFO ../10_tb/axi4_mst/axi4_mst_monitor.sv(256) @ 975000: uvm_test_top.env.axi_agent.mon [axi4_mst_monitor] [MON][AXI][R] id=0xa beat=9/14 data=0xffff95d7 resp=AXI4_RESP_OKAY last=0
# UVM_INFO ../10_tb/seq/ahb_slv_seq/ahb_slv_response_mapping_seq.sv(54) @ 975000: uvm_test_top.env.ahb_agent.sqr@@ahb_seq [ahb_slv_response_mapping_seq] [RSP][AHB] AHB_READ addr=0x6a28 resp=AHB_RESP_OKAY waits=0
# UVM_INFO ../10_tb/ahb_slv/ahb_slv_driver.sv(201) @ 985000: uvm_test_top.env.ahb_agent.drv [ahb_slv_driver] [DRV][AHB][RSP] AHB_READ addr=0x6a28 data=0xffff95d7 resp=AHB_RESP_OKAY ready_delay=0
# UVM_INFO ../10_tb/ahb_slv/ahb_slv_monitor.sv(119) @ 985000: uvm_test_top.env.ahb_agent.mon [ahb_slv_monitor] [MON][AHB][TR] AHB AHB_READ addr=0x6a28 trans=AHB_TRANS_NONSEQ burst=AHB_BURST_SINGLE size=4B mastlock=0 resp=AHB_RESP_OKAY waits=0 | data=0xffff95d7
# UVM_INFO ../10_tb/env/scoreboard.sv(359) @ 985000: uvm_test_top.env.scb [scoreboard] [SCB][AHB][PASS] AHB AHB_READ addr=0x6a28 trans=AHB_TRANS_NONSEQ burst=AHB_BURST_SINGLE size=4B mastlock=0 resp=AHB_RESP_OKAY waits=0 | data=0xffff95d7 | total=23
# UVM_INFO ../10_tb/ahb_slv/ahb_slv_driver.sv(87) @ 995000: uvm_test_top.env.ahb_agent.drv [ahb_slv_driver] [DRV][AHB][REQ] AHB_READ addr=0x6a28 trans=AHB_TRANS_NONSEQ burst=AHB_BURST_SINGLE size=4B
# UVM_INFO ../10_tb/axi4_mst/axi4_mst_driver.sv(326) @ 995000: uvm_test_top.env.axi_agent.drv [axi4_mst_driver] [DRV][AXI][R] id=0xa beat=10/14 data=0xffff95d7 resp=AXI4_RESP_OKAY last=0
# UVM_INFO ../10_tb/axi4_mst/axi4_mst_monitor.sv(256) @ 995000: uvm_test_top.env.axi_agent.mon [axi4_mst_monitor] [MON][AXI][R] id=0xa beat=10/14 data=0xffff95d7 resp=AXI4_RESP_OKAY last=0
# UVM_INFO ../10_tb/seq/ahb_slv_seq/ahb_slv_response_mapping_seq.sv(54) @ 995000: uvm_test_top.env.ahb_agent.sqr@@ahb_seq [ahb_slv_response_mapping_seq] [RSP][AHB] AHB_READ addr=0x6a28 resp=AHB_RESP_OKAY waits=0
# UVM_INFO ../10_tb/ahb_slv/ahb_slv_driver.sv(201) @ 1005000: uvm_test_top.env.ahb_agent.drv [ahb_slv_driver] [DRV][AHB][RSP] AHB_READ addr=0x6a28 data=0xffff95d7 resp=AHB_RESP_OKAY ready_delay=0
# UVM_INFO ../10_tb/ahb_slv/ahb_slv_monitor.sv(119) @ 1005000: uvm_test_top.env.ahb_agent.mon [ahb_slv_monitor] [MON][AHB][TR] AHB AHB_READ addr=0x6a28 trans=AHB_TRANS_NONSEQ burst=AHB_BURST_SINGLE size=4B mastlock=0 resp=AHB_RESP_OKAY waits=0 | data=0xffff95d7
# UVM_INFO ../10_tb/env/scoreboard.sv(359) @ 1005000: uvm_test_top.env.scb [scoreboard] [SCB][AHB][PASS] AHB AHB_READ addr=0x6a28 trans=AHB_TRANS_NONSEQ burst=AHB_BURST_SINGLE size=4B mastlock=0 resp=AHB_RESP_OKAY waits=0 | data=0xffff95d7 | total=24
# UVM_INFO ../10_tb/ahb_slv/ahb_slv_driver.sv(87) @ 1015000: uvm_test_top.env.ahb_agent.drv [ahb_slv_driver] [DRV][AHB][REQ] AHB_READ addr=0x6a28 trans=AHB_TRANS_NONSEQ burst=AHB_BURST_SINGLE size=4B
# UVM_INFO ../10_tb/seq/ahb_slv_seq/ahb_slv_response_mapping_seq.sv(54) @ 1015000: uvm_test_top.env.ahb_agent.sqr@@ahb_seq [ahb_slv_response_mapping_seq] [RSP][AHB] AHB_READ addr=0x6a28 resp=AHB_RESP_OKAY waits=0
# UVM_INFO ../10_tb/ahb_slv/ahb_slv_driver.sv(201) @ 1025000: uvm_test_top.env.ahb_agent.drv [ahb_slv_driver] [DRV][AHB][RSP] AHB_READ addr=0x6a28 data=0xffff95d7 resp=AHB_RESP_OKAY ready_delay=0
# UVM_INFO ../10_tb/ahb_slv/ahb_slv_monitor.sv(119) @ 1025000: uvm_test_top.env.ahb_agent.mon [ahb_slv_monitor] [MON][AHB][TR] AHB AHB_READ addr=0x6a28 trans=AHB_TRANS_NONSEQ burst=AHB_BURST_SINGLE size=4B mastlock=0 resp=AHB_RESP_OKAY waits=0 | data=0xffff95d7
# UVM_INFO ../10_tb/env/scoreboard.sv(359) @ 1025000: uvm_test_top.env.scb [scoreboard] [SCB][AHB][PASS] AHB AHB_READ addr=0x6a28 trans=AHB_TRANS_NONSEQ burst=AHB_BURST_SINGLE size=4B mastlock=0 resp=AHB_RESP_OKAY waits=0 | data=0xffff95d7 | total=25
# UVM_INFO ../10_tb/axi4_mst/axi4_mst_driver.sv(326) @ 1035000: uvm_test_top.env.axi_agent.drv [axi4_mst_driver] [DRV][AXI][R] id=0xa beat=11/14 data=0xffff95d7 resp=AXI4_RESP_OKAY last=0
# UVM_INFO ../10_tb/axi4_mst/axi4_mst_monitor.sv(256) @ 1035000: uvm_test_top.env.axi_agent.mon [axi4_mst_monitor] [MON][AXI][R] id=0xa beat=11/14 data=0xffff95d7 resp=AXI4_RESP_OKAY last=0
# UVM_INFO ../10_tb/ahb_slv/ahb_slv_driver.sv(87) @ 1055000: uvm_test_top.env.ahb_agent.drv [ahb_slv_driver] [DRV][AHB][REQ] AHB_READ addr=0x6a28 trans=AHB_TRANS_NONSEQ burst=AHB_BURST_SINGLE size=4B
# UVM_INFO ../10_tb/seq/ahb_slv_seq/ahb_slv_response_mapping_seq.sv(54) @ 1055000: uvm_test_top.env.ahb_agent.sqr@@ahb_seq [ahb_slv_response_mapping_seq] [RSP][AHB] AHB_READ addr=0x6a28 resp=AHB_RESP_OKAY waits=0
# UVM_INFO ../10_tb/ahb_slv/ahb_slv_driver.sv(201) @ 1065000: uvm_test_top.env.ahb_agent.drv [ahb_slv_driver] [DRV][AHB][RSP] AHB_READ addr=0x6a28 data=0xffff95d7 resp=AHB_RESP_OKAY ready_delay=0
# UVM_INFO ../10_tb/ahb_slv/ahb_slv_monitor.sv(119) @ 1065000: uvm_test_top.env.ahb_agent.mon [ahb_slv_monitor] [MON][AHB][TR] AHB AHB_READ addr=0x6a28 trans=AHB_TRANS_NONSEQ burst=AHB_BURST_SINGLE size=4B mastlock=0 resp=AHB_RESP_OKAY waits=0 | data=0xffff95d7
# UVM_INFO ../10_tb/env/scoreboard.sv(359) @ 1065000: uvm_test_top.env.scb [scoreboard] [SCB][AHB][PASS] AHB AHB_READ addr=0x6a28 trans=AHB_TRANS_NONSEQ burst=AHB_BURST_SINGLE size=4B mastlock=0 resp=AHB_RESP_OKAY waits=0 | data=0xffff95d7 | total=26
# UVM_INFO ../10_tb/axi4_mst/axi4_mst_driver.sv(326) @ 1075000: uvm_test_top.env.axi_agent.drv [axi4_mst_driver] [DRV][AXI][R] id=0xa beat=12/14 data=0xffff95d7 resp=AXI4_RESP_OKAY last=0
# UVM_INFO ../10_tb/axi4_mst/axi4_mst_monitor.sv(256) @ 1075000: uvm_test_top.env.axi_agent.mon [axi4_mst_monitor] [MON][AXI][R] id=0xa beat=12/14 data=0xffff95d7 resp=AXI4_RESP_OKAY last=0
# UVM_INFO ../10_tb/axi4_mst/axi4_mst_driver.sv(326) @ 1095000: uvm_test_top.env.axi_agent.drv [axi4_mst_driver] [DRV][AXI][R] id=0xa beat=13/14 data=0xffff95d7 resp=AXI4_RESP_OKAY last=0
# UVM_INFO ../10_tb/axi4_mst/axi4_mst_monitor.sv(256) @ 1095000: uvm_test_top.env.axi_agent.mon [axi4_mst_monitor] [MON][AXI][R] id=0xa beat=13/14 data=0xffff95d7 resp=AXI4_RESP_OKAY last=0
# UVM_INFO ../10_tb/axi4_mst/axi4_mst_driver.sv(326) @ 1135000: uvm_test_top.env.axi_agent.drv [axi4_mst_driver] [DRV][AXI][R] id=0xa beat=14/14 data=0xffff95d7 resp=AXI4_RESP_OKAY last=1
# UVM_INFO ../10_tb/axi4_mst/axi4_mst_monitor.sv(256) @ 1135000: uvm_test_top.env.axi_agent.mon [axi4_mst_monitor] [MON][AXI][R] id=0xa beat=14/14 data=0xffff95d7 resp=AXI4_RESP_OKAY last=1
# UVM_INFO ../10_tb/axi4_mst/axi4_mst_monitor.sv(262) @ 1135000: uvm_test_top.env.axi_agent.mon [axi4_mst_monitor] [MON][AXI][RSP] READ id=0xa beats=14
# UVM_INFO ../10_tb/env/scoreboard.sv(506) @ 1135000: uvm_test_top.env.scb [scoreboard] [SCB][AXI][PASS] AXI4 AXI4_READ id=0xa addr=0x6a28 burst=AXI4_BURST_FIXED beats=14 size=4B lock=0 | read beats=14 | total=3
# UVM_INFO ../10_tb/axi4_mst/axi4_mst_driver.sv(105) @ 1135000: uvm_test_top.env.axi_agent.drv [axi4_mst_driver] [DRV][AXI][REQ] AXI4 AXI4_WRITE id=0x0 addr=0x633c burst=AXI4_BURST_FIXED beats=2 size=4B lock=0 | outstanding=1
# UVM_INFO ../10_tb/axi4_mst/axi4_mst_driver.sv(178) @ 1175000: uvm_test_top.env.axi_agent.drv [axi4_mst_driver] [DRV][AXI][AW] id=0x0 addr=0x633c burst=AXI4_BURST_FIXED beats=2 size=4B
# UVM_INFO ../10_tb/axi4_mst/axi4_mst_driver.sv(204) @ 1175000: uvm_test_top.env.axi_agent.drv [axi4_mst_driver] [DRV][AXI][W] id=0x0 beat=1/2 data=0x3e3b3835 strb=0xf last=0
# UVM_INFO ../10_tb/ahb_slv/ahb_slv_driver.sv(87) @ 1185000: uvm_test_top.env.ahb_agent.drv [ahb_slv_driver] [DRV][AHB][REQ] AHB_WRITE addr=0x633c trans=AHB_TRANS_NONSEQ burst=AHB_BURST_SINGLE size=4B
# UVM_INFO ../10_tb/seq/ahb_slv_seq/ahb_slv_response_mapping_seq.sv(54) @ 1185000: uvm_test_top.env.ahb_agent.sqr@@ahb_seq [ahb_slv_response_mapping_seq] [RSP][AHB] AHB_WRITE addr=0x633c resp=AHB_RESP_ERROR waits=0
# UVM_INFO ../10_tb/ahb_slv/ahb_slv_driver.sv(201) @ 1205000: uvm_test_top.env.ahb_agent.drv [ahb_slv_driver] [DRV][AHB][RSP] AHB_WRITE addr=0x633c data=0x3e3b3835 resp=AHB_RESP_ERROR ready_delay=0
# UVM_INFO ../10_tb/ahb_slv/ahb_slv_monitor.sv(119) @ 1205000: uvm_test_top.env.ahb_agent.mon [ahb_slv_monitor] [MON][AHB][TR] AHB AHB_WRITE addr=0x633c trans=AHB_TRANS_NONSEQ burst=AHB_BURST_SINGLE size=4B mastlock=0 resp=AHB_RESP_ERROR waits=1 | data=0x3e3b3835
# UVM_INFO ../10_tb/ahb_slv/ahb_slv_driver.sv(87) @ 1215000: uvm_test_top.env.ahb_agent.drv [ahb_slv_driver] [DRV][AHB][REQ] AHB_WRITE addr=0x633c trans=AHB_TRANS_NONSEQ burst=AHB_BURST_SINGLE size=4B
# UVM_INFO ../10_tb/axi4_mst/axi4_mst_driver.sv(204) @ 1215000: uvm_test_top.env.axi_agent.drv [axi4_mst_driver] [DRV][AXI][W] id=0x0 beat=2/2 data=0x43403d3a strb=0xf last=1
# UVM_INFO ../10_tb/seq/ahb_slv_seq/ahb_slv_response_mapping_seq.sv(54) @ 1215000: uvm_test_top.env.ahb_agent.sqr@@ahb_seq [ahb_slv_response_mapping_seq] [RSP][AHB] AHB_WRITE addr=0x633c resp=AHB_RESP_OKAY waits=4
# UVM_INFO ../10_tb/axi4_mst/axi4_mst_monitor.sv(151) @ 1215000: uvm_test_top.env.axi_agent.mon [axi4_mst_monitor] [MON][AXI][REQ] AXI4 AXI4_WRITE id=0x0 addr=0x633c burst=AXI4_BURST_FIXED beats=2 size=4B lock=0
# UVM_INFO ../10_tb/env/predictor.sv(84) @ 1215000: uvm_test_top.env.pred [predictor] [PRED][AXI][IN] AXI4 AXI4_WRITE id=0x0 addr=0x633c burst=AXI4_BURST_FIXED beats=2 size=4B lock=0 | queued=1
# UVM_INFO ../10_tb/env/predictor.sv(155) @ 1215000: uvm_test_top.env.pred [predictor] [PRED][MAP] AXI4 AXI4_WRITE id=0x0 addr=0x633c burst=AXI4_BURST_FIXED beats=2 size=4B lock=0 -> AHB burst=AHB_BURST_SINGLE size=4B crosses_1kb=0
# UVM_INFO ../10_tb/env/predictor.sv(186) @ 1215000: uvm_test_top.env.pred [predictor] [PRED][AHB] beat=1/2 | AHB AHB_WRITE addr=0x633c trans=AHB_TRANS_NONSEQ burst=AHB_BURST_SINGLE size=4B mastlock=0 resp=AHB_RESP_OKAY waits=0 | wdata=0x3e3b3835
# UVM_INFO ../10_tb/env/scoreboard.sv(359) @ 1215000: uvm_test_top.env.scb [scoreboard] [SCB][AHB][PASS] AHB AHB_WRITE addr=0x633c trans=AHB_TRANS_NONSEQ burst=AHB_BURST_SINGLE size=4B mastlock=0 resp=AHB_RESP_ERROR waits=1 | data=0x3e3b3835 | total=27
# UVM_INFO ../10_tb/env/predictor.sv(186) @ 1215000: uvm_test_top.env.pred [predictor] [PRED][AHB] beat=2/2 | AHB AHB_WRITE addr=0x633c trans=AHB_TRANS_NONSEQ burst=AHB_BURST_SINGLE size=4B mastlock=0 resp=AHB_RESP_OKAY waits=0 | wdata=0x43403d3a
# UVM_INFO ../10_tb/ahb_slv/ahb_slv_driver.sv(201) @ 1265000: uvm_test_top.env.ahb_agent.drv [ahb_slv_driver] [DRV][AHB][RSP] AHB_WRITE addr=0x633c data=0x43403d3a resp=AHB_RESP_OKAY ready_delay=4
# UVM_INFO ../10_tb/ahb_slv/ahb_slv_monitor.sv(119) @ 1265000: uvm_test_top.env.ahb_agent.mon [ahb_slv_monitor] [MON][AHB][TR] AHB AHB_WRITE addr=0x633c trans=AHB_TRANS_NONSEQ burst=AHB_BURST_SINGLE size=4B mastlock=0 resp=AHB_RESP_OKAY waits=4 | data=0x43403d3a
# UVM_INFO ../10_tb/env/scoreboard.sv(359) @ 1265000: uvm_test_top.env.scb [scoreboard] [SCB][AHB][PASS] AHB AHB_WRITE addr=0x633c trans=AHB_TRANS_NONSEQ burst=AHB_BURST_SINGLE size=4B mastlock=0 resp=AHB_RESP_OKAY waits=4 | data=0x43403d3a | total=28
# UVM_INFO ../10_tb/axi4_mst/axi4_mst_driver.sv(286) @ 1285000: uvm_test_top.env.axi_agent.drv [axi4_mst_driver] [DRV][AXI][B] id=0x0 resp=AXI4_RESP_SLVERR
# UVM_INFO ../10_tb/axi4_mst/axi4_mst_monitor.sv(177) @ 1285000: uvm_test_top.env.axi_agent.mon [axi4_mst_monitor] [MON][AXI][RSP] WRITE id=0x0 resp=AXI4_RESP_SLVERR
# UVM_INFO ../10_tb/env/scoreboard.sv(499) @ 1285000: uvm_test_top.env.scb [scoreboard] [SCB][AXI][PASS] AXI4 AXI4_WRITE id=0x0 addr=0x633c burst=AXI4_BURST_FIXED beats=2 size=4B lock=0 | bresp=AXI4_RESP_SLVERR | total=4
# UVM_INFO ../10_tb/axi4_mst/axi4_mst_driver.sv(105) @ 1285000: uvm_test_top.env.axi_agent.drv [axi4_mst_driver] [DRV][AXI][REQ] AXI4 AXI4_READ id=0x2 addr=0x65d8 burst=AXI4_BURST_WRAP beats=4 size=4B lock=0 | outstanding=1
# UVM_INFO ../10_tb/axi4_mst/axi4_mst_driver.sv(261) @ 1315000: uvm_test_top.env.axi_agent.drv [axi4_mst_driver] [DRV][AXI][AR] id=0x2 addr=0x65d8 burst=AXI4_BURST_WRAP beats=4 size=4B
# UVM_INFO ../10_tb/axi4_mst/axi4_mst_monitor.sv(211) @ 1315000: uvm_test_top.env.axi_agent.mon [axi4_mst_monitor] [MON][AXI][REQ] AXI4 AXI4_READ id=0x2 addr=0x65d8 burst=AXI4_BURST_WRAP beats=4 size=4B lock=0
# UVM_INFO ../10_tb/env/predictor.sv(84) @ 1315000: uvm_test_top.env.pred [predictor] [PRED][AXI][IN] AXI4 AXI4_READ id=0x2 addr=0x65d8 burst=AXI4_BURST_WRAP beats=4 size=4B lock=0 | queued=1
# UVM_INFO ../10_tb/env/predictor.sv(155) @ 1315000: uvm_test_top.env.pred [predictor] [PRED][MAP] AXI4 AXI4_READ id=0x2 addr=0x65d8 burst=AXI4_BURST_WRAP beats=4 size=4B lock=0 -> AHB burst=AHB_BURST_WRAP4 size=4B crosses_1kb=0
# UVM_INFO ../10_tb/env/predictor.sv(192) @ 1315000: uvm_test_top.env.pred [predictor] [PRED][AHB] beat=1/4 | AHB AHB_READ addr=0x65d8 trans=AHB_TRANS_NONSEQ burst=AHB_BURST_WRAP4 size=4B mastlock=0 resp=AHB_RESP_OKAY waits=0
# UVM_INFO ../10_tb/env/predictor.sv(192) @ 1315000: uvm_test_top.env.pred [predictor] [PRED][AHB] beat=2/4 | AHB AHB_READ addr=0x65dc trans=AHB_TRANS_SEQ burst=AHB_BURST_WRAP4 size=4B mastlock=0 resp=AHB_RESP_OKAY waits=0
# UVM_INFO ../10_tb/env/predictor.sv(192) @ 1315000: uvm_test_top.env.pred [predictor] [PRED][AHB] beat=3/4 | AHB AHB_READ addr=0x65d0 trans=AHB_TRANS_SEQ burst=AHB_BURST_WRAP4 size=4B mastlock=0 resp=AHB_RESP_OKAY waits=0
# UVM_INFO ../10_tb/env/predictor.sv(192) @ 1315000: uvm_test_top.env.pred [predictor] [PRED][AHB] beat=4/4 | AHB AHB_READ addr=0x65d4 trans=AHB_TRANS_SEQ burst=AHB_BURST_WRAP4 size=4B mastlock=0 resp=AHB_RESP_OKAY waits=0
# UVM_INFO ../10_tb/ahb_slv/ahb_slv_driver.sv(87) @ 1325000: uvm_test_top.env.ahb_agent.drv [ahb_slv_driver] [DRV][AHB][REQ] AHB_READ addr=0x65d8 trans=AHB_TRANS_NONSEQ burst=AHB_BURST_WRAP4 size=4B
# UVM_INFO ../10_tb/seq/ahb_slv_seq/ahb_slv_response_mapping_seq.sv(54) @ 1325000: uvm_test_top.env.ahb_agent.sqr@@ahb_seq [ahb_slv_response_mapping_seq] [RSP][AHB] AHB_READ addr=0x65d8 resp=AHB_RESP_OKAY waits=0
# UVM_INFO ../10_tb/ahb_slv/ahb_slv_driver.sv(201) @ 1335000: uvm_test_top.env.ahb_agent.drv [ahb_slv_driver] [DRV][AHB][RSP] AHB_READ addr=0x65d8 data=0xffff9a27 resp=AHB_RESP_OKAY ready_delay=0
# UVM_INFO ../10_tb/ahb_slv/ahb_slv_monitor.sv(119) @ 1335000: uvm_test_top.env.ahb_agent.mon [ahb_slv_monitor] [MON][AHB][TR] AHB AHB_READ addr=0x65d8 trans=AHB_TRANS_NONSEQ burst=AHB_BURST_WRAP4 size=4B mastlock=0 resp=AHB_RESP_OKAY waits=0 | data=0xffff9a27
# UVM_INFO ../10_tb/env/scoreboard.sv(359) @ 1335000: uvm_test_top.env.scb [scoreboard] [SCB][AHB][PASS] AHB AHB_READ addr=0x65d8 trans=AHB_TRANS_NONSEQ burst=AHB_BURST_WRAP4 size=4B mastlock=0 resp=AHB_RESP_OKAY waits=0 | data=0xffff9a27 | total=29
# UVM_INFO ../10_tb/ahb_slv/ahb_slv_driver.sv(87) @ 1345000: uvm_test_top.env.ahb_agent.drv [ahb_slv_driver] [DRV][AHB][REQ] AHB_READ addr=0x65dc trans=AHB_TRANS_SEQ burst=AHB_BURST_WRAP4 size=4B
# UVM_INFO ../10_tb/seq/ahb_slv_seq/ahb_slv_response_mapping_seq.sv(54) @ 1345000: uvm_test_top.env.ahb_agent.sqr@@ahb_seq [ahb_slv_response_mapping_seq] [RSP][AHB] AHB_READ addr=0x65dc resp=AHB_RESP_OKAY waits=0
# UVM_INFO ../10_tb/ahb_slv/ahb_slv_driver.sv(201) @ 1355000: uvm_test_top.env.ahb_agent.drv [ahb_slv_driver] [DRV][AHB][RSP] AHB_READ addr=0x65dc data=0xffff9a23 resp=AHB_RESP_OKAY ready_delay=0
# UVM_INFO ../10_tb/ahb_slv/ahb_slv_monitor.sv(119) @ 1355000: uvm_test_top.env.ahb_agent.mon [ahb_slv_monitor] [MON][AHB][TR] AHB AHB_READ addr=0x65dc trans=AHB_TRANS_SEQ burst=AHB_BURST_WRAP4 size=4B mastlock=0 resp=AHB_RESP_OKAY waits=0 | data=0xffff9a23
# UVM_INFO ../10_tb/env/scoreboard.sv(359) @ 1355000: uvm_test_top.env.scb [scoreboard] [SCB][AHB][PASS] AHB AHB_READ addr=0x65dc trans=AHB_TRANS_SEQ burst=AHB_BURST_WRAP4 size=4B mastlock=0 resp=AHB_RESP_OKAY waits=0 | data=0xffff9a23 | total=30
# UVM_INFO ../10_tb/ahb_slv/ahb_slv_driver.sv(87) @ 1365000: uvm_test_top.env.ahb_agent.drv [ahb_slv_driver] [DRV][AHB][REQ] AHB_READ addr=0x65d0 trans=AHB_TRANS_SEQ burst=AHB_BURST_WRAP4 size=4B
# UVM_INFO ../10_tb/seq/ahb_slv_seq/ahb_slv_response_mapping_seq.sv(54) @ 1365000: uvm_test_top.env.ahb_agent.sqr@@ahb_seq [ahb_slv_response_mapping_seq] [RSP][AHB] AHB_READ addr=0x65d0 resp=AHB_RESP_OKAY waits=0
# UVM_INFO ../10_tb/ahb_slv/ahb_slv_driver.sv(201) @ 1375000: uvm_test_top.env.ahb_agent.drv [ahb_slv_driver] [DRV][AHB][RSP] AHB_READ addr=0x65d0 data=0xffff9a2f resp=AHB_RESP_OKAY ready_delay=0
# UVM_INFO ../10_tb/ahb_slv/ahb_slv_monitor.sv(119) @ 1375000: uvm_test_top.env.ahb_agent.mon [ahb_slv_monitor] [MON][AHB][TR] AHB AHB_READ addr=0x65d0 trans=AHB_TRANS_SEQ burst=AHB_BURST_WRAP4 size=4B mastlock=0 resp=AHB_RESP_OKAY waits=0 | data=0xffff9a2f
# UVM_INFO ../10_tb/env/scoreboard.sv(359) @ 1375000: uvm_test_top.env.scb [scoreboard] [SCB][AHB][PASS] AHB AHB_READ addr=0x65d0 trans=AHB_TRANS_SEQ burst=AHB_BURST_WRAP4 size=4B mastlock=0 resp=AHB_RESP_OKAY waits=0 | data=0xffff9a2f | total=31
# UVM_INFO ../10_tb/axi4_mst/axi4_mst_driver.sv(326) @ 1375000: uvm_test_top.env.axi_agent.drv [axi4_mst_driver] [DRV][AXI][R] id=0x2 beat=1/4 data=0xffff9a27 resp=AXI4_RESP_OKAY last=0
# UVM_INFO ../10_tb/axi4_mst/axi4_mst_monitor.sv(256) @ 1375000: uvm_test_top.env.axi_agent.mon [axi4_mst_monitor] [MON][AXI][R] id=0x2 beat=1/4 data=0xffff9a27 resp=AXI4_RESP_OKAY last=0
# UVM_INFO ../10_tb/ahb_slv/ahb_slv_driver.sv(87) @ 1395000: uvm_test_top.env.ahb_agent.drv [ahb_slv_driver] [DRV][AHB][REQ] AHB_READ addr=0x65d4 trans=AHB_TRANS_SEQ burst=AHB_BURST_WRAP4 size=4B
# UVM_INFO ../10_tb/axi4_mst/axi4_mst_driver.sv(326) @ 1395000: uvm_test_top.env.axi_agent.drv [axi4_mst_driver] [DRV][AXI][R] id=0x2 beat=2/4 data=0xffff9a23 resp=AXI4_RESP_OKAY last=0
# UVM_INFO ../10_tb/axi4_mst/axi4_mst_monitor.sv(256) @ 1395000: uvm_test_top.env.axi_agent.mon [axi4_mst_monitor] [MON][AXI][R] id=0x2 beat=2/4 data=0xffff9a23 resp=AXI4_RESP_OKAY last=0
# UVM_INFO ../10_tb/seq/ahb_slv_seq/ahb_slv_response_mapping_seq.sv(54) @ 1395000: uvm_test_top.env.ahb_agent.sqr@@ahb_seq [ahb_slv_response_mapping_seq] [RSP][AHB] AHB_READ addr=0x65d4 resp=AHB_RESP_ERROR waits=1
# UVM_INFO ../10_tb/ahb_slv/ahb_slv_driver.sv(201) @ 1425000: uvm_test_top.env.ahb_agent.drv [ahb_slv_driver] [DRV][AHB][RSP] AHB_READ addr=0x65d4 data=0xffff9a2b resp=AHB_RESP_ERROR ready_delay=1
# UVM_INFO ../10_tb/ahb_slv/ahb_slv_monitor.sv(119) @ 1425000: uvm_test_top.env.ahb_agent.mon [ahb_slv_monitor] [MON][AHB][TR] AHB AHB_READ addr=0x65d4 trans=AHB_TRANS_SEQ burst=AHB_BURST_WRAP4 size=4B mastlock=0 resp=AHB_RESP_ERROR waits=2 | data=0xffff9a2b
# UVM_INFO ../10_tb/env/scoreboard.sv(359) @ 1425000: uvm_test_top.env.scb [scoreboard] [SCB][AHB][PASS] AHB AHB_READ addr=0x65d4 trans=AHB_TRANS_SEQ burst=AHB_BURST_WRAP4 size=4B mastlock=0 resp=AHB_RESP_ERROR waits=2 | data=0xffff9a2b | total=32
# UVM_INFO ../10_tb/axi4_mst/axi4_mst_driver.sv(326) @ 1435000: uvm_test_top.env.axi_agent.drv [axi4_mst_driver] [DRV][AXI][R] id=0x2 beat=3/4 data=0xffff9a2f resp=AXI4_RESP_OKAY last=0
# UVM_INFO ../10_tb/axi4_mst/axi4_mst_monitor.sv(256) @ 1435000: uvm_test_top.env.axi_agent.mon [axi4_mst_monitor] [MON][AXI][R] id=0x2 beat=3/4 data=0xffff9a2f resp=AXI4_RESP_OKAY last=0
# UVM_INFO ../10_tb/axi4_mst/axi4_mst_driver.sv(326) @ 1465000: uvm_test_top.env.axi_agent.drv [axi4_mst_driver] [DRV][AXI][R] id=0x2 beat=4/4 data=0xffff9a2b resp=AXI4_RESP_SLVERR last=1
# UVM_INFO ../10_tb/axi4_mst/axi4_mst_monitor.sv(256) @ 1465000: uvm_test_top.env.axi_agent.mon [axi4_mst_monitor] [MON][AXI][R] id=0x2 beat=4/4 data=0xffff9a2b resp=AXI4_RESP_SLVERR last=1
# UVM_INFO ../10_tb/axi4_mst/axi4_mst_monitor.sv(262) @ 1465000: uvm_test_top.env.axi_agent.mon [axi4_mst_monitor] [MON][AXI][RSP] READ id=0x2 beats=4
# UVM_INFO ../10_tb/env/scoreboard.sv(506) @ 1465000: uvm_test_top.env.scb [scoreboard] [SCB][AXI][PASS] AXI4 AXI4_READ id=0x2 addr=0x65d8 burst=AXI4_BURST_WRAP beats=4 size=4B lock=0 | read beats=4 | total=5
# UVM_INFO ../10_tb/axi4_mst/axi4_mst_driver.sv(105) @ 1465000: uvm_test_top.env.axi_agent.drv [axi4_mst_driver] [DRV][AXI][REQ] AXI4 AXI4_WRITE id=0xb addr=0x4ebc burst=AXI4_BURST_WRAP beats=8 size=4B lock=0 | outstanding=1
# UVM_INFO ../10_tb/axi4_mst/axi4_mst_driver.sv(178) @ 1505000: uvm_test_top.env.axi_agent.drv [axi4_mst_driver] [DRV][AXI][AW] id=0xb addr=0x4ebc burst=AXI4_BURST_WRAP beats=8 size=4B
# UVM_INFO ../10_tb/axi4_mst/axi4_mst_driver.sv(204) @ 1505000: uvm_test_top.env.axi_agent.drv [axi4_mst_driver] [DRV][AXI][W] id=0xb beat=1/8 data=0x4c494643 strb=0xf last=0
# UVM_INFO ../10_tb/ahb_slv/ahb_slv_driver.sv(87) @ 1515000: uvm_test_top.env.ahb_agent.drv [ahb_slv_driver] [DRV][AHB][REQ] AHB_WRITE addr=0x4ebc trans=AHB_TRANS_NONSEQ burst=AHB_BURST_WRAP8 size=4B
# UVM_INFO ../10_tb/seq/ahb_slv_seq/ahb_slv_response_mapping_seq.sv(54) @ 1515000: uvm_test_top.env.ahb_agent.sqr@@ahb_seq [ahb_slv_response_mapping_seq] [RSP][AHB] AHB_WRITE addr=0x4ebc resp=AHB_RESP_OKAY waits=0
# UVM_INFO ../10_tb/ahb_slv/ahb_slv_driver.sv(201) @ 1525000: uvm_test_top.env.ahb_agent.drv [ahb_slv_driver] [DRV][AHB][RSP] AHB_WRITE addr=0x4ebc data=0x4c494643 resp=AHB_RESP_OKAY ready_delay=0
# UVM_INFO ../10_tb/ahb_slv/ahb_slv_monitor.sv(119) @ 1525000: uvm_test_top.env.ahb_agent.mon [ahb_slv_monitor] [MON][AHB][TR] AHB AHB_WRITE addr=0x4ebc trans=AHB_TRANS_NONSEQ burst=AHB_BURST_WRAP8 size=4B mastlock=0 resp=AHB_RESP_OKAY waits=0 | data=0x4c494643
# UVM_INFO ../10_tb/ahb_slv/ahb_slv_driver.sv(87) @ 1535000: uvm_test_top.env.ahb_agent.drv [ahb_slv_driver] [DRV][AHB][REQ] AHB_WRITE addr=0x4ea0 trans=AHB_TRANS_SEQ burst=AHB_BURST_WRAP8 size=4B
# UVM_INFO ../10_tb/axi4_mst/axi4_mst_driver.sv(204) @ 1535000: uvm_test_top.env.axi_agent.drv [axi4_mst_driver] [DRV][AXI][W] id=0xb beat=2/8 data=0x514e4b48 strb=0xf last=0
# UVM_INFO ../10_tb/seq/ahb_slv_seq/ahb_slv_response_mapping_seq.sv(54) @ 1535000: uvm_test_top.env.ahb_agent.sqr@@ahb_seq [ahb_slv_response_mapping_seq] [RSP][AHB] AHB_WRITE addr=0x4ea0 resp=AHB_RESP_OKAY waits=0
# UVM_INFO ../10_tb/ahb_slv/ahb_slv_driver.sv(201) @ 1545000: uvm_test_top.env.ahb_agent.drv [ahb_slv_driver] [DRV][AHB][RSP] AHB_WRITE addr=0x4ea0 data=0x514e4b48 resp=AHB_RESP_OKAY ready_delay=0
# UVM_INFO ../10_tb/ahb_slv/ahb_slv_monitor.sv(119) @ 1545000: uvm_test_top.env.ahb_agent.mon [ahb_slv_monitor] [MON][AHB][TR] AHB AHB_WRITE addr=0x4ea0 trans=AHB_TRANS_SEQ burst=AHB_BURST_WRAP8 size=4B mastlock=0 resp=AHB_RESP_OKAY waits=0 | data=0x514e4b48
# UVM_INFO ../10_tb/ahb_slv/ahb_slv_driver.sv(87) @ 1555000: uvm_test_top.env.ahb_agent.drv [ahb_slv_driver] [DRV][AHB][REQ] AHB_WRITE addr=0x4ea4 trans=AHB_TRANS_SEQ burst=AHB_BURST_WRAP8 size=4B
# UVM_INFO ../10_tb/axi4_mst/axi4_mst_driver.sv(204) @ 1555000: uvm_test_top.env.axi_agent.drv [axi4_mst_driver] [DRV][AXI][W] id=0xb beat=3/8 data=0x5653504d strb=0xf last=0
# UVM_INFO ../10_tb/seq/ahb_slv_seq/ahb_slv_response_mapping_seq.sv(54) @ 1555000: uvm_test_top.env.ahb_agent.sqr@@ahb_seq [ahb_slv_response_mapping_seq] [RSP][AHB] AHB_WRITE addr=0x4ea4 resp=AHB_RESP_OKAY waits=3
# UVM_INFO ../10_tb/ahb_slv/ahb_slv_driver.sv(201) @ 1595000: uvm_test_top.env.ahb_agent.drv [ahb_slv_driver] [DRV][AHB][RSP] AHB_WRITE addr=0x4ea4 data=0x5653504d resp=AHB_RESP_OKAY ready_delay=3
# UVM_INFO ../10_tb/ahb_slv/ahb_slv_monitor.sv(119) @ 1595000: uvm_test_top.env.ahb_agent.mon [ahb_slv_monitor] [MON][AHB][TR] AHB AHB_WRITE addr=0x4ea4 trans=AHB_TRANS_SEQ burst=AHB_BURST_WRAP8 size=4B mastlock=0 resp=AHB_RESP_OKAY waits=3 | data=0x5653504d
# UVM_INFO ../10_tb/ahb_slv/ahb_slv_driver.sv(87) @ 1605000: uvm_test_top.env.ahb_agent.drv [ahb_slv_driver] [DRV][AHB][REQ] AHB_WRITE addr=0x4ea8 trans=AHB_TRANS_SEQ burst=AHB_BURST_WRAP8 size=4B
# UVM_INFO ../10_tb/axi4_mst/axi4_mst_driver.sv(204) @ 1605000: uvm_test_top.env.axi_agent.drv [axi4_mst_driver] [DRV][AXI][W] id=0xb beat=4/8 data=0x5b585552 strb=0xf last=0
# UVM_INFO ../10_tb/seq/ahb_slv_seq/ahb_slv_response_mapping_seq.sv(54) @ 1605000: uvm_test_top.env.ahb_agent.sqr@@ahb_seq [ahb_slv_response_mapping_seq] [RSP][AHB] AHB_WRITE addr=0x4ea8 resp=AHB_RESP_OKAY waits=4
# UVM_INFO ../10_tb/ahb_slv/ahb_slv_driver.sv(201) @ 1655000: uvm_test_top.env.ahb_agent.drv [ahb_slv_driver] [DRV][AHB][RSP] AHB_WRITE addr=0x4ea8 data=0x5b585552 resp=AHB_RESP_OKAY ready_delay=4
# UVM_INFO ../10_tb/ahb_slv/ahb_slv_monitor.sv(119) @ 1655000: uvm_test_top.env.ahb_agent.mon [ahb_slv_monitor] [MON][AHB][TR] AHB AHB_WRITE addr=0x4ea8 trans=AHB_TRANS_SEQ burst=AHB_BURST_WRAP8 size=4B mastlock=0 resp=AHB_RESP_OKAY waits=4 | data=0x5b585552
# UVM_INFO ../10_tb/ahb_slv/ahb_slv_driver.sv(87) @ 1665000: uvm_test_top.env.ahb_agent.drv [ahb_slv_driver] [DRV][AHB][REQ] AHB_WRITE addr=0x4eac trans=AHB_TRANS_SEQ burst=AHB_BURST_WRAP8 size=4B
# UVM_INFO ../10_tb/axi4_mst/axi4_mst_driver.sv(204) @ 1665000: uvm_test_top.env.axi_agent.drv [axi4_mst_driver] [DRV][AXI][W] id=0xb beat=5/8 data=0x605d5a57 strb=0xf last=0
# UVM_INFO ../10_tb/seq/ahb_slv_seq/ahb_slv_response_mapping_seq.sv(54) @ 1665000: uvm_test_top.env.ahb_agent.sqr@@ahb_seq [ahb_slv_response_mapping_seq] [RSP][AHB] AHB_WRITE addr=0x4eac resp=AHB_RESP_OKAY waits=0
# UVM_INFO ../10_tb/ahb_slv/ahb_slv_driver.sv(201) @ 1675000: uvm_test_top.env.ahb_agent.drv [ahb_slv_driver] [DRV][AHB][RSP] AHB_WRITE addr=0x4eac data=0x605d5a57 resp=AHB_RESP_OKAY ready_delay=0
# UVM_INFO ../10_tb/ahb_slv/ahb_slv_monitor.sv(119) @ 1675000: uvm_test_top.env.ahb_agent.mon [ahb_slv_monitor] [MON][AHB][TR] AHB AHB_WRITE addr=0x4eac trans=AHB_TRANS_SEQ burst=AHB_BURST_WRAP8 size=4B mastlock=0 resp=AHB_RESP_OKAY waits=0 | data=0x605d5a57
# UVM_INFO ../10_tb/ahb_slv/ahb_slv_driver.sv(87) @ 1685000: uvm_test_top.env.ahb_agent.drv [ahb_slv_driver] [DRV][AHB][REQ] AHB_WRITE addr=0x4eb0 trans=AHB_TRANS_SEQ burst=AHB_BURST_WRAP8 size=4B
# UVM_INFO ../10_tb/axi4_mst/axi4_mst_driver.sv(204) @ 1685000: uvm_test_top.env.axi_agent.drv [axi4_mst_driver] [DRV][AXI][W] id=0xb beat=6/8 data=0x65625f5c strb=0xf last=0
# UVM_INFO ../10_tb/seq/ahb_slv_seq/ahb_slv_response_mapping_seq.sv(54) @ 1685000: uvm_test_top.env.ahb_agent.sqr@@ahb_seq [ahb_slv_response_mapping_seq] [RSP][AHB] AHB_WRITE addr=0x4eb0 resp=AHB_RESP_OKAY waits=4
# UVM_INFO ../10_tb/ahb_slv/ahb_slv_driver.sv(201) @ 1735000: uvm_test_top.env.ahb_agent.drv [ahb_slv_driver] [DRV][AHB][RSP] AHB_WRITE addr=0x4eb0 data=0x65625f5c resp=AHB_RESP_OKAY ready_delay=4
# UVM_INFO ../10_tb/ahb_slv/ahb_slv_monitor.sv(119) @ 1735000: uvm_test_top.env.ahb_agent.mon [ahb_slv_monitor] [MON][AHB][TR] AHB AHB_WRITE addr=0x4eb0 trans=AHB_TRANS_SEQ burst=AHB_BURST_WRAP8 size=4B mastlock=0 resp=AHB_RESP_OKAY waits=4 | data=0x65625f5c
# UVM_INFO ../10_tb/ahb_slv/ahb_slv_driver.sv(87) @ 1745000: uvm_test_top.env.ahb_agent.drv [ahb_slv_driver] [DRV][AHB][REQ] AHB_WRITE addr=0x4eb4 trans=AHB_TRANS_SEQ burst=AHB_BURST_WRAP8 size=4B
# UVM_INFO ../10_tb/axi4_mst/axi4_mst_driver.sv(204) @ 1745000: uvm_test_top.env.axi_agent.drv [axi4_mst_driver] [DRV][AXI][W] id=0xb beat=7/8 data=0x6a676461 strb=0xf last=0
# UVM_INFO ../10_tb/seq/ahb_slv_seq/ahb_slv_response_mapping_seq.sv(54) @ 1745000: uvm_test_top.env.ahb_agent.sqr@@ahb_seq [ahb_slv_response_mapping_seq] [RSP][AHB] AHB_WRITE addr=0x4eb4 resp=AHB_RESP_OKAY waits=4
# UVM_INFO ../10_tb/ahb_slv/ahb_slv_driver.sv(201) @ 1795000: uvm_test_top.env.ahb_agent.drv [ahb_slv_driver] [DRV][AHB][RSP] AHB_WRITE addr=0x4eb4 data=0x6a676461 resp=AHB_RESP_OKAY ready_delay=4
# UVM_INFO ../10_tb/ahb_slv/ahb_slv_monitor.sv(119) @ 1795000: uvm_test_top.env.ahb_agent.mon [ahb_slv_monitor] [MON][AHB][TR] AHB AHB_WRITE addr=0x4eb4 trans=AHB_TRANS_SEQ burst=AHB_BURST_WRAP8 size=4B mastlock=0 resp=AHB_RESP_OKAY waits=4 | data=0x6a676461
# UVM_INFO ../10_tb/ahb_slv/ahb_slv_driver.sv(87) @ 1805000: uvm_test_top.env.ahb_agent.drv [ahb_slv_driver] [DRV][AHB][REQ] AHB_WRITE addr=0x4eb8 trans=AHB_TRANS_SEQ burst=AHB_BURST_WRAP8 size=4B
# UVM_INFO ../10_tb/axi4_mst/axi4_mst_driver.sv(204) @ 1805000: uvm_test_top.env.axi_agent.drv [axi4_mst_driver] [DRV][AXI][W] id=0xb beat=8/8 data=0x6f6c6966 strb=0xf last=1
# UVM_INFO ../10_tb/seq/ahb_slv_seq/ahb_slv_response_mapping_seq.sv(54) @ 1805000: uvm_test_top.env.ahb_agent.sqr@@ahb_seq [ahb_slv_response_mapping_seq] [RSP][AHB] AHB_WRITE addr=0x4eb8 resp=AHB_RESP_OKAY waits=0
# UVM_INFO ../10_tb/axi4_mst/axi4_mst_monitor.sv(151) @ 1805000: uvm_test_top.env.axi_agent.mon [axi4_mst_monitor] [MON][AXI][REQ] AXI4 AXI4_WRITE id=0xb addr=0x4ebc burst=AXI4_BURST_WRAP beats=8 size=4B lock=0
# UVM_INFO ../10_tb/env/predictor.sv(84) @ 1805000: uvm_test_top.env.pred [predictor] [PRED][AXI][IN] AXI4 AXI4_WRITE id=0xb addr=0x4ebc burst=AXI4_BURST_WRAP beats=8 size=4B lock=0 | queued=1
# UVM_INFO ../10_tb/env/predictor.sv(155) @ 1805000: uvm_test_top.env.pred [predictor] [PRED][MAP] AXI4 AXI4_WRITE id=0xb addr=0x4ebc burst=AXI4_BURST_WRAP beats=8 size=4B lock=0 -> AHB burst=AHB_BURST_WRAP8 size=4B crosses_1kb=0
# UVM_INFO ../10_tb/env/predictor.sv(186) @ 1805000: uvm_test_top.env.pred [predictor] [PRED][AHB] beat=1/8 | AHB AHB_WRITE addr=0x4ebc trans=AHB_TRANS_NONSEQ burst=AHB_BURST_WRAP8 size=4B mastlock=0 resp=AHB_RESP_OKAY waits=0 | wdata=0x4c494643
# UVM_INFO ../10_tb/env/scoreboard.sv(359) @ 1805000: uvm_test_top.env.scb [scoreboard] [SCB][AHB][PASS] AHB AHB_WRITE addr=0x4ebc trans=AHB_TRANS_NONSEQ burst=AHB_BURST_WRAP8 size=4B mastlock=0 resp=AHB_RESP_OKAY waits=0 | data=0x4c494643 | total=33
# UVM_INFO ../10_tb/env/predictor.sv(186) @ 1805000: uvm_test_top.env.pred [predictor] [PRED][AHB] beat=2/8 | AHB AHB_WRITE addr=0x4ea0 trans=AHB_TRANS_SEQ burst=AHB_BURST_WRAP8 size=4B mastlock=0 resp=AHB_RESP_OKAY waits=0 | wdata=0x514e4b48
# UVM_INFO ../10_tb/env/scoreboard.sv(359) @ 1805000: uvm_test_top.env.scb [scoreboard] [SCB][AHB][PASS] AHB AHB_WRITE addr=0x4ea0 trans=AHB_TRANS_SEQ burst=AHB_BURST_WRAP8 size=4B mastlock=0 resp=AHB_RESP_OKAY waits=0 | data=0x514e4b48 | total=34
# UVM_INFO ../10_tb/env/predictor.sv(186) @ 1805000: uvm_test_top.env.pred [predictor] [PRED][AHB] beat=3/8 | AHB AHB_WRITE addr=0x4ea4 trans=AHB_TRANS_SEQ burst=AHB_BURST_WRAP8 size=4B mastlock=0 resp=AHB_RESP_OKAY waits=0 | wdata=0x5653504d
# UVM_INFO ../10_tb/env/scoreboard.sv(359) @ 1805000: uvm_test_top.env.scb [scoreboard] [SCB][AHB][PASS] AHB AHB_WRITE addr=0x4ea4 trans=AHB_TRANS_SEQ burst=AHB_BURST_WRAP8 size=4B mastlock=0 resp=AHB_RESP_OKAY waits=3 | data=0x5653504d | total=35
# UVM_INFO ../10_tb/env/predictor.sv(186) @ 1805000: uvm_test_top.env.pred [predictor] [PRED][AHB] beat=4/8 | AHB AHB_WRITE addr=0x4ea8 trans=AHB_TRANS_SEQ burst=AHB_BURST_WRAP8 size=4B mastlock=0 resp=AHB_RESP_OKAY waits=0 | wdata=0x5b585552
# UVM_INFO ../10_tb/env/scoreboard.sv(359) @ 1805000: uvm_test_top.env.scb [scoreboard] [SCB][AHB][PASS] AHB AHB_WRITE addr=0x4ea8 trans=AHB_TRANS_SEQ burst=AHB_BURST_WRAP8 size=4B mastlock=0 resp=AHB_RESP_OKAY waits=4 | data=0x5b585552 | total=36
# UVM_INFO ../10_tb/env/predictor.sv(186) @ 1805000: uvm_test_top.env.pred [predictor] [PRED][AHB] beat=5/8 | AHB AHB_WRITE addr=0x4eac trans=AHB_TRANS_SEQ burst=AHB_BURST_WRAP8 size=4B mastlock=0 resp=AHB_RESP_OKAY waits=0 | wdata=0x605d5a57
# UVM_INFO ../10_tb/env/scoreboard.sv(359) @ 1805000: uvm_test_top.env.scb [scoreboard] [SCB][AHB][PASS] AHB AHB_WRITE addr=0x4eac trans=AHB_TRANS_SEQ burst=AHB_BURST_WRAP8 size=4B mastlock=0 resp=AHB_RESP_OKAY waits=0 | data=0x605d5a57 | total=37
# UVM_INFO ../10_tb/env/predictor.sv(186) @ 1805000: uvm_test_top.env.pred [predictor] [PRED][AHB] beat=6/8 | AHB AHB_WRITE addr=0x4eb0 trans=AHB_TRANS_SEQ burst=AHB_BURST_WRAP8 size=4B mastlock=0 resp=AHB_RESP_OKAY waits=0 | wdata=0x65625f5c
# UVM_INFO ../10_tb/env/scoreboard.sv(359) @ 1805000: uvm_test_top.env.scb [scoreboard] [SCB][AHB][PASS] AHB AHB_WRITE addr=0x4eb0 trans=AHB_TRANS_SEQ burst=AHB_BURST_WRAP8 size=4B mastlock=0 resp=AHB_RESP_OKAY waits=4 | data=0x65625f5c | total=38
# UVM_INFO ../10_tb/env/predictor.sv(186) @ 1805000: uvm_test_top.env.pred [predictor] [PRED][AHB] beat=7/8 | AHB AHB_WRITE addr=0x4eb4 trans=AHB_TRANS_SEQ burst=AHB_BURST_WRAP8 size=4B mastlock=0 resp=AHB_RESP_OKAY waits=0 | wdata=0x6a676461
# UVM_INFO ../10_tb/env/scoreboard.sv(359) @ 1805000: uvm_test_top.env.scb [scoreboard] [SCB][AHB][PASS] AHB AHB_WRITE addr=0x4eb4 trans=AHB_TRANS_SEQ burst=AHB_BURST_WRAP8 size=4B mastlock=0 resp=AHB_RESP_OKAY waits=4 | data=0x6a676461 | total=39
# UVM_INFO ../10_tb/env/predictor.sv(186) @ 1805000: uvm_test_top.env.pred [predictor] [PRED][AHB] beat=8/8 | AHB AHB_WRITE addr=0x4eb8 trans=AHB_TRANS_SEQ burst=AHB_BURST_WRAP8 size=4B mastlock=0 resp=AHB_RESP_OKAY waits=0 | wdata=0x6f6c6966
# UVM_INFO ../10_tb/ahb_slv/ahb_slv_driver.sv(201) @ 1815000: uvm_test_top.env.ahb_agent.drv [ahb_slv_driver] [DRV][AHB][RSP] AHB_WRITE addr=0x4eb8 data=0x6f6c6966 resp=AHB_RESP_OKAY ready_delay=0
# UVM_INFO ../10_tb/ahb_slv/ahb_slv_monitor.sv(119) @ 1815000: uvm_test_top.env.ahb_agent.mon [ahb_slv_monitor] [MON][AHB][TR] AHB AHB_WRITE addr=0x4eb8 trans=AHB_TRANS_SEQ burst=AHB_BURST_WRAP8 size=4B mastlock=0 resp=AHB_RESP_OKAY waits=0 | data=0x6f6c6966
# UVM_INFO ../10_tb/env/scoreboard.sv(359) @ 1815000: uvm_test_top.env.scb [scoreboard] [SCB][AHB][PASS] AHB AHB_WRITE addr=0x4eb8 trans=AHB_TRANS_SEQ burst=AHB_BURST_WRAP8 size=4B mastlock=0 resp=AHB_RESP_OKAY waits=0 | data=0x6f6c6966 | total=40
# UVM_INFO ../10_tb/axi4_mst/axi4_mst_driver.sv(286) @ 1845000: uvm_test_top.env.axi_agent.drv [axi4_mst_driver] [DRV][AXI][B] id=0xb resp=AXI4_RESP_OKAY
# UVM_INFO ../10_tb/axi4_mst/axi4_mst_monitor.sv(177) @ 1845000: uvm_test_top.env.axi_agent.mon [axi4_mst_monitor] [MON][AXI][RSP] WRITE id=0xb resp=AXI4_RESP_OKAY
# UVM_INFO ../10_tb/env/scoreboard.sv(499) @ 1845000: uvm_test_top.env.scb [scoreboard] [SCB][AXI][PASS] AXI4 AXI4_WRITE id=0xb addr=0x4ebc burst=AXI4_BURST_WRAP beats=8 size=4B lock=0 | bresp=AXI4_RESP_OKAY | total=6
# UVM_INFO ../10_tb/axi4_mst/axi4_mst_driver.sv(105) @ 1845000: uvm_test_top.env.axi_agent.drv [axi4_mst_driver] [DRV][AXI][REQ] AXI4 AXI4_READ id=0x6 addr=0x47f4 burst=AXI4_BURST_INCR beats=13 size=4B lock=0 | outstanding=1
# UVM_INFO ../10_tb/axi4_mst/axi4_mst_driver.sv(261) @ 1875000: uvm_test_top.env.axi_agent.drv [axi4_mst_driver] [DRV][AXI][AR] id=0x6 addr=0x47f4 burst=AXI4_BURST_INCR beats=13 size=4B
# UVM_INFO ../10_tb/axi4_mst/axi4_mst_monitor.sv(211) @ 1875000: uvm_test_top.env.axi_agent.mon [axi4_mst_monitor] [MON][AXI][REQ] AXI4 AXI4_READ id=0x6 addr=0x47f4 burst=AXI4_BURST_INCR beats=13 size=4B lock=0
# UVM_INFO ../10_tb/env/predictor.sv(84) @ 1875000: uvm_test_top.env.pred [predictor] [PRED][AXI][IN] AXI4 AXI4_READ id=0x6 addr=0x47f4 burst=AXI4_BURST_INCR beats=13 size=4B lock=0 | queued=1
# UVM_INFO ../10_tb/env/predictor.sv(155) @ 1875000: uvm_test_top.env.pred [predictor] [PRED][MAP] AXI4 AXI4_READ id=0x6 addr=0x47f4 burst=AXI4_BURST_INCR beats=13 size=4B lock=0 -> AHB burst=AHB_BURST_INCR size=4B crosses_1kb=1
# UVM_INFO ../10_tb/env/predictor.sv(192) @ 1875000: uvm_test_top.env.pred [predictor] [PRED][AHB] beat=1/13 | AHB AHB_READ addr=0x47f4 trans=AHB_TRANS_NONSEQ burst=AHB_BURST_INCR size=4B mastlock=0 resp=AHB_RESP_OKAY waits=0
# UVM_INFO ../10_tb/env/predictor.sv(192) @ 1875000: uvm_test_top.env.pred [predictor] [PRED][AHB] beat=2/13 | AHB AHB_READ addr=0x47f8 trans=AHB_TRANS_SEQ burst=AHB_BURST_INCR size=4B mastlock=0 resp=AHB_RESP_OKAY waits=0
# UVM_INFO ../10_tb/env/predictor.sv(192) @ 1875000: uvm_test_top.env.pred [predictor] [PRED][AHB] beat=3/13 | AHB AHB_READ addr=0x47fc trans=AHB_TRANS_SEQ burst=AHB_BURST_INCR size=4B mastlock=0 resp=AHB_RESP_OKAY waits=0
# UVM_INFO ../10_tb/env/predictor.sv(192) @ 1875000: uvm_test_top.env.pred [predictor] [PRED][AHB] beat=4/13 | AHB AHB_READ addr=0x4800 trans=AHB_TRANS_NONSEQ burst=AHB_BURST_INCR size=4B mastlock=0 resp=AHB_RESP_OKAY waits=0
# UVM_INFO ../10_tb/env/predictor.sv(192) @ 1875000: uvm_test_top.env.pred [predictor] [PRED][AHB] beat=5/13 | AHB AHB_READ addr=0x4804 trans=AHB_TRANS_SEQ burst=AHB_BURST_INCR size=4B mastlock=0 resp=AHB_RESP_OKAY waits=0
# UVM_INFO ../10_tb/env/predictor.sv(192) @ 1875000: uvm_test_top.env.pred [predictor] [PRED][AHB] beat=6/13 | AHB AHB_READ addr=0x4808 trans=AHB_TRANS_SEQ burst=AHB_BURST_INCR size=4B mastlock=0 resp=AHB_RESP_OKAY waits=0
# UVM_INFO ../10_tb/env/predictor.sv(192) @ 1875000: uvm_test_top.env.pred [predictor] [PRED][AHB] beat=7/13 | AHB AHB_READ addr=0x480c trans=AHB_TRANS_SEQ burst=AHB_BURST_INCR size=4B mastlock=0 resp=AHB_RESP_OKAY waits=0
# UVM_INFO ../10_tb/env/predictor.sv(192) @ 1875000: uvm_test_top.env.pred [predictor] [PRED][AHB] beat=8/13 | AHB AHB_READ addr=0x4810 trans=AHB_TRANS_SEQ burst=AHB_BURST_INCR size=4B mastlock=0 resp=AHB_RESP_OKAY waits=0
# UVM_INFO ../10_tb/env/predictor.sv(192) @ 1875000: uvm_test_top.env.pred [predictor] [PRED][AHB] beat=9/13 | AHB AHB_READ addr=0x4814 trans=AHB_TRANS_SEQ burst=AHB_BURST_INCR size=4B mastlock=0 resp=AHB_RESP_OKAY waits=0
# UVM_INFO ../10_tb/env/predictor.sv(192) @ 1875000: uvm_test_top.env.pred [predictor] [PRED][AHB] beat=10/13 | AHB AHB_READ addr=0x4818 trans=AHB_TRANS_SEQ burst=AHB_BURST_INCR size=4B mastlock=0 resp=AHB_RESP_OKAY waits=0
# UVM_INFO ../10_tb/env/predictor.sv(192) @ 1875000: uvm_test_top.env.pred [predictor] [PRED][AHB] beat=11/13 | AHB AHB_READ addr=0x481c trans=AHB_TRANS_SEQ burst=AHB_BURST_INCR size=4B mastlock=0 resp=AHB_RESP_OKAY waits=0
# UVM_INFO ../10_tb/env/predictor.sv(192) @ 1875000: uvm_test_top.env.pred [predictor] [PRED][AHB] beat=12/13 | AHB AHB_READ addr=0x4820 trans=AHB_TRANS_SEQ burst=AHB_BURST_INCR size=4B mastlock=0 resp=AHB_RESP_OKAY waits=0
# UVM_INFO ../10_tb/env/predictor.sv(192) @ 1875000: uvm_test_top.env.pred [predictor] [PRED][AHB] beat=13/13 | AHB AHB_READ addr=0x4824 trans=AHB_TRANS_SEQ burst=AHB_BURST_INCR size=4B mastlock=0 resp=AHB_RESP_OKAY waits=0
# UVM_INFO ../10_tb/ahb_slv/ahb_slv_driver.sv(87) @ 1885000: uvm_test_top.env.ahb_agent.drv [ahb_slv_driver] [DRV][AHB][REQ] AHB_READ addr=0x47f4 trans=AHB_TRANS_NONSEQ burst=AHB_BURST_INCR size=4B
# UVM_INFO ../10_tb/seq/ahb_slv_seq/ahb_slv_response_mapping_seq.sv(54) @ 1885000: uvm_test_top.env.ahb_agent.sqr@@ahb_seq [ahb_slv_response_mapping_seq] [RSP][AHB] AHB_READ addr=0x47f4 resp=AHB_RESP_OKAY waits=0
# UVM_INFO ../10_tb/ahb_slv/ahb_slv_driver.sv(201) @ 1895000: uvm_test_top.env.ahb_agent.drv [ahb_slv_driver] [DRV][AHB][RSP] AHB_READ addr=0x47f4 data=0xffffb80b resp=AHB_RESP_OKAY ready_delay=0
# UVM_INFO ../10_tb/ahb_slv/ahb_slv_monitor.sv(119) @ 1895000: uvm_test_top.env.ahb_agent.mon [ahb_slv_monitor] [MON][AHB][TR] AHB AHB_READ addr=0x47f4 trans=AHB_TRANS_NONSEQ burst=AHB_BURST_INCR size=4B mastlock=0 resp=AHB_RESP_OKAY waits=0 | data=0xffffb80b
# UVM_INFO ../10_tb/env/scoreboard.sv(359) @ 1895000: uvm_test_top.env.scb [scoreboard] [SCB][AHB][PASS] AHB AHB_READ addr=0x47f4 trans=AHB_TRANS_NONSEQ burst=AHB_BURST_INCR size=4B mastlock=0 resp=AHB_RESP_OKAY waits=0 | data=0xffffb80b | total=41
# UVM_INFO ../10_tb/ahb_slv/ahb_slv_driver.sv(87) @ 1905000: uvm_test_top.env.ahb_agent.drv [ahb_slv_driver] [DRV][AHB][REQ] AHB_READ addr=0x47f8 trans=AHB_TRANS_SEQ burst=AHB_BURST_INCR size=4B
# UVM_INFO ../10_tb/seq/ahb_slv_seq/ahb_slv_response_mapping_seq.sv(54) @ 1905000: uvm_test_top.env.ahb_agent.sqr@@ahb_seq [ahb_slv_response_mapping_seq] [RSP][AHB] AHB_READ addr=0x47f8 resp=AHB_RESP_OKAY waits=0
# UVM_INFO ../10_tb/ahb_slv/ahb_slv_driver.sv(201) @ 1915000: uvm_test_top.env.ahb_agent.drv [ahb_slv_driver] [DRV][AHB][RSP] AHB_READ addr=0x47f8 data=0xffffb807 resp=AHB_RESP_OKAY ready_delay=0
# UVM_INFO ../10_tb/ahb_slv/ahb_slv_monitor.sv(119) @ 1915000: uvm_test_top.env.ahb_agent.mon [ahb_slv_monitor] [MON][AHB][TR] AHB AHB_READ addr=0x47f8 trans=AHB_TRANS_SEQ burst=AHB_BURST_INCR size=4B mastlock=0 resp=AHB_RESP_OKAY waits=0 | data=0xffffb807
# UVM_INFO ../10_tb/env/scoreboard.sv(359) @ 1915000: uvm_test_top.env.scb [scoreboard] [SCB][AHB][PASS] AHB AHB_READ addr=0x47f8 trans=AHB_TRANS_SEQ burst=AHB_BURST_INCR size=4B mastlock=0 resp=AHB_RESP_OKAY waits=0 | data=0xffffb807 | total=42
# UVM_INFO ../10_tb/ahb_slv/ahb_slv_driver.sv(87) @ 1925000: uvm_test_top.env.ahb_agent.drv [ahb_slv_driver] [DRV][AHB][REQ] AHB_READ addr=0x47fc trans=AHB_TRANS_SEQ burst=AHB_BURST_INCR size=4B
# UVM_INFO ../10_tb/seq/ahb_slv_seq/ahb_slv_response_mapping_seq.sv(54) @ 1925000: uvm_test_top.env.ahb_agent.sqr@@ahb_seq [ahb_slv_response_mapping_seq] [RSP][AHB] AHB_READ addr=0x47fc resp=AHB_RESP_OKAY waits=0
# UVM_INFO ../10_tb/ahb_slv/ahb_slv_driver.sv(201) @ 1935000: uvm_test_top.env.ahb_agent.drv [ahb_slv_driver] [DRV][AHB][RSP] AHB_READ addr=0x47fc data=0xffffb803 resp=AHB_RESP_OKAY ready_delay=0
# UVM_INFO ../10_tb/ahb_slv/ahb_slv_monitor.sv(119) @ 1935000: uvm_test_top.env.ahb_agent.mon [ahb_slv_monitor] [MON][AHB][TR] AHB AHB_READ addr=0x47fc trans=AHB_TRANS_SEQ burst=AHB_BURST_INCR size=4B mastlock=0 resp=AHB_RESP_OKAY waits=0 | data=0xffffb803
# UVM_INFO ../10_tb/env/scoreboard.sv(359) @ 1935000: uvm_test_top.env.scb [scoreboard] [SCB][AHB][PASS] AHB AHB_READ addr=0x47fc trans=AHB_TRANS_SEQ burst=AHB_BURST_INCR size=4B mastlock=0 resp=AHB_RESP_OKAY waits=0 | data=0xffffb803 | total=43
# UVM_INFO ../10_tb/axi4_mst/axi4_mst_driver.sv(326) @ 1945000: uvm_test_top.env.axi_agent.drv [axi4_mst_driver] [DRV][AXI][R] id=0x6 beat=1/13 data=0xffffb80b resp=AXI4_RESP_OKAY last=0
# UVM_INFO ../10_tb/axi4_mst/axi4_mst_monitor.sv(256) @ 1945000: uvm_test_top.env.axi_agent.mon [axi4_mst_monitor] [MON][AXI][R] id=0x6 beat=1/13 data=0xffffb80b resp=AXI4_RESP_OKAY last=0
# UVM_INFO ../10_tb/ahb_slv/ahb_slv_driver.sv(87) @ 1965000: uvm_test_top.env.ahb_agent.drv [ahb_slv_driver] [DRV][AHB][REQ] AHB_READ addr=0x4800 trans=AHB_TRANS_NONSEQ burst=AHB_BURST_INCR size=4B
# UVM_INFO ../10_tb/axi4_mst/axi4_mst_driver.sv(326) @ 1965000: uvm_test_top.env.axi_agent.drv [axi4_mst_driver] [DRV][AXI][R] id=0x6 beat=2/13 data=0xffffb807 resp=AXI4_RESP_OKAY last=0
# UVM_INFO ../10_tb/axi4_mst/axi4_mst_monitor.sv(256) @ 1965000: uvm_test_top.env.axi_agent.mon [axi4_mst_monitor] [MON][AXI][R] id=0x6 beat=2/13 data=0xffffb807 resp=AXI4_RESP_OKAY last=0
# UVM_INFO ../10_tb/seq/ahb_slv_seq/ahb_slv_response_mapping_seq.sv(54) @ 1965000: uvm_test_top.env.ahb_agent.sqr@@ahb_seq [ahb_slv_response_mapping_seq] [RSP][AHB] AHB_READ addr=0x4800 resp=AHB_RESP_ERROR waits=0
# UVM_INFO ../10_tb/ahb_slv/ahb_slv_driver.sv(201) @ 1985000: uvm_test_top.env.ahb_agent.drv [ahb_slv_driver] [DRV][AHB][RSP] AHB_READ addr=0x4800 data=0xffffb7ff resp=AHB_RESP_ERROR ready_delay=0
# UVM_INFO ../10_tb/ahb_slv/ahb_slv_monitor.sv(119) @ 1985000: uvm_test_top.env.ahb_agent.mon [ahb_slv_monitor] [MON][AHB][TR] AHB AHB_READ addr=0x4800 trans=AHB_TRANS_NONSEQ burst=AHB_BURST_INCR size=4B mastlock=0 resp=AHB_RESP_ERROR waits=1 | data=0xffffb7ff
# UVM_INFO ../10_tb/env/scoreboard.sv(359) @ 1985000: uvm_test_top.env.scb [scoreboard] [SCB][AHB][PASS] AHB AHB_READ addr=0x4800 trans=AHB_TRANS_NONSEQ burst=AHB_BURST_INCR size=4B mastlock=0 resp=AHB_RESP_ERROR waits=1 | data=0xffffb7ff | total=44
# UVM_INFO ../10_tb/ahb_slv/ahb_slv_driver.sv(87) @ 1995000: uvm_test_top.env.ahb_agent.drv [ahb_slv_driver] [DRV][AHB][REQ] AHB_READ addr=0x4804 trans=AHB_TRANS_SEQ burst=AHB_BURST_INCR size=4B
# UVM_INFO ../10_tb/seq/ahb_slv_seq/ahb_slv_response_mapping_seq.sv(54) @ 1995000: uvm_test_top.env.ahb_agent.sqr@@ahb_seq [ahb_slv_response_mapping_seq] [RSP][AHB] AHB_READ addr=0x4804 resp=AHB_RESP_OKAY waits=0
# UVM_INFO ../10_tb/ahb_slv/ahb_slv_driver.sv(201) @ 2005000: uvm_test_top.env.ahb_agent.drv [ahb_slv_driver] [DRV][AHB][RSP] AHB_READ addr=0x4804 data=0xffffb7fb resp=AHB_RESP_OKAY ready_delay=0
# UVM_INFO ../10_tb/ahb_slv/ahb_slv_monitor.sv(119) @ 2005000: uvm_test_top.env.ahb_agent.mon [ahb_slv_monitor] [MON][AHB][TR] AHB AHB_READ addr=0x4804 trans=AHB_TRANS_SEQ burst=AHB_BURST_INCR size=4B mastlock=0 resp=AHB_RESP_OKAY waits=0 | data=0xffffb7fb
# UVM_INFO ../10_tb/env/scoreboard.sv(359) @ 2005000: uvm_test_top.env.scb [scoreboard] [SCB][AHB][PASS] AHB AHB_READ addr=0x4804 trans=AHB_TRANS_SEQ burst=AHB_BURST_INCR size=4B mastlock=0 resp=AHB_RESP_OKAY waits=0 | data=0xffffb7fb | total=45
# UVM_INFO ../10_tb/axi4_mst/axi4_mst_driver.sv(326) @ 2005000: uvm_test_top.env.axi_agent.drv [axi4_mst_driver] [DRV][AXI][R] id=0x6 beat=3/13 data=0xffffb803 resp=AXI4_RESP_OKAY last=0
# UVM_INFO ../10_tb/axi4_mst/axi4_mst_monitor.sv(256) @ 2005000: uvm_test_top.env.axi_agent.mon [axi4_mst_monitor] [MON][AXI][R] id=0x6 beat=3/13 data=0xffffb803 resp=AXI4_RESP_OKAY last=0
# UVM_INFO ../10_tb/ahb_slv/ahb_slv_driver.sv(87) @ 2025000: uvm_test_top.env.ahb_agent.drv [ahb_slv_driver] [DRV][AHB][REQ] AHB_READ addr=0x4808 trans=AHB_TRANS_SEQ burst=AHB_BURST_INCR size=4B
# UVM_INFO ../10_tb/seq/ahb_slv_seq/ahb_slv_response_mapping_seq.sv(54) @ 2025000: uvm_test_top.env.ahb_agent.sqr@@ahb_seq [ahb_slv_response_mapping_seq] [RSP][AHB] AHB_READ addr=0x4808 resp=AHB_RESP_OKAY waits=1
# UVM_INFO ../10_tb/axi4_mst/axi4_mst_driver.sv(326) @ 2035000: uvm_test_top.env.axi_agent.drv [axi4_mst_driver] [DRV][AXI][R] id=0x6 beat=4/13 data=0xffffb7ff resp=AXI4_RESP_SLVERR last=0
# UVM_INFO ../10_tb/axi4_mst/axi4_mst_monitor.sv(256) @ 2035000: uvm_test_top.env.axi_agent.mon [axi4_mst_monitor] [MON][AXI][R] id=0x6 beat=4/13 data=0xffffb7ff resp=AXI4_RESP_SLVERR last=0
# UVM_INFO ../10_tb/ahb_slv/ahb_slv_driver.sv(201) @ 2045000: uvm_test_top.env.ahb_agent.drv [ahb_slv_driver] [DRV][AHB][RSP] AHB_READ addr=0x4808 data=0xffffb7f7 resp=AHB_RESP_OKAY ready_delay=1
# UVM_INFO ../10_tb/ahb_slv/ahb_slv_monitor.sv(119) @ 2045000: uvm_test_top.env.ahb_agent.mon [ahb_slv_monitor] [MON][AHB][TR] AHB AHB_READ addr=0x4808 trans=AHB_TRANS_SEQ burst=AHB_BURST_INCR size=4B mastlock=0 resp=AHB_RESP_OKAY waits=1 | data=0xffffb7f7
# UVM_INFO ../10_tb/env/scoreboard.sv(359) @ 2045000: uvm_test_top.env.scb [scoreboard] [SCB][AHB][PASS] AHB AHB_READ addr=0x4808 trans=AHB_TRANS_SEQ burst=AHB_BURST_INCR size=4B mastlock=0 resp=AHB_RESP_OKAY waits=1 | data=0xffffb7f7 | total=46
# UVM_INFO ../10_tb/ahb_slv/ahb_slv_driver.sv(87) @ 2055000: uvm_test_top.env.ahb_agent.drv [ahb_slv_driver] [DRV][AHB][REQ] AHB_READ addr=0x480c trans=AHB_TRANS_SEQ burst=AHB_BURST_INCR size=4B
# UVM_INFO ../10_tb/axi4_mst/axi4_mst_driver.sv(326) @ 2055000: uvm_test_top.env.axi_agent.drv [axi4_mst_driver] [DRV][AXI][R] id=0x6 beat=5/13 data=0xffffb7fb resp=AXI4_RESP_OKAY last=0
# UVM_INFO ../10_tb/axi4_mst/axi4_mst_monitor.sv(256) @ 2055000: uvm_test_top.env.axi_agent.mon [axi4_mst_monitor] [MON][AXI][R] id=0x6 beat=5/13 data=0xffffb7fb resp=AXI4_RESP_OKAY last=0
# UVM_INFO ../10_tb/seq/ahb_slv_seq/ahb_slv_response_mapping_seq.sv(54) @ 2055000: uvm_test_top.env.ahb_agent.sqr@@ahb_seq [ahb_slv_response_mapping_seq] [RSP][AHB] AHB_READ addr=0x480c resp=AHB_RESP_OKAY waits=0
# UVM_INFO ../10_tb/ahb_slv/ahb_slv_driver.sv(201) @ 2065000: uvm_test_top.env.ahb_agent.drv [ahb_slv_driver] [DRV][AHB][RSP] AHB_READ addr=0x480c data=0xffffb7f3 resp=AHB_RESP_OKAY ready_delay=0
# UVM_INFO ../10_tb/ahb_slv/ahb_slv_monitor.sv(119) @ 2065000: uvm_test_top.env.ahb_agent.mon [ahb_slv_monitor] [MON][AHB][TR] AHB AHB_READ addr=0x480c trans=AHB_TRANS_SEQ burst=AHB_BURST_INCR size=4B mastlock=0 resp=AHB_RESP_OKAY waits=0 | data=0xffffb7f3
# UVM_INFO ../10_tb/env/scoreboard.sv(359) @ 2065000: uvm_test_top.env.scb [scoreboard] [SCB][AHB][PASS] AHB AHB_READ addr=0x480c trans=AHB_TRANS_SEQ burst=AHB_BURST_INCR size=4B mastlock=0 resp=AHB_RESP_OKAY waits=0 | data=0xffffb7f3 | total=47
# UVM_INFO ../10_tb/ahb_slv/ahb_slv_driver.sv(87) @ 2075000: uvm_test_top.env.ahb_agent.drv [ahb_slv_driver] [DRV][AHB][REQ] AHB_READ addr=0x4810 trans=AHB_TRANS_SEQ burst=AHB_BURST_INCR size=4B
# UVM_INFO ../10_tb/seq/ahb_slv_seq/ahb_slv_response_mapping_seq.sv(54) @ 2075000: uvm_test_top.env.ahb_agent.sqr@@ahb_seq [ahb_slv_response_mapping_seq] [RSP][AHB] AHB_READ addr=0x4810 resp=AHB_RESP_OKAY waits=0
# UVM_INFO ../10_tb/ahb_slv/ahb_slv_driver.sv(201) @ 2085000: uvm_test_top.env.ahb_agent.drv [ahb_slv_driver] [DRV][AHB][RSP] AHB_READ addr=0x4810 data=0xffffb7ef resp=AHB_RESP_OKAY ready_delay=0
# UVM_INFO ../10_tb/ahb_slv/ahb_slv_monitor.sv(119) @ 2085000: uvm_test_top.env.ahb_agent.mon [ahb_slv_monitor] [MON][AHB][TR] AHB AHB_READ addr=0x4810 trans=AHB_TRANS_SEQ burst=AHB_BURST_INCR size=4B mastlock=0 resp=AHB_RESP_OKAY waits=0 | data=0xffffb7ef
# UVM_INFO ../10_tb/env/scoreboard.sv(359) @ 2085000: uvm_test_top.env.scb [scoreboard] [SCB][AHB][PASS] AHB AHB_READ addr=0x4810 trans=AHB_TRANS_SEQ burst=AHB_BURST_INCR size=4B mastlock=0 resp=AHB_RESP_OKAY waits=0 | data=0xffffb7ef | total=48
# UVM_INFO ../10_tb/axi4_mst/axi4_mst_driver.sv(326) @ 2085000: uvm_test_top.env.axi_agent.drv [axi4_mst_driver] [DRV][AXI][R] id=0x6 beat=6/13 data=0xffffb7f7 resp=AXI4_RESP_OKAY last=0
# UVM_INFO ../10_tb/axi4_mst/axi4_mst_monitor.sv(256) @ 2085000: uvm_test_top.env.axi_agent.mon [axi4_mst_monitor] [MON][AXI][R] id=0x6 beat=6/13 data=0xffffb7f7 resp=AXI4_RESP_OKAY last=0
# UVM_INFO ../10_tb/ahb_slv/ahb_slv_driver.sv(87) @ 2105000: uvm_test_top.env.ahb_agent.drv [ahb_slv_driver] [DRV][AHB][REQ] AHB_READ addr=0x4814 trans=AHB_TRANS_SEQ burst=AHB_BURST_INCR size=4B
# UVM_INFO ../10_tb/axi4_mst/axi4_mst_driver.sv(326) @ 2105000: uvm_test_top.env.axi_agent.drv [axi4_mst_driver] [DRV][AXI][R] id=0x6 beat=7/13 data=0xffffb7f3 resp=AXI4_RESP_OKAY last=0
# UVM_INFO ../10_tb/axi4_mst/axi4_mst_monitor.sv(256) @ 2105000: uvm_test_top.env.axi_agent.mon [axi4_mst_monitor] [MON][AXI][R] id=0x6 beat=7/13 data=0xffffb7f3 resp=AXI4_RESP_OKAY last=0
# UVM_INFO ../10_tb/seq/ahb_slv_seq/ahb_slv_response_mapping_seq.sv(54) @ 2105000: uvm_test_top.env.ahb_agent.sqr@@ahb_seq [ahb_slv_response_mapping_seq] [RSP][AHB] AHB_READ addr=0x4814 resp=AHB_RESP_ERROR waits=0
# UVM_INFO ../10_tb/ahb_slv/ahb_slv_driver.sv(201) @ 2125000: uvm_test_top.env.ahb_agent.drv [ahb_slv_driver] [DRV][AHB][RSP] AHB_READ addr=0x4814 data=0xffffb7eb resp=AHB_RESP_ERROR ready_delay=0
# UVM_INFO ../10_tb/ahb_slv/ahb_slv_monitor.sv(119) @ 2125000: uvm_test_top.env.ahb_agent.mon [ahb_slv_monitor] [MON][AHB][TR] AHB AHB_READ addr=0x4814 trans=AHB_TRANS_SEQ burst=AHB_BURST_INCR size=4B mastlock=0 resp=AHB_RESP_ERROR waits=1 | data=0xffffb7eb
# UVM_INFO ../10_tb/env/scoreboard.sv(359) @ 2125000: uvm_test_top.env.scb [scoreboard] [SCB][AHB][PASS] AHB AHB_READ addr=0x4814 trans=AHB_TRANS_SEQ burst=AHB_BURST_INCR size=4B mastlock=0 resp=AHB_RESP_ERROR waits=1 | data=0xffffb7eb | total=49
# UVM_INFO ../10_tb/ahb_slv/ahb_slv_driver.sv(87) @ 2135000: uvm_test_top.env.ahb_agent.drv [ahb_slv_driver] [DRV][AHB][REQ] AHB_READ addr=0x4818 trans=AHB_TRANS_SEQ burst=AHB_BURST_INCR size=4B
