# vsim -c -coverage -sv_seed 13274765 "+UVM_TESTNAME=bridge_1kb_boundary_test" "+UVM_VERBOSITY=UVM_HIGH" -l report/logs/bridge_1kb_boundary_test_w64n_run_5_seed_13274765.log -wlf report/wlf/bridge_1kb_boundary_test_w64n_run_5_seed_13274765.wlf -do "coverage save -onexit report/coverage/bridge_1kb_boundary_test_w64n_run_5_seed_13274765.ucdb; run -all; quit -f" work64.opt_bridge_tb_top_w64_narrow 
# Start time: 16:03:54 on Oct 01,2026
# //  Questa Sim-64
# //  Version 10.6b linux_x86_64 May 25 2017
# //
# //  Copyright 1991-2017 Mentor Graphics Corporation
# //  All Rights Reserved.
# //
# //  QuestaSim and its associated documentation contain trade
# //  secrets and commercial or financial information that are the property of
# //  Mentor Graphics Corporation and are privileged, confidential,
# //  and exempt from disclosure under the Freedom of Information Act,
# //  5 U.S.C. Section 552. Furthermore, this information
# //  is prohibited from disclosure under the Trade Secrets Act,
# //  18 U.S.C. Section 1905.
# //
# Loading sv_std.std
# Loading work.axi4_if(fast)
# Loading work.ahb_if(fast)
# Loading mtiUvm.uvm_pkg
# Loading work.bridge_vip_pkg(fast)
# Loading work.bridge_seq_pkg(fast)
# Loading work.bridge_test_pkg(fast)
# Loading work.bridge_tb_top(fast)
# Loading work.axi4_if(fast)
# Loading work.ahb_if(fast)
# Loading work.axi_ahblite_bridge(fast)
# Loading work.ahb_skid_buf(fast)
# Loading work.axi_slv_if(fast)
# Loading work.ahb_mstr_if(fast)
# Loading work.time_out(fast)
# Loading work.axi4_sva(fast)
# Loading work.ahb_sva(fast)
# Loading mtiUvm.questa_uvm_pkg(fast)
# Loading /cadtools/mentor/Questa_10.6b/questasim/uvm-1.1d/linux_x86_64/uvm_dpi.so
# coverage save -onexit report/coverage/bridge_1kb_boundary_test_w64n_run_5_seed_13274765.ucdb
#  run -all
# ----------------------------------------------------------------
# UVM-1.1d
# (C) 2007-2013 Mentor Graphics Corporation
# (C) 2007-2013 Cadence Design Systems, Inc.
# (C) 2006-2013 Synopsys, Inc.
# (C) 2011-2013 Cypress Semiconductor Corp.
# ----------------------------------------------------------------
# 
#   ***********       IMPORTANT RELEASE NOTES         ************
# 
#   You are using a version of the UVM library that has been compiled
#   with `UVM_NO_DEPRECATED undefined.
#   See http://www.eda.org/svdb/view.php?id=3313 for more details.
# 
#   You are using a version of the UVM library that has been compiled
#   with `UVM_OBJECT_MUST_HAVE_CONSTRUCTOR undefined.
#   See http://www.eda.org/svdb/view.php?id=3770 for more details.
# 
#       (Specify +UVM_NO_RELNOTES to turn off this notice)
# 
# UVM_INFO verilog_src/questa_uvm_pkg-1.2/src/questa_uvm_pkg.sv(215) @ 0: reporter [Questa UVM] QUESTA_UVM-1.2.3
# UVM_INFO verilog_src/questa_uvm_pkg-1.2/src/questa_uvm_pkg.sv(217) @ 0: reporter [Questa UVM]  questa_uvm::init(+struct)
# UVM_INFO @ 0: reporter [RNTST] Running test bridge_1kb_boundary_test...
# UVM_INFO @ 0: reporter [UVMTOP] UVM testbench topology:
# -------------------------------------------------------------------------
# Name                       Type                               Size  Value
# -------------------------------------------------------------------------
# uvm_test_top               bridge_1kb_boundary_test           -     @490 
#   env                      vip_env                            -     @508 
#     ahb_agent              ahb_slv_agent                      -     @529 
#       ap                   uvm_analysis_port                  -     @667 
#       cov                  ahb_slv_coverage                   -     @693 
#         analysis_imp       uvm_analysis_imp                   -     @700 
#         trans_export       uvm_analysis_imp_ahb_trans         -     @841 
#       drv                  ahb_slv_driver                     -     @818 
#         rsp_port           uvm_analysis_port                  -     @833 
#         seq_item_port      uvm_seq_item_pull_port             -     @825 
#       mon                  ahb_slv_monitor                    -     @686 
#         ap                 uvm_analysis_port                  -     @850 
#         trans_ap           uvm_analysis_port                  -     @858 
#       sqr                  ahb_slv_sequencer                  -     @709 
#         rsp_export         uvm_analysis_export                -     @716 
#         seq_item_export    uvm_seq_item_pull_imp              -     @810 
#         arbitration_queue  array                              0     -    
#         lock_queue         array                              0     -    
#         num_last_reqs      integral                           32    'd1  
#         num_last_rsps      integral                           32    'd1  
#       trans_ap             uvm_analysis_port                  -     @675 
#     axi_agent              axi4_mst_agent                     -     @522 
#       ap                   uvm_analysis_port                  -     @881 
#       cov                  axi4_mst_coverage                  -     @899 
#         analysis_imp       uvm_analysis_imp                   -     @906 
#       drv                  axi4_mst_driver                    -     @1024
#         rsp_port           uvm_analysis_port                  -     @1039
#         seq_item_port      uvm_seq_item_pull_port             -     @1031
#       mon                  axi4_mst_monitor                   -     @892 
#         ap                 uvm_analysis_port                  -     @1056
#         req_ap             uvm_analysis_port                  -     @1048
#       req_ap               uvm_analysis_port                  -     @873 
#       sqr                  axi4_mst_sequencer                 -     @915 
#         rsp_export         uvm_analysis_export                -     @922 
#         seq_item_export    uvm_seq_item_pull_imp              -     @1016
#         arbitration_queue  array                              0     -    
#         lock_queue         array                              0     -    
#         num_last_reqs      integral                           32    'd1  
#         num_last_rsps      integral                           32    'd1  
#     cov                    e2e_cov                            -     @659 
#       actual_ahb_export    uvm_analysis_imp_e2e_actual_ahb    -     @1086
#       axi_req_export       uvm_analysis_imp_e2e_axi_req       -     @1070
#       axi_rsp_export       uvm_analysis_imp_e2e_axi_rsp       -     @1094
#       expected_ahb_export  uvm_analysis_imp_e2e_expected_ahb  -     @1078
#     pred                   predictor                          -     @645 
#       axi_request_export   uvm_analysis_imp_axi_request       -     @1102
#       expected_ahb_ap      uvm_analysis_port                  -     @1110
#       expected_axi_ap      uvm_analysis_port                  -     @1118
#     scb                    scoreboard                         -     @652 
#       actual_ahb_export    uvm_analysis_imp_actual_ahb        -     @1134
#       actual_axi_export    uvm_analysis_imp_actual_axi        -     @1150
#       expected_ahb_export  uvm_analysis_imp_expected_ahb      -     @1126
#       expected_axi_export  uvm_analysis_imp_expected_axi      -     @1142
#     vseqr                  virtual_sequencer                  -     @536 
#       rsp_export           uvm_analysis_export                -     @543 
#       seq_item_export      uvm_seq_item_pull_imp              -     @637 
#       arbitration_queue    array                              0     -    
#       lock_queue           array                              0     -    
#       num_last_reqs        integral                           32    'd1  
#       num_last_rsps        integral                           32    'd1  
# -------------------------------------------------------------------------
# 
# UVM_INFO verilog_src/questa_uvm_pkg-1.2/src/questa_uvm_pkg.sv(277) @ 0: reporter [Questa UVM] End Of Elaboration
# UVM_INFO ../10_tb/bridge_tb_top.sv(47) @ 95000: reporter [BRIDGE_TB_TOP] Power-on reset released
# UVM_INFO ../10_tb/seq/axi4_mst_seq/axi4_mst_1kb_boundary_seq.sv(69) @ 95000: uvm_test_top.env.axi_agent.sqr@@axi_seq [axi4_mst_1kb_boundary_seq] 1KB boundary: 23 entries
# UVM_INFO ../10_tb/seq/axi4_mst_seq/axi4_mst_1kb_boundary_seq.sv(157) @ 95000: uvm_test_top.env.axi_agent.sqr@@axi_seq [axi4_mst_1kb_boundary_seq] [0] NO_CROSS_INCR4_WR addr=0x10000 beats=4 page_off=0x0 class=BOUNDARY_NO_CROSS
# UVM_INFO ../10_tb/axi4_mst/axi4_mst_driver.sv(105) @ 95000: uvm_test_top.env.axi_agent.drv [axi4_mst_driver] [DRV][AXI][REQ] AXI4 AXI4_WRITE id=0xe addr=0x10000 burst=AXI4_BURST_INCR beats=4 size=8B lock=0 | outstanding=1
# UVM_INFO ../10_tb/axi4_mst/axi4_mst_driver.sv(178) @ 135000: uvm_test_top.env.axi_agent.drv [axi4_mst_driver] [DRV][AXI][AW] id=0xe addr=0x10000 burst=AXI4_BURST_INCR beats=4 size=8B
# UVM_INFO ../10_tb/axi4_mst/axi4_mst_driver.sv(202) @ 135000: uvm_test_top.env.axi_agent.drv [axi4_mst_driver] [DRV][AXI][W] id=0xe beat=1/4 data=0xa7a6a5a4a3a2a1a0 strb=0xff last=0
# UVM_INFO ../10_tb/ahb_slv/ahb_slv_driver.sv(87) @ 145000: uvm_test_top.env.ahb_agent.drv [ahb_slv_driver] [DRV][AHB][REQ] AHB_WRITE addr=0x10000 trans=AHB_TRANS_NONSEQ burst=AHB_BURST_INCR4 size=8B
# UVM_INFO ../10_tb/ahb_slv/ahb_slv_driver.sv(201) @ 155000: uvm_test_top.env.ahb_agent.drv [ahb_slv_driver] [DRV][AHB][RSP] AHB_WRITE addr=0x10000 data=0xa7a6a5a4a3a2a1a0 resp=AHB_RESP_OKAY ready_delay=0
# UVM_INFO ../10_tb/ahb_slv/ahb_slv_monitor.sv(119) @ 155000: uvm_test_top.env.ahb_agent.mon [ahb_slv_monitor] [MON][AHB][TR] AHB AHB_WRITE addr=0x10000 trans=AHB_TRANS_NONSEQ burst=AHB_BURST_INCR4 size=8B mastlock=0 resp=AHB_RESP_OKAY waits=0 | data=0xa7a6a5a4a3a2a1a0
# UVM_INFO ../10_tb/ahb_slv/ahb_slv_driver.sv(87) @ 165000: uvm_test_top.env.ahb_agent.drv [ahb_slv_driver] [DRV][AHB][REQ] AHB_WRITE addr=0x10008 trans=AHB_TRANS_SEQ burst=AHB_BURST_INCR4 size=8B
# UVM_INFO ../10_tb/axi4_mst/axi4_mst_driver.sv(202) @ 165000: uvm_test_top.env.axi_agent.drv [axi4_mst_driver] [DRV][AXI][W] id=0xe beat=2/4 data=0xa9a8a7a6a5a4a3a2 strb=0xff last=0
# UVM_INFO ../10_tb/ahb_slv/ahb_slv_driver.sv(201) @ 175000: uvm_test_top.env.ahb_agent.drv [ahb_slv_driver] [DRV][AHB][RSP] AHB_WRITE addr=0x10008 data=0xa9a8a7a6a5a4a3a2 resp=AHB_RESP_OKAY ready_delay=0
# UVM_INFO ../10_tb/ahb_slv/ahb_slv_monitor.sv(119) @ 175000: uvm_test_top.env.ahb_agent.mon [ahb_slv_monitor] [MON][AHB][TR] AHB AHB_WRITE addr=0x10008 trans=AHB_TRANS_SEQ burst=AHB_BURST_INCR4 size=8B mastlock=0 resp=AHB_RESP_OKAY waits=0 | data=0xa9a8a7a6a5a4a3a2
# UVM_INFO ../10_tb/ahb_slv/ahb_slv_driver.sv(87) @ 185000: uvm_test_top.env.ahb_agent.drv [ahb_slv_driver] [DRV][AHB][REQ] AHB_WRITE addr=0x10010 trans=AHB_TRANS_SEQ burst=AHB_BURST_INCR4 size=8B
# UVM_INFO ../10_tb/axi4_mst/axi4_mst_driver.sv(202) @ 185000: uvm_test_top.env.axi_agent.drv [axi4_mst_driver] [DRV][AXI][W] id=0xe beat=3/4 data=0xabaaa9a8a7a6a5a4 strb=0xff last=0
# UVM_INFO ../10_tb/ahb_slv/ahb_slv_driver.sv(201) @ 195000: uvm_test_top.env.ahb_agent.drv [ahb_slv_driver] [DRV][AHB][RSP] AHB_WRITE addr=0x10010 data=0xabaaa9a8a7a6a5a4 resp=AHB_RESP_OKAY ready_delay=0
# UVM_INFO ../10_tb/ahb_slv/ahb_slv_monitor.sv(119) @ 195000: uvm_test_top.env.ahb_agent.mon [ahb_slv_monitor] [MON][AHB][TR] AHB AHB_WRITE addr=0x10010 trans=AHB_TRANS_SEQ burst=AHB_BURST_INCR4 size=8B mastlock=0 resp=AHB_RESP_OKAY waits=0 | data=0xabaaa9a8a7a6a5a4
# UVM_INFO ../10_tb/ahb_slv/ahb_slv_driver.sv(87) @ 205000: uvm_test_top.env.ahb_agent.drv [ahb_slv_driver] [DRV][AHB][REQ] AHB_WRITE addr=0x10018 trans=AHB_TRANS_SEQ burst=AHB_BURST_INCR4 size=8B
# UVM_INFO ../10_tb/axi4_mst/axi4_mst_driver.sv(202) @ 205000: uvm_test_top.env.axi_agent.drv [axi4_mst_driver] [DRV][AXI][W] id=0xe beat=4/4 data=0xadacabaaa9a8a7a6 strb=0xff last=1
# UVM_INFO ../10_tb/axi4_mst/axi4_mst_monitor.sv(151) @ 205000: uvm_test_top.env.axi_agent.mon [axi4_mst_monitor] [MON][AXI][REQ] AXI4 AXI4_WRITE id=0xe addr=0x10000 burst=AXI4_BURST_INCR beats=4 size=8B lock=0
# UVM_INFO ../10_tb/env/predictor.sv(81) @ 205000: uvm_test_top.env.pred [predictor] [PRED][AXI][IN] AXI4 AXI4_WRITE id=0xe addr=0x10000 burst=AXI4_BURST_INCR beats=4 size=8B lock=0 | queued=1
# UVM_INFO ../10_tb/env/predictor.sv(147) @ 205000: uvm_test_top.env.pred [predictor] [PRED][MAP] AXI4 AXI4_WRITE id=0xe addr=0x10000 burst=AXI4_BURST_INCR beats=4 size=8B lock=0 -> AHB burst=AHB_BURST_INCR4 size=8B crosses_1kb=0
# UVM_INFO ../10_tb/env/predictor.sv(178) @ 205000: uvm_test_top.env.pred [predictor] [PRED][AHB] beat=1/4 | AHB AHB_WRITE addr=0x10000 trans=AHB_TRANS_NONSEQ burst=AHB_BURST_INCR4 size=8B mastlock=0 resp=AHB_RESP_OKAY waits=0 | wdata=0xa7a6a5a4a3a2a1a0
# UVM_INFO ../10_tb/env/scoreboard.sv(469) @ 205000: uvm_test_top.env.scb [scoreboard] [SCB][AHB][PASS] AHB AHB_WRITE addr=0x10000 trans=AHB_TRANS_NONSEQ burst=AHB_BURST_INCR4 size=8B mastlock=0 resp=AHB_RESP_OKAY waits=0 | data=0xa7a6a5a4a3a2a1a0 | total=1
# UVM_INFO ../10_tb/env/predictor.sv(178) @ 205000: uvm_test_top.env.pred [predictor] [PRED][AHB] beat=2/4 | AHB AHB_WRITE addr=0x10008 trans=AHB_TRANS_SEQ burst=AHB_BURST_INCR4 size=8B mastlock=0 resp=AHB_RESP_OKAY waits=0 | wdata=0xa9a8a7a6a5a4a3a2
# UVM_INFO ../10_tb/env/scoreboard.sv(469) @ 205000: uvm_test_top.env.scb [scoreboard] [SCB][AHB][PASS] AHB AHB_WRITE addr=0x10008 trans=AHB_TRANS_SEQ burst=AHB_BURST_INCR4 size=8B mastlock=0 resp=AHB_RESP_OKAY waits=0 | data=0xa9a8a7a6a5a4a3a2 | total=2
# UVM_INFO ../10_tb/env/predictor.sv(178) @ 205000: uvm_test_top.env.pred [predictor] [PRED][AHB] beat=3/4 | AHB AHB_WRITE addr=0x10010 trans=AHB_TRANS_SEQ burst=AHB_BURST_INCR4 size=8B mastlock=0 resp=AHB_RESP_OKAY waits=0 | wdata=0xabaaa9a8a7a6a5a4
# UVM_INFO ../10_tb/env/scoreboard.sv(469) @ 205000: uvm_test_top.env.scb [scoreboard] [SCB][AHB][PASS] AHB AHB_WRITE addr=0x10010 trans=AHB_TRANS_SEQ burst=AHB_BURST_INCR4 size=8B mastlock=0 resp=AHB_RESP_OKAY waits=0 | data=0xabaaa9a8a7a6a5a4 | total=3
# UVM_INFO ../10_tb/env/predictor.sv(178) @ 205000: uvm_test_top.env.pred [predictor] [PRED][AHB] beat=4/4 | AHB AHB_WRITE addr=0x10018 trans=AHB_TRANS_SEQ burst=AHB_BURST_INCR4 size=8B mastlock=0 resp=AHB_RESP_OKAY waits=0 | wdata=0xadacabaaa9a8a7a6
# UVM_INFO ../10_tb/ahb_slv/ahb_slv_driver.sv(201) @ 215000: uvm_test_top.env.ahb_agent.drv [ahb_slv_driver] [DRV][AHB][RSP] AHB_WRITE addr=0x10018 data=0xadacabaaa9a8a7a6 resp=AHB_RESP_OKAY ready_delay=0
# UVM_INFO ../10_tb/ahb_slv/ahb_slv_monitor.sv(119) @ 215000: uvm_test_top.env.ahb_agent.mon [ahb_slv_monitor] [MON][AHB][TR] AHB AHB_WRITE addr=0x10018 trans=AHB_TRANS_SEQ burst=AHB_BURST_INCR4 size=8B mastlock=0 resp=AHB_RESP_OKAY waits=0 | data=0xadacabaaa9a8a7a6
# UVM_INFO ../10_tb/env/scoreboard.sv(469) @ 215000: uvm_test_top.env.scb [scoreboard] [SCB][AHB][PASS] AHB AHB_WRITE addr=0x10018 trans=AHB_TRANS_SEQ burst=AHB_BURST_INCR4 size=8B mastlock=0 resp=AHB_RESP_OKAY waits=0 | data=0xadacabaaa9a8a7a6 | total=4
# UVM_INFO ../10_tb/axi4_mst/axi4_mst_driver.sv(280) @ 225000: uvm_test_top.env.axi_agent.drv [axi4_mst_driver] [DRV][AXI][B] id=0xe resp=AXI4_RESP_OKAY
# UVM_INFO ../10_tb/axi4_mst/axi4_mst_monitor.sv(177) @ 225000: uvm_test_top.env.axi_agent.mon [axi4_mst_monitor] [MON][AXI][RSP] WRITE id=0xe resp=AXI4_RESP_OKAY
# UVM_INFO ../10_tb/env/scoreboard.sv(604) @ 225000: uvm_test_top.env.scb [scoreboard] [SCB][AXI][PASS] AXI4 AXI4_WRITE id=0xe addr=0x10000 burst=AXI4_BURST_INCR beats=4 size=8B lock=0 | bresp=AXI4_RESP_OKAY | total=1
# UVM_INFO ../10_tb/seq/axi4_mst_seq/axi4_mst_1kb_boundary_seq.sv(157) @ 225000: uvm_test_top.env.axi_agent.sqr@@axi_seq [axi4_mst_1kb_boundary_seq] [1] NO_CROSS_INCR4_RD addr=0x11000 beats=4 page_off=0x0 class=BOUNDARY_NO_CROSS
# UVM_INFO ../10_tb/axi4_mst/axi4_mst_driver.sv(105) @ 225000: uvm_test_top.env.axi_agent.drv [axi4_mst_driver] [DRV][AXI][REQ] AXI4 AXI4_READ id=0x5 addr=0x11000 burst=AXI4_BURST_INCR beats=4 size=8B lock=0 | outstanding=1
# UVM_INFO ../10_tb/axi4_mst/axi4_mst_driver.sv(255) @ 255000: uvm_test_top.env.axi_agent.drv [axi4_mst_driver] [DRV][AXI][AR] id=0x5 addr=0x11000 burst=AXI4_BURST_INCR beats=4 size=8B
# UVM_INFO ../10_tb/axi4_mst/axi4_mst_monitor.sv(211) @ 255000: uvm_test_top.env.axi_agent.mon [axi4_mst_monitor] [MON][AXI][REQ] AXI4 AXI4_READ id=0x5 addr=0x11000 burst=AXI4_BURST_INCR beats=4 size=8B lock=0
# UVM_INFO ../10_tb/env/predictor.sv(81) @ 255000: uvm_test_top.env.pred [predictor] [PRED][AXI][IN] AXI4 AXI4_READ id=0x5 addr=0x11000 burst=AXI4_BURST_INCR beats=4 size=8B lock=0 | queued=1
# UVM_INFO ../10_tb/env/predictor.sv(147) @ 255000: uvm_test_top.env.pred [predictor] [PRED][MAP] AXI4 AXI4_READ id=0x5 addr=0x11000 burst=AXI4_BURST_INCR beats=4 size=8B lock=0 -> AHB burst=AHB_BURST_INCR4 size=8B crosses_1kb=0
# UVM_INFO ../10_tb/env/predictor.sv(184) @ 255000: uvm_test_top.env.pred [predictor] [PRED][AHB] beat=1/4 | AHB AHB_READ addr=0x11000 trans=AHB_TRANS_NONSEQ burst=AHB_BURST_INCR4 size=8B mastlock=0 resp=AHB_RESP_OKAY waits=0
# UVM_INFO ../10_tb/env/predictor.sv(184) @ 255000: uvm_test_top.env.pred [predictor] [PRED][AHB] beat=2/4 | AHB AHB_READ addr=0x11008 trans=AHB_TRANS_SEQ burst=AHB_BURST_INCR4 size=8B mastlock=0 resp=AHB_RESP_OKAY waits=0
# UVM_INFO ../10_tb/env/predictor.sv(184) @ 255000: uvm_test_top.env.pred [predictor] [PRED][AHB] beat=3/4 | AHB AHB_READ addr=0x11010 trans=AHB_TRANS_SEQ burst=AHB_BURST_INCR4 size=8B mastlock=0 resp=AHB_RESP_OKAY waits=0
# UVM_INFO ../10_tb/env/predictor.sv(184) @ 255000: uvm_test_top.env.pred [predictor] [PRED][AHB] beat=4/4 | AHB AHB_READ addr=0x11018 trans=AHB_TRANS_SEQ burst=AHB_BURST_INCR4 size=8B mastlock=0 resp=AHB_RESP_OKAY waits=0
# UVM_INFO ../10_tb/ahb_slv/ahb_slv_driver.sv(87) @ 265000: uvm_test_top.env.ahb_agent.drv [ahb_slv_driver] [DRV][AHB][REQ] AHB_READ addr=0x11000 trans=AHB_TRANS_NONSEQ burst=AHB_BURST_INCR4 size=8B
# UVM_INFO ../10_tb/ahb_slv/ahb_slv_driver.sv(201) @ 275000: uvm_test_top.env.ahb_agent.drv [ahb_slv_driver] [DRV][AHB][RSP] AHB_READ addr=0x11000 data=0x11000fffeefff resp=AHB_RESP_OKAY ready_delay=0
# UVM_INFO ../10_tb/ahb_slv/ahb_slv_monitor.sv(119) @ 275000: uvm_test_top.env.ahb_agent.mon [ahb_slv_monitor] [MON][AHB][TR] AHB AHB_READ addr=0x11000 trans=AHB_TRANS_NONSEQ burst=AHB_BURST_INCR4 size=8B mastlock=0 resp=AHB_RESP_OKAY waits=0 | data=0x11000fffeefff
# UVM_INFO ../10_tb/env/scoreboard.sv(469) @ 275000: uvm_test_top.env.scb [scoreboard] [SCB][AHB][PASS] AHB AHB_READ addr=0x11000 trans=AHB_TRANS_NONSEQ burst=AHB_BURST_INCR4 size=8B mastlock=0 resp=AHB_RESP_OKAY waits=0 | data=0x11000fffeefff | total=5
# UVM_INFO ../10_tb/ahb_slv/ahb_slv_driver.sv(87) @ 285000: uvm_test_top.env.ahb_agent.drv [ahb_slv_driver] [DRV][AHB][REQ] AHB_READ addr=0x11008 trans=AHB_TRANS_SEQ burst=AHB_BURST_INCR4 size=8B
# UVM_INFO ../10_tb/ahb_slv/ahb_slv_driver.sv(201) @ 295000: uvm_test_top.env.ahb_agent.drv [ahb_slv_driver] [DRV][AHB][RSP] AHB_READ addr=0x11008 data=0x11008fffeeff7 resp=AHB_RESP_OKAY ready_delay=0
# UVM_INFO ../10_tb/ahb_slv/ahb_slv_monitor.sv(119) @ 295000: uvm_test_top.env.ahb_agent.mon [ahb_slv_monitor] [MON][AHB][TR] AHB AHB_READ addr=0x11008 trans=AHB_TRANS_SEQ burst=AHB_BURST_INCR4 size=8B mastlock=0 resp=AHB_RESP_OKAY waits=0 | data=0x11008fffeeff7
# UVM_INFO ../10_tb/env/scoreboard.sv(469) @ 295000: uvm_test_top.env.scb [scoreboard] [SCB][AHB][PASS] AHB AHB_READ addr=0x11008 trans=AHB_TRANS_SEQ burst=AHB_BURST_INCR4 size=8B mastlock=0 resp=AHB_RESP_OKAY waits=0 | data=0x11008fffeeff7 | total=6
# UVM_INFO ../10_tb/axi4_mst/axi4_mst_driver.sv(320) @ 295000: uvm_test_top.env.axi_agent.drv [axi4_mst_driver] [DRV][AXI][R] id=0x5 beat=1/4 data=0x11000fffeefff resp=AXI4_RESP_OKAY last=0
# UVM_INFO ../10_tb/axi4_mst/axi4_mst_monitor.sv(256) @ 295000: uvm_test_top.env.axi_agent.mon [axi4_mst_monitor] [MON][AXI][R] id=0x5 beat=1/4 data=0x11000fffeefff resp=AXI4_RESP_OKAY last=0
# UVM_INFO ../10_tb/ahb_slv/ahb_slv_driver.sv(87) @ 305000: uvm_test_top.env.ahb_agent.drv [ahb_slv_driver] [DRV][AHB][REQ] AHB_READ addr=0x11010 trans=AHB_TRANS_SEQ burst=AHB_BURST_INCR4 size=8B
# UVM_INFO ../10_tb/ahb_slv/ahb_slv_driver.sv(201) @ 315000: uvm_test_top.env.ahb_agent.drv [ahb_slv_driver] [DRV][AHB][RSP] AHB_READ addr=0x11010 data=0x11010fffeefef resp=AHB_RESP_OKAY ready_delay=0
# UVM_INFO ../10_tb/ahb_slv/ahb_slv_monitor.sv(119) @ 315000: uvm_test_top.env.ahb_agent.mon [ahb_slv_monitor] [MON][AHB][TR] AHB AHB_READ addr=0x11010 trans=AHB_TRANS_SEQ burst=AHB_BURST_INCR4 size=8B mastlock=0 resp=AHB_RESP_OKAY waits=0 | data=0x11010fffeefef
# UVM_INFO ../10_tb/env/scoreboard.sv(469) @ 315000: uvm_test_top.env.scb [scoreboard] [SCB][AHB][PASS] AHB AHB_READ addr=0x11010 trans=AHB_TRANS_SEQ burst=AHB_BURST_INCR4 size=8B mastlock=0 resp=AHB_RESP_OKAY waits=0 | data=0x11010fffeefef | total=7
# UVM_INFO ../10_tb/axi4_mst/axi4_mst_driver.sv(320) @ 315000: uvm_test_top.env.axi_agent.drv [axi4_mst_driver] [DRV][AXI][R] id=0x5 beat=2/4 data=0x11008fffeeff7 resp=AXI4_RESP_OKAY last=0
# UVM_INFO ../10_tb/axi4_mst/axi4_mst_monitor.sv(256) @ 315000: uvm_test_top.env.axi_agent.mon [axi4_mst_monitor] [MON][AXI][R] id=0x5 beat=2/4 data=0x11008fffeeff7 resp=AXI4_RESP_OKAY last=0
# UVM_INFO ../10_tb/ahb_slv/ahb_slv_driver.sv(87) @ 325000: uvm_test_top.env.ahb_agent.drv [ahb_slv_driver] [DRV][AHB][REQ] AHB_READ addr=0x11018 trans=AHB_TRANS_SEQ burst=AHB_BURST_INCR4 size=8B
# UVM_INFO ../10_tb/ahb_slv/ahb_slv_driver.sv(201) @ 335000: uvm_test_top.env.ahb_agent.drv [ahb_slv_driver] [DRV][AHB][RSP] AHB_READ addr=0x11018 data=0x11018fffeefe7 resp=AHB_RESP_OKAY ready_delay=0
# UVM_INFO ../10_tb/ahb_slv/ahb_slv_monitor.sv(119) @ 335000: uvm_test_top.env.ahb_agent.mon [ahb_slv_monitor] [MON][AHB][TR] AHB AHB_READ addr=0x11018 trans=AHB_TRANS_SEQ burst=AHB_BURST_INCR4 size=8B mastlock=0 resp=AHB_RESP_OKAY waits=0 | data=0x11018fffeefe7
# UVM_INFO ../10_tb/env/scoreboard.sv(469) @ 335000: uvm_test_top.env.scb [scoreboard] [SCB][AHB][PASS] AHB AHB_READ addr=0x11018 trans=AHB_TRANS_SEQ burst=AHB_BURST_INCR4 size=8B mastlock=0 resp=AHB_RESP_OKAY waits=0 | data=0x11018fffeefe7 | total=8
# UVM_INFO ../10_tb/axi4_mst/axi4_mst_driver.sv(320) @ 335000: uvm_test_top.env.axi_agent.drv [axi4_mst_driver] [DRV][AXI][R] id=0x5 beat=3/4 data=0x11010fffeefef resp=AXI4_RESP_OKAY last=0
# UVM_INFO ../10_tb/axi4_mst/axi4_mst_monitor.sv(256) @ 335000: uvm_test_top.env.axi_agent.mon [axi4_mst_monitor] [MON][AXI][R] id=0x5 beat=3/4 data=0x11010fffeefef resp=AXI4_RESP_OKAY last=0
# UVM_INFO ../10_tb/axi4_mst/axi4_mst_driver.sv(320) @ 355000: uvm_test_top.env.axi_agent.drv [axi4_mst_driver] [DRV][AXI][R] id=0x5 beat=4/4 data=0x11018fffeefe7 resp=AXI4_RESP_OKAY last=1
# UVM_INFO ../10_tb/axi4_mst/axi4_mst_monitor.sv(256) @ 355000: uvm_test_top.env.axi_agent.mon [axi4_mst_monitor] [MON][AXI][R] id=0x5 beat=4/4 data=0x11018fffeefe7 resp=AXI4_RESP_OKAY last=1
# UVM_INFO ../10_tb/axi4_mst/axi4_mst_monitor.sv(262) @ 355000: uvm_test_top.env.axi_agent.mon [axi4_mst_monitor] [MON][AXI][RSP] READ id=0x5 beats=4
# UVM_INFO ../10_tb/env/scoreboard.sv(611) @ 355000: uvm_test_top.env.scb [scoreboard] [SCB][AXI][PASS] AXI4 AXI4_READ id=0x5 addr=0x11000 burst=AXI4_BURST_INCR beats=4 size=8B lock=0 | read beats=4 | total=2
# UVM_INFO ../10_tb/seq/axi4_mst_seq/axi4_mst_1kb_boundary_seq.sv(157) @ 355000: uvm_test_top.env.axi_agent.sqr@@axi_seq [axi4_mst_1kb_boundary_seq] [2] NO_CROSS_INCR8_WR addr=0x12000 beats=8 page_off=0x0 class=BOUNDARY_NO_CROSS
# UVM_INFO ../10_tb/axi4_mst/axi4_mst_driver.sv(105) @ 355000: uvm_test_top.env.axi_agent.drv [axi4_mst_driver] [DRV][AXI][REQ] AXI4 AXI4_WRITE id=0x8 addr=0x12000 burst=AXI4_BURST_INCR beats=8 size=8B lock=0 | outstanding=1
# UVM_INFO ../10_tb/axi4_mst/axi4_mst_driver.sv(178) @ 395000: uvm_test_top.env.axi_agent.drv [axi4_mst_driver] [DRV][AXI][AW] id=0x8 addr=0x12000 burst=AXI4_BURST_INCR beats=8 size=8B
# UVM_INFO ../10_tb/axi4_mst/axi4_mst_driver.sv(202) @ 395000: uvm_test_top.env.axi_agent.drv [axi4_mst_driver] [DRV][AXI][W] id=0x8 beat=1/8 data=0xabaaa9a8a7a6a5a4 strb=0xff last=0
# UVM_INFO ../10_tb/ahb_slv/ahb_slv_driver.sv(87) @ 405000: uvm_test_top.env.ahb_agent.drv [ahb_slv_driver] [DRV][AHB][REQ] AHB_WRITE addr=0x12000 trans=AHB_TRANS_NONSEQ burst=AHB_BURST_INCR8 size=8B
# UVM_INFO ../10_tb/ahb_slv/ahb_slv_driver.sv(201) @ 415000: uvm_test_top.env.ahb_agent.drv [ahb_slv_driver] [DRV][AHB][RSP] AHB_WRITE addr=0x12000 data=0xabaaa9a8a7a6a5a4 resp=AHB_RESP_OKAY ready_delay=0
# UVM_INFO ../10_tb/ahb_slv/ahb_slv_monitor.sv(119) @ 415000: uvm_test_top.env.ahb_agent.mon [ahb_slv_monitor] [MON][AHB][TR] AHB AHB_WRITE addr=0x12000 trans=AHB_TRANS_NONSEQ burst=AHB_BURST_INCR8 size=8B mastlock=0 resp=AHB_RESP_OKAY waits=0 | data=0xabaaa9a8a7a6a5a4
# UVM_INFO ../10_tb/ahb_slv/ahb_slv_driver.sv(87) @ 425000: uvm_test_top.env.ahb_agent.drv [ahb_slv_driver] [DRV][AHB][REQ] AHB_WRITE addr=0x12008 trans=AHB_TRANS_SEQ burst=AHB_BURST_INCR8 size=8B
# UVM_INFO ../10_tb/axi4_mst/axi4_mst_driver.sv(202) @ 425000: uvm_test_top.env.axi_agent.drv [axi4_mst_driver] [DRV][AXI][W] id=0x8 beat=2/8 data=0xadacabaaa9a8a7a6 strb=0xff last=0
# UVM_INFO ../10_tb/ahb_slv/ahb_slv_driver.sv(201) @ 435000: uvm_test_top.env.ahb_agent.drv [ahb_slv_driver] [DRV][AHB][RSP] AHB_WRITE addr=0x12008 data=0xadacabaaa9a8a7a6 resp=AHB_RESP_OKAY ready_delay=0
# UVM_INFO ../10_tb/ahb_slv/ahb_slv_monitor.sv(119) @ 435000: uvm_test_top.env.ahb_agent.mon [ahb_slv_monitor] [MON][AHB][TR] AHB AHB_WRITE addr=0x12008 trans=AHB_TRANS_SEQ burst=AHB_BURST_INCR8 size=8B mastlock=0 resp=AHB_RESP_OKAY waits=0 | data=0xadacabaaa9a8a7a6
# UVM_INFO ../10_tb/ahb_slv/ahb_slv_driver.sv(87) @ 445000: uvm_test_top.env.ahb_agent.drv [ahb_slv_driver] [DRV][AHB][REQ] AHB_WRITE addr=0x12010 trans=AHB_TRANS_SEQ burst=AHB_BURST_INCR8 size=8B
# UVM_INFO ../10_tb/axi4_mst/axi4_mst_driver.sv(202) @ 445000: uvm_test_top.env.axi_agent.drv [axi4_mst_driver] [DRV][AXI][W] id=0x8 beat=3/8 data=0xafaeadacabaaa9a8 strb=0xff last=0
# UVM_INFO ../10_tb/ahb_slv/ahb_slv_driver.sv(201) @ 455000: uvm_test_top.env.ahb_agent.drv [ahb_slv_driver] [DRV][AHB][RSP] AHB_WRITE addr=0x12010 data=0xafaeadacabaaa9a8 resp=AHB_RESP_OKAY ready_delay=0
# UVM_INFO ../10_tb/ahb_slv/ahb_slv_monitor.sv(119) @ 455000: uvm_test_top.env.ahb_agent.mon [ahb_slv_monitor] [MON][AHB][TR] AHB AHB_WRITE addr=0x12010 trans=AHB_TRANS_SEQ burst=AHB_BURST_INCR8 size=8B mastlock=0 resp=AHB_RESP_OKAY waits=0 | data=0xafaeadacabaaa9a8
# UVM_INFO ../10_tb/ahb_slv/ahb_slv_driver.sv(87) @ 465000: uvm_test_top.env.ahb_agent.drv [ahb_slv_driver] [DRV][AHB][REQ] AHB_WRITE addr=0x12018 trans=AHB_TRANS_SEQ burst=AHB_BURST_INCR8 size=8B
# UVM_INFO ../10_tb/axi4_mst/axi4_mst_driver.sv(202) @ 465000: uvm_test_top.env.axi_agent.drv [axi4_mst_driver] [DRV][AXI][W] id=0x8 beat=4/8 data=0xb1b0afaeadacabaa strb=0xff last=0
# UVM_INFO ../10_tb/ahb_slv/ahb_slv_driver.sv(201) @ 475000: uvm_test_top.env.ahb_agent.drv [ahb_slv_driver] [DRV][AHB][RSP] AHB_WRITE addr=0x12018 data=0xb1b0afaeadacabaa resp=AHB_RESP_OKAY ready_delay=0
# UVM_INFO ../10_tb/ahb_slv/ahb_slv_monitor.sv(119) @ 475000: uvm_test_top.env.ahb_agent.mon [ahb_slv_monitor] [MON][AHB][TR] AHB AHB_WRITE addr=0x12018 trans=AHB_TRANS_SEQ burst=AHB_BURST_INCR8 size=8B mastlock=0 resp=AHB_RESP_OKAY waits=0 | data=0xb1b0afaeadacabaa
# UVM_INFO ../10_tb/ahb_slv/ahb_slv_driver.sv(87) @ 485000: uvm_test_top.env.ahb_agent.drv [ahb_slv_driver] [DRV][AHB][REQ] AHB_WRITE addr=0x12020 trans=AHB_TRANS_SEQ burst=AHB_BURST_INCR8 size=8B
# UVM_INFO ../10_tb/axi4_mst/axi4_mst_driver.sv(202) @ 485000: uvm_test_top.env.axi_agent.drv [axi4_mst_driver] [DRV][AXI][W] id=0x8 beat=5/8 data=0xb3b2b1b0afaeadac strb=0xff last=0
# UVM_INFO ../10_tb/ahb_slv/ahb_slv_driver.sv(201) @ 495000: uvm_test_top.env.ahb_agent.drv [ahb_slv_driver] [DRV][AHB][RSP] AHB_WRITE addr=0x12020 data=0xb3b2b1b0afaeadac resp=AHB_RESP_OKAY ready_delay=0
# UVM_INFO ../10_tb/ahb_slv/ahb_slv_monitor.sv(119) @ 495000: uvm_test_top.env.ahb_agent.mon [ahb_slv_monitor] [MON][AHB][TR] AHB AHB_WRITE addr=0x12020 trans=AHB_TRANS_SEQ burst=AHB_BURST_INCR8 size=8B mastlock=0 resp=AHB_RESP_OKAY waits=0 | data=0xb3b2b1b0afaeadac
# UVM_INFO ../10_tb/ahb_slv/ahb_slv_driver.sv(87) @ 505000: uvm_test_top.env.ahb_agent.drv [ahb_slv_driver] [DRV][AHB][REQ] AHB_WRITE addr=0x12028 trans=AHB_TRANS_SEQ burst=AHB_BURST_INCR8 size=8B
# UVM_INFO ../10_tb/axi4_mst/axi4_mst_driver.sv(202) @ 505000: uvm_test_top.env.axi_agent.drv [axi4_mst_driver] [DRV][AXI][W] id=0x8 beat=6/8 data=0xb5b4b3b2b1b0afae strb=0xff last=0
# UVM_INFO ../10_tb/ahb_slv/ahb_slv_driver.sv(201) @ 515000: uvm_test_top.env.ahb_agent.drv [ahb_slv_driver] [DRV][AHB][RSP] AHB_WRITE addr=0x12028 data=0xb5b4b3b2b1b0afae resp=AHB_RESP_OKAY ready_delay=0
# UVM_INFO ../10_tb/ahb_slv/ahb_slv_monitor.sv(119) @ 515000: uvm_test_top.env.ahb_agent.mon [ahb_slv_monitor] [MON][AHB][TR] AHB AHB_WRITE addr=0x12028 trans=AHB_TRANS_SEQ burst=AHB_BURST_INCR8 size=8B mastlock=0 resp=AHB_RESP_OKAY waits=0 | data=0xb5b4b3b2b1b0afae
# UVM_INFO ../10_tb/ahb_slv/ahb_slv_driver.sv(87) @ 525000: uvm_test_top.env.ahb_agent.drv [ahb_slv_driver] [DRV][AHB][REQ] AHB_WRITE addr=0x12030 trans=AHB_TRANS_SEQ burst=AHB_BURST_INCR8 size=8B
# UVM_INFO ../10_tb/axi4_mst/axi4_mst_driver.sv(202) @ 525000: uvm_test_top.env.axi_agent.drv [axi4_mst_driver] [DRV][AXI][W] id=0x8 beat=7/8 data=0xb7b6b5b4b3b2b1b0 strb=0xff last=0
# UVM_INFO ../10_tb/ahb_slv/ahb_slv_driver.sv(201) @ 535000: uvm_test_top.env.ahb_agent.drv [ahb_slv_driver] [DRV][AHB][RSP] AHB_WRITE addr=0x12030 data=0xb7b6b5b4b3b2b1b0 resp=AHB_RESP_OKAY ready_delay=0
# UVM_INFO ../10_tb/ahb_slv/ahb_slv_monitor.sv(119) @ 535000: uvm_test_top.env.ahb_agent.mon [ahb_slv_monitor] [MON][AHB][TR] AHB AHB_WRITE addr=0x12030 trans=AHB_TRANS_SEQ burst=AHB_BURST_INCR8 size=8B mastlock=0 resp=AHB_RESP_OKAY waits=0 | data=0xb7b6b5b4b3b2b1b0
# UVM_INFO ../10_tb/ahb_slv/ahb_slv_driver.sv(87) @ 545000: uvm_test_top.env.ahb_agent.drv [ahb_slv_driver] [DRV][AHB][REQ] AHB_WRITE addr=0x12038 trans=AHB_TRANS_SEQ burst=AHB_BURST_INCR8 size=8B
# UVM_INFO ../10_tb/axi4_mst/axi4_mst_driver.sv(202) @ 545000: uvm_test_top.env.axi_agent.drv [axi4_mst_driver] [DRV][AXI][W] id=0x8 beat=8/8 data=0xb9b8b7b6b5b4b3b2 strb=0xff last=1
# UVM_INFO ../10_tb/axi4_mst/axi4_mst_monitor.sv(151) @ 545000: uvm_test_top.env.axi_agent.mon [axi4_mst_monitor] [MON][AXI][REQ] AXI4 AXI4_WRITE id=0x8 addr=0x12000 burst=AXI4_BURST_INCR beats=8 size=8B lock=0
# UVM_INFO ../10_tb/env/predictor.sv(81) @ 545000: uvm_test_top.env.pred [predictor] [PRED][AXI][IN] AXI4 AXI4_WRITE id=0x8 addr=0x12000 burst=AXI4_BURST_INCR beats=8 size=8B lock=0 | queued=1
# UVM_INFO ../10_tb/env/predictor.sv(147) @ 545000: uvm_test_top.env.pred [predictor] [PRED][MAP] AXI4 AXI4_WRITE id=0x8 addr=0x12000 burst=AXI4_BURST_INCR beats=8 size=8B lock=0 -> AHB burst=AHB_BURST_INCR8 size=8B crosses_1kb=0
# UVM_INFO ../10_tb/env/predictor.sv(178) @ 545000: uvm_test_top.env.pred [predictor] [PRED][AHB] beat=1/8 | AHB AHB_WRITE addr=0x12000 trans=AHB_TRANS_NONSEQ burst=AHB_BURST_INCR8 size=8B mastlock=0 resp=AHB_RESP_OKAY waits=0 | wdata=0xabaaa9a8a7a6a5a4
# UVM_INFO ../10_tb/env/scoreboard.sv(469) @ 545000: uvm_test_top.env.scb [scoreboard] [SCB][AHB][PASS] AHB AHB_WRITE addr=0x12000 trans=AHB_TRANS_NONSEQ burst=AHB_BURST_INCR8 size=8B mastlock=0 resp=AHB_RESP_OKAY waits=0 | data=0xabaaa9a8a7a6a5a4 | total=9
# UVM_INFO ../10_tb/env/predictor.sv(178) @ 545000: uvm_test_top.env.pred [predictor] [PRED][AHB] beat=2/8 | AHB AHB_WRITE addr=0x12008 trans=AHB_TRANS_SEQ burst=AHB_BURST_INCR8 size=8B mastlock=0 resp=AHB_RESP_OKAY waits=0 | wdata=0xadacabaaa9a8a7a6
# UVM_INFO ../10_tb/env/scoreboard.sv(469) @ 545000: uvm_test_top.env.scb [scoreboard] [SCB][AHB][PASS] AHB AHB_WRITE addr=0x12008 trans=AHB_TRANS_SEQ burst=AHB_BURST_INCR8 size=8B mastlock=0 resp=AHB_RESP_OKAY waits=0 | data=0xadacabaaa9a8a7a6 | total=10
# UVM_INFO ../10_tb/env/predictor.sv(178) @ 545000: uvm_test_top.env.pred [predictor] [PRED][AHB] beat=3/8 | AHB AHB_WRITE addr=0x12010 trans=AHB_TRANS_SEQ burst=AHB_BURST_INCR8 size=8B mastlock=0 resp=AHB_RESP_OKAY waits=0 | wdata=0xafaeadacabaaa9a8
# UVM_INFO ../10_tb/env/scoreboard.sv(469) @ 545000: uvm_test_top.env.scb [scoreboard] [SCB][AHB][PASS] AHB AHB_WRITE addr=0x12010 trans=AHB_TRANS_SEQ burst=AHB_BURST_INCR8 size=8B mastlock=0 resp=AHB_RESP_OKAY waits=0 | data=0xafaeadacabaaa9a8 | total=11
# UVM_INFO ../10_tb/env/predictor.sv(178) @ 545000: uvm_test_top.env.pred [predictor] [PRED][AHB] beat=4/8 | AHB AHB_WRITE addr=0x12018 trans=AHB_TRANS_SEQ burst=AHB_BURST_INCR8 size=8B mastlock=0 resp=AHB_RESP_OKAY waits=0 | wdata=0xb1b0afaeadacabaa
# UVM_INFO ../10_tb/env/scoreboard.sv(469) @ 545000: uvm_test_top.env.scb [scoreboard] [SCB][AHB][PASS] AHB AHB_WRITE addr=0x12018 trans=AHB_TRANS_SEQ burst=AHB_BURST_INCR8 size=8B mastlock=0 resp=AHB_RESP_OKAY waits=0 | data=0xb1b0afaeadacabaa | total=12
# UVM_INFO ../10_tb/env/predictor.sv(178) @ 545000: uvm_test_top.env.pred [predictor] [PRED][AHB] beat=5/8 | AHB AHB_WRITE addr=0x12020 trans=AHB_TRANS_SEQ burst=AHB_BURST_INCR8 size=8B mastlock=0 resp=AHB_RESP_OKAY waits=0 | wdata=0xb3b2b1b0afaeadac
# UVM_INFO ../10_tb/env/scoreboard.sv(469) @ 545000: uvm_test_top.env.scb [scoreboard] [SCB][AHB][PASS] AHB AHB_WRITE addr=0x12020 trans=AHB_TRANS_SEQ burst=AHB_BURST_INCR8 size=8B mastlock=0 resp=AHB_RESP_OKAY waits=0 | data=0xb3b2b1b0afaeadac | total=13
# UVM_INFO ../10_tb/env/predictor.sv(178) @ 545000: uvm_test_top.env.pred [predictor] [PRED][AHB] beat=6/8 | AHB AHB_WRITE addr=0x12028 trans=AHB_TRANS_SEQ burst=AHB_BURST_INCR8 size=8B mastlock=0 resp=AHB_RESP_OKAY waits=0 | wdata=0xb5b4b3b2b1b0afae
# UVM_INFO ../10_tb/env/scoreboard.sv(469) @ 545000: uvm_test_top.env.scb [scoreboard] [SCB][AHB][PASS] AHB AHB_WRITE addr=0x12028 trans=AHB_TRANS_SEQ burst=AHB_BURST_INCR8 size=8B mastlock=0 resp=AHB_RESP_OKAY waits=0 | data=0xb5b4b3b2b1b0afae | total=14
# UVM_INFO ../10_tb/env/predictor.sv(178) @ 545000: uvm_test_top.env.pred [predictor] [PRED][AHB] beat=7/8 | AHB AHB_WRITE addr=0x12030 trans=AHB_TRANS_SEQ burst=AHB_BURST_INCR8 size=8B mastlock=0 resp=AHB_RESP_OKAY waits=0 | wdata=0xb7b6b5b4b3b2b1b0
# UVM_INFO ../10_tb/env/scoreboard.sv(469) @ 545000: uvm_test_top.env.scb [scoreboard] [SCB][AHB][PASS] AHB AHB_WRITE addr=0x12030 trans=AHB_TRANS_SEQ burst=AHB_BURST_INCR8 size=8B mastlock=0 resp=AHB_RESP_OKAY waits=0 | data=0xb7b6b5b4b3b2b1b0 | total=15
# UVM_INFO ../10_tb/env/predictor.sv(178) @ 545000: uvm_test_top.env.pred [predictor] [PRED][AHB] beat=8/8 | AHB AHB_WRITE addr=0x12038 trans=AHB_TRANS_SEQ burst=AHB_BURST_INCR8 size=8B mastlock=0 resp=AHB_RESP_OKAY waits=0 | wdata=0xb9b8b7b6b5b4b3b2
# UVM_INFO ../10_tb/ahb_slv/ahb_slv_driver.sv(201) @ 555000: uvm_test_top.env.ahb_agent.drv [ahb_slv_driver] [DRV][AHB][RSP] AHB_WRITE addr=0x12038 data=0xb9b8b7b6b5b4b3b2 resp=AHB_RESP_OKAY ready_delay=0
# UVM_INFO ../10_tb/ahb_slv/ahb_slv_monitor.sv(119) @ 555000: uvm_test_top.env.ahb_agent.mon [ahb_slv_monitor] [MON][AHB][TR] AHB AHB_WRITE addr=0x12038 trans=AHB_TRANS_SEQ burst=AHB_BURST_INCR8 size=8B mastlock=0 resp=AHB_RESP_OKAY waits=0 | data=0xb9b8b7b6b5b4b3b2
# UVM_INFO ../10_tb/env/scoreboard.sv(469) @ 555000: uvm_test_top.env.scb [scoreboard] [SCB][AHB][PASS] AHB AHB_WRITE addr=0x12038 trans=AHB_TRANS_SEQ burst=AHB_BURST_INCR8 size=8B mastlock=0 resp=AHB_RESP_OKAY waits=0 | data=0xb9b8b7b6b5b4b3b2 | total=16
# UVM_INFO ../10_tb/axi4_mst/axi4_mst_driver.sv(280) @ 565000: uvm_test_top.env.axi_agent.drv [axi4_mst_driver] [DRV][AXI][B] id=0x8 resp=AXI4_RESP_OKAY
# UVM_INFO ../10_tb/axi4_mst/axi4_mst_monitor.sv(177) @ 565000: uvm_test_top.env.axi_agent.mon [axi4_mst_monitor] [MON][AXI][RSP] WRITE id=0x8 resp=AXI4_RESP_OKAY
# UVM_INFO ../10_tb/env/scoreboard.sv(604) @ 565000: uvm_test_top.env.scb [scoreboard] [SCB][AXI][PASS] AXI4 AXI4_WRITE id=0x8 addr=0x12000 burst=AXI4_BURST_INCR beats=8 size=8B lock=0 | bresp=AXI4_RESP_OKAY | total=3
# UVM_INFO ../10_tb/seq/axi4_mst_seq/axi4_mst_1kb_boundary_seq.sv(157) @ 565000: uvm_test_top.env.axi_agent.sqr@@axi_seq [axi4_mst_1kb_boundary_seq] [3] NO_CROSS_INCR8_RD addr=0x13000 beats=8 page_off=0x0 class=BOUNDARY_NO_CROSS
# UVM_INFO ../10_tb/axi4_mst/axi4_mst_driver.sv(105) @ 565000: uvm_test_top.env.axi_agent.drv [axi4_mst_driver] [DRV][AXI][REQ] AXI4 AXI4_READ id=0x6 addr=0x13000 burst=AXI4_BURST_INCR beats=8 size=8B lock=0 | outstanding=1
# UVM_INFO ../10_tb/axi4_mst/axi4_mst_driver.sv(255) @ 595000: uvm_test_top.env.axi_agent.drv [axi4_mst_driver] [DRV][AXI][AR] id=0x6 addr=0x13000 burst=AXI4_BURST_INCR beats=8 size=8B
# UVM_INFO ../10_tb/axi4_mst/axi4_mst_monitor.sv(211) @ 595000: uvm_test_top.env.axi_agent.mon [axi4_mst_monitor] [MON][AXI][REQ] AXI4 AXI4_READ id=0x6 addr=0x13000 burst=AXI4_BURST_INCR beats=8 size=8B lock=0
# UVM_INFO ../10_tb/env/predictor.sv(81) @ 595000: uvm_test_top.env.pred [predictor] [PRED][AXI][IN] AXI4 AXI4_READ id=0x6 addr=0x13000 burst=AXI4_BURST_INCR beats=8 size=8B lock=0 | queued=1
# UVM_INFO ../10_tb/env/predictor.sv(147) @ 595000: uvm_test_top.env.pred [predictor] [PRED][MAP] AXI4 AXI4_READ id=0x6 addr=0x13000 burst=AXI4_BURST_INCR beats=8 size=8B lock=0 -> AHB burst=AHB_BURST_INCR8 size=8B crosses_1kb=0
# UVM_INFO ../10_tb/env/predictor.sv(184) @ 595000: uvm_test_top.env.pred [predictor] [PRED][AHB] beat=1/8 | AHB AHB_READ addr=0x13000 trans=AHB_TRANS_NONSEQ burst=AHB_BURST_INCR8 size=8B mastlock=0 resp=AHB_RESP_OKAY waits=0
# UVM_INFO ../10_tb/env/predictor.sv(184) @ 595000: uvm_test_top.env.pred [predictor] [PRED][AHB] beat=2/8 | AHB AHB_READ addr=0x13008 trans=AHB_TRANS_SEQ burst=AHB_BURST_INCR8 size=8B mastlock=0 resp=AHB_RESP_OKAY waits=0
# UVM_INFO ../10_tb/env/predictor.sv(184) @ 595000: uvm_test_top.env.pred [predictor] [PRED][AHB] beat=3/8 | AHB AHB_READ addr=0x13010 trans=AHB_TRANS_SEQ burst=AHB_BURST_INCR8 size=8B mastlock=0 resp=AHB_RESP_OKAY waits=0
# UVM_INFO ../10_tb/env/predictor.sv(184) @ 595000: uvm_test_top.env.pred [predictor] [PRED][AHB] beat=4/8 | AHB AHB_READ addr=0x13018 trans=AHB_TRANS_SEQ burst=AHB_BURST_INCR8 size=8B mastlock=0 resp=AHB_RESP_OKAY waits=0
# UVM_INFO ../10_tb/env/predictor.sv(184) @ 595000: uvm_test_top.env.pred [predictor] [PRED][AHB] beat=5/8 | AHB AHB_READ addr=0x13020 trans=AHB_TRANS_SEQ burst=AHB_BURST_INCR8 size=8B mastlock=0 resp=AHB_RESP_OKAY waits=0
# UVM_INFO ../10_tb/env/predictor.sv(184) @ 595000: uvm_test_top.env.pred [predictor] [PRED][AHB] beat=6/8 | AHB AHB_READ addr=0x13028 trans=AHB_TRANS_SEQ burst=AHB_BURST_INCR8 size=8B mastlock=0 resp=AHB_RESP_OKAY waits=0
# UVM_INFO ../10_tb/env/predictor.sv(184) @ 595000: uvm_test_top.env.pred [predictor] [PRED][AHB] beat=7/8 | AHB AHB_READ addr=0x13030 trans=AHB_TRANS_SEQ burst=AHB_BURST_INCR8 size=8B mastlock=0 resp=AHB_RESP_OKAY waits=0
# UVM_INFO ../10_tb/env/predictor.sv(184) @ 595000: uvm_test_top.env.pred [predictor] [PRED][AHB] beat=8/8 | AHB AHB_READ addr=0x13038 trans=AHB_TRANS_SEQ burst=AHB_BURST_INCR8 size=8B mastlock=0 resp=AHB_RESP_OKAY waits=0
# UVM_INFO ../10_tb/ahb_slv/ahb_slv_driver.sv(87) @ 605000: uvm_test_top.env.ahb_agent.drv [ahb_slv_driver] [DRV][AHB][REQ] AHB_READ addr=0x13000 trans=AHB_TRANS_NONSEQ burst=AHB_BURST_INCR8 size=8B
# UVM_INFO ../10_tb/ahb_slv/ahb_slv_driver.sv(201) @ 615000: uvm_test_top.env.ahb_agent.drv [ahb_slv_driver] [DRV][AHB][RSP] AHB_READ addr=0x13000 data=0x13000fffecfff resp=AHB_RESP_OKAY ready_delay=0
# UVM_INFO ../10_tb/ahb_slv/ahb_slv_monitor.sv(119) @ 615000: uvm_test_top.env.ahb_agent.mon [ahb_slv_monitor] [MON][AHB][TR] AHB AHB_READ addr=0x13000 trans=AHB_TRANS_NONSEQ burst=AHB_BURST_INCR8 size=8B mastlock=0 resp=AHB_RESP_OKAY waits=0 | data=0x13000fffecfff
# UVM_INFO ../10_tb/env/scoreboard.sv(469) @ 615000: uvm_test_top.env.scb [scoreboard] [SCB][AHB][PASS] AHB AHB_READ addr=0x13000 trans=AHB_TRANS_NONSEQ burst=AHB_BURST_INCR8 size=8B mastlock=0 resp=AHB_RESP_OKAY waits=0 | data=0x13000fffecfff | total=17
# UVM_INFO ../10_tb/ahb_slv/ahb_slv_driver.sv(87) @ 625000: uvm_test_top.env.ahb_agent.drv [ahb_slv_driver] [DRV][AHB][REQ] AHB_READ addr=0x13008 trans=AHB_TRANS_SEQ burst=AHB_BURST_INCR8 size=8B
# UVM_INFO ../10_tb/ahb_slv/ahb_slv_driver.sv(201) @ 635000: uvm_test_top.env.ahb_agent.drv [ahb_slv_driver] [DRV][AHB][RSP] AHB_READ addr=0x13008 data=0x13008fffecff7 resp=AHB_RESP_OKAY ready_delay=0
# UVM_INFO ../10_tb/ahb_slv/ahb_slv_monitor.sv(119) @ 635000: uvm_test_top.env.ahb_agent.mon [ahb_slv_monitor] [MON][AHB][TR] AHB AHB_READ addr=0x13008 trans=AHB_TRANS_SEQ burst=AHB_BURST_INCR8 size=8B mastlock=0 resp=AHB_RESP_OKAY waits=0 | data=0x13008fffecff7
# UVM_INFO ../10_tb/env/scoreboard.sv(469) @ 635000: uvm_test_top.env.scb [scoreboard] [SCB][AHB][PASS] AHB AHB_READ addr=0x13008 trans=AHB_TRANS_SEQ burst=AHB_BURST_INCR8 size=8B mastlock=0 resp=AHB_RESP_OKAY waits=0 | data=0x13008fffecff7 | total=18
# UVM_INFO ../10_tb/axi4_mst/axi4_mst_driver.sv(320) @ 635000: uvm_test_top.env.axi_agent.drv [axi4_mst_driver] [DRV][AXI][R] id=0x6 beat=1/8 data=0x13000fffecfff resp=AXI4_RESP_OKAY last=0
# UVM_INFO ../10_tb/axi4_mst/axi4_mst_monitor.sv(256) @ 635000: uvm_test_top.env.axi_agent.mon [axi4_mst_monitor] [MON][AXI][R] id=0x6 beat=1/8 data=0x13000fffecfff resp=AXI4_RESP_OKAY last=0
# UVM_INFO ../10_tb/ahb_slv/ahb_slv_driver.sv(87) @ 645000: uvm_test_top.env.ahb_agent.drv [ahb_slv_driver] [DRV][AHB][REQ] AHB_READ addr=0x13010 trans=AHB_TRANS_SEQ burst=AHB_BURST_INCR8 size=8B
# UVM_INFO ../10_tb/ahb_slv/ahb_slv_driver.sv(201) @ 655000: uvm_test_top.env.ahb_agent.drv [ahb_slv_driver] [DRV][AHB][RSP] AHB_READ addr=0x13010 data=0x13010fffecfef resp=AHB_RESP_OKAY ready_delay=0
# UVM_INFO ../10_tb/ahb_slv/ahb_slv_monitor.sv(119) @ 655000: uvm_test_top.env.ahb_agent.mon [ahb_slv_monitor] [MON][AHB][TR] AHB AHB_READ addr=0x13010 trans=AHB_TRANS_SEQ burst=AHB_BURST_INCR8 size=8B mastlock=0 resp=AHB_RESP_OKAY waits=0 | data=0x13010fffecfef
# UVM_INFO ../10_tb/env/scoreboard.sv(469) @ 655000: uvm_test_top.env.scb [scoreboard] [SCB][AHB][PASS] AHB AHB_READ addr=0x13010 trans=AHB_TRANS_SEQ burst=AHB_BURST_INCR8 size=8B mastlock=0 resp=AHB_RESP_OKAY waits=0 | data=0x13010fffecfef | total=19
# UVM_INFO ../10_tb/axi4_mst/axi4_mst_driver.sv(320) @ 655000: uvm_test_top.env.axi_agent.drv [axi4_mst_driver] [DRV][AXI][R] id=0x6 beat=2/8 data=0x13008fffecff7 resp=AXI4_RESP_OKAY last=0
# UVM_INFO ../10_tb/axi4_mst/axi4_mst_monitor.sv(256) @ 655000: uvm_test_top.env.axi_agent.mon [axi4_mst_monitor] [MON][AXI][R] id=0x6 beat=2/8 data=0x13008fffecff7 resp=AXI4_RESP_OKAY last=0
# UVM_INFO ../10_tb/ahb_slv/ahb_slv_driver.sv(87) @ 665000: uvm_test_top.env.ahb_agent.drv [ahb_slv_driver] [DRV][AHB][REQ] AHB_READ addr=0x13018 trans=AHB_TRANS_SEQ burst=AHB_BURST_INCR8 size=8B
# UVM_INFO ../10_tb/ahb_slv/ahb_slv_driver.sv(201) @ 675000: uvm_test_top.env.ahb_agent.drv [ahb_slv_driver] [DRV][AHB][RSP] AHB_READ addr=0x13018 data=0x13018fffecfe7 resp=AHB_RESP_OKAY ready_delay=0
# UVM_INFO ../10_tb/ahb_slv/ahb_slv_monitor.sv(119) @ 675000: uvm_test_top.env.ahb_agent.mon [ahb_slv_monitor] [MON][AHB][TR] AHB AHB_READ addr=0x13018 trans=AHB_TRANS_SEQ burst=AHB_BURST_INCR8 size=8B mastlock=0 resp=AHB_RESP_OKAY waits=0 | data=0x13018fffecfe7
# UVM_INFO ../10_tb/env/scoreboard.sv(469) @ 675000: uvm_test_top.env.scb [scoreboard] [SCB][AHB][PASS] AHB AHB_READ addr=0x13018 trans=AHB_TRANS_SEQ burst=AHB_BURST_INCR8 size=8B mastlock=0 resp=AHB_RESP_OKAY waits=0 | data=0x13018fffecfe7 | total=20
# UVM_INFO ../10_tb/axi4_mst/axi4_mst_driver.sv(320) @ 675000: uvm_test_top.env.axi_agent.drv [axi4_mst_driver] [DRV][AXI][R] id=0x6 beat=3/8 data=0x13010fffecfef resp=AXI4_RESP_OKAY last=0
# UVM_INFO ../10_tb/axi4_mst/axi4_mst_monitor.sv(256) @ 675000: uvm_test_top.env.axi_agent.mon [axi4_mst_monitor] [MON][AXI][R] id=0x6 beat=3/8 data=0x13010fffecfef resp=AXI4_RESP_OKAY last=0
# UVM_INFO ../10_tb/ahb_slv/ahb_slv_driver.sv(87) @ 685000: uvm_test_top.env.ahb_agent.drv [ahb_slv_driver] [DRV][AHB][REQ] AHB_READ addr=0x13020 trans=AHB_TRANS_SEQ burst=AHB_BURST_INCR8 size=8B
# UVM_INFO ../10_tb/ahb_slv/ahb_slv_driver.sv(201) @ 695000: uvm_test_top.env.ahb_agent.drv [ahb_slv_driver] [DRV][AHB][RSP] AHB_READ addr=0x13020 data=0x13020fffecfdf resp=AHB_RESP_OKAY ready_delay=0
# UVM_INFO ../10_tb/ahb_slv/ahb_slv_monitor.sv(119) @ 695000: uvm_test_top.env.ahb_agent.mon [ahb_slv_monitor] [MON][AHB][TR] AHB AHB_READ addr=0x13020 trans=AHB_TRANS_SEQ burst=AHB_BURST_INCR8 size=8B mastlock=0 resp=AHB_RESP_OKAY waits=0 | data=0x13020fffecfdf
# UVM_INFO ../10_tb/env/scoreboard.sv(469) @ 695000: uvm_test_top.env.scb [scoreboard] [SCB][AHB][PASS] AHB AHB_READ addr=0x13020 trans=AHB_TRANS_SEQ burst=AHB_BURST_INCR8 size=8B mastlock=0 resp=AHB_RESP_OKAY waits=0 | data=0x13020fffecfdf | total=21
# UVM_INFO ../10_tb/axi4_mst/axi4_mst_driver.sv(320) @ 695000: uvm_test_top.env.axi_agent.drv [axi4_mst_driver] [DRV][AXI][R] id=0x6 beat=4/8 data=0x13018fffecfe7 resp=AXI4_RESP_OKAY last=0
# UVM_INFO ../10_tb/axi4_mst/axi4_mst_monitor.sv(256) @ 695000: uvm_test_top.env.axi_agent.mon [axi4_mst_monitor] [MON][AXI][R] id=0x6 beat=4/8 data=0x13018fffecfe7 resp=AXI4_RESP_OKAY last=0
# UVM_INFO ../10_tb/ahb_slv/ahb_slv_driver.sv(87) @ 705000: uvm_test_top.env.ahb_agent.drv [ahb_slv_driver] [DRV][AHB][REQ] AHB_READ addr=0x13028 trans=AHB_TRANS_SEQ burst=AHB_BURST_INCR8 size=8B
# UVM_INFO ../10_tb/ahb_slv/ahb_slv_driver.sv(201) @ 715000: uvm_test_top.env.ahb_agent.drv [ahb_slv_driver] [DRV][AHB][RSP] AHB_READ addr=0x13028 data=0x13028fffecfd7 resp=AHB_RESP_OKAY ready_delay=0
# UVM_INFO ../10_tb/ahb_slv/ahb_slv_monitor.sv(119) @ 715000: uvm_test_top.env.ahb_agent.mon [ahb_slv_monitor] [MON][AHB][TR] AHB AHB_READ addr=0x13028 trans=AHB_TRANS_SEQ burst=AHB_BURST_INCR8 size=8B mastlock=0 resp=AHB_RESP_OKAY waits=0 | data=0x13028fffecfd7
# UVM_INFO ../10_tb/env/scoreboard.sv(469) @ 715000: uvm_test_top.env.scb [scoreboard] [SCB][AHB][PASS] AHB AHB_READ addr=0x13028 trans=AHB_TRANS_SEQ burst=AHB_BURST_INCR8 size=8B mastlock=0 resp=AHB_RESP_OKAY waits=0 | data=0x13028fffecfd7 | total=22
# UVM_INFO ../10_tb/axi4_mst/axi4_mst_driver.sv(320) @ 715000: uvm_test_top.env.axi_agent.drv [axi4_mst_driver] [DRV][AXI][R] id=0x6 beat=5/8 data=0x13020fffecfdf resp=AXI4_RESP_OKAY last=0
# UVM_INFO ../10_tb/axi4_mst/axi4_mst_monitor.sv(256) @ 715000: uvm_test_top.env.axi_agent.mon [axi4_mst_monitor] [MON][AXI][R] id=0x6 beat=5/8 data=0x13020fffecfdf resp=AXI4_RESP_OKAY last=0
# UVM_INFO ../10_tb/ahb_slv/ahb_slv_driver.sv(87) @ 725000: uvm_test_top.env.ahb_agent.drv [ahb_slv_driver] [DRV][AHB][REQ] AHB_READ addr=0x13030 trans=AHB_TRANS_SEQ burst=AHB_BURST_INCR8 size=8B
# UVM_INFO ../10_tb/ahb_slv/ahb_slv_driver.sv(201) @ 735000: uvm_test_top.env.ahb_agent.drv [ahb_slv_driver] [DRV][AHB][RSP] AHB_READ addr=0x13030 data=0x13030fffecfcf resp=AHB_RESP_OKAY ready_delay=0
# UVM_INFO ../10_tb/ahb_slv/ahb_slv_monitor.sv(119) @ 735000: uvm_test_top.env.ahb_agent.mon [ahb_slv_monitor] [MON][AHB][TR] AHB AHB_READ addr=0x13030 trans=AHB_TRANS_SEQ burst=AHB_BURST_INCR8 size=8B mastlock=0 resp=AHB_RESP_OKAY waits=0 | data=0x13030fffecfcf
# UVM_INFO ../10_tb/env/scoreboard.sv(469) @ 735000: uvm_test_top.env.scb [scoreboard] [SCB][AHB][PASS] AHB AHB_READ addr=0x13030 trans=AHB_TRANS_SEQ burst=AHB_BURST_INCR8 size=8B mastlock=0 resp=AHB_RESP_OKAY waits=0 | data=0x13030fffecfcf | total=23
# UVM_INFO ../10_tb/axi4_mst/axi4_mst_driver.sv(320) @ 735000: uvm_test_top.env.axi_agent.drv [axi4_mst_driver] [DRV][AXI][R] id=0x6 beat=6/8 data=0x13028fffecfd7 resp=AXI4_RESP_OKAY last=0
# UVM_INFO ../10_tb/axi4_mst/axi4_mst_monitor.sv(256) @ 735000: uvm_test_top.env.axi_agent.mon [axi4_mst_monitor] [MON][AXI][R] id=0x6 beat=6/8 data=0x13028fffecfd7 resp=AXI4_RESP_OKAY last=0
# UVM_INFO ../10_tb/ahb_slv/ahb_slv_driver.sv(87) @ 745000: uvm_test_top.env.ahb_agent.drv [ahb_slv_driver] [DRV][AHB][REQ] AHB_READ addr=0x13038 trans=AHB_TRANS_SEQ burst=AHB_BURST_INCR8 size=8B
# UVM_INFO ../10_tb/ahb_slv/ahb_slv_driver.sv(201) @ 755000: uvm_test_top.env.ahb_agent.drv [ahb_slv_driver] [DRV][AHB][RSP] AHB_READ addr=0x13038 data=0x13038fffecfc7 resp=AHB_RESP_OKAY ready_delay=0
# UVM_INFO ../10_tb/ahb_slv/ahb_slv_monitor.sv(119) @ 755000: uvm_test_top.env.ahb_agent.mon [ahb_slv_monitor] [MON][AHB][TR] AHB AHB_READ addr=0x13038 trans=AHB_TRANS_SEQ burst=AHB_BURST_INCR8 size=8B mastlock=0 resp=AHB_RESP_OKAY waits=0 | data=0x13038fffecfc7
# UVM_INFO ../10_tb/env/scoreboard.sv(469) @ 755000: uvm_test_top.env.scb [scoreboard] [SCB][AHB][PASS] AHB AHB_READ addr=0x13038 trans=AHB_TRANS_SEQ burst=AHB_BURST_INCR8 size=8B mastlock=0 resp=AHB_RESP_OKAY waits=0 | data=0x13038fffecfc7 | total=24
# UVM_INFO ../10_tb/axi4_mst/axi4_mst_driver.sv(320) @ 755000: uvm_test_top.env.axi_agent.drv [axi4_mst_driver] [DRV][AXI][R] id=0x6 beat=7/8 data=0x13030fffecfcf resp=AXI4_RESP_OKAY last=0
# UVM_INFO ../10_tb/axi4_mst/axi4_mst_monitor.sv(256) @ 755000: uvm_test_top.env.axi_agent.mon [axi4_mst_monitor] [MON][AXI][R] id=0x6 beat=7/8 data=0x13030fffecfcf resp=AXI4_RESP_OKAY last=0
# UVM_INFO ../10_tb/axi4_mst/axi4_mst_driver.sv(320) @ 775000: uvm_test_top.env.axi_agent.drv [axi4_mst_driver] [DRV][AXI][R] id=0x6 beat=8/8 data=0x13038fffecfc7 resp=AXI4_RESP_OKAY last=1
# UVM_INFO ../10_tb/axi4_mst/axi4_mst_monitor.sv(256) @ 775000: uvm_test_top.env.axi_agent.mon [axi4_mst_monitor] [MON][AXI][R] id=0x6 beat=8/8 data=0x13038fffecfc7 resp=AXI4_RESP_OKAY last=1
# UVM_INFO ../10_tb/axi4_mst/axi4_mst_monitor.sv(262) @ 775000: uvm_test_top.env.axi_agent.mon [axi4_mst_monitor] [MON][AXI][RSP] READ id=0x6 beats=8
# UVM_INFO ../10_tb/env/scoreboard.sv(611) @ 775000: uvm_test_top.env.scb [scoreboard] [SCB][AXI][PASS] AXI4 AXI4_READ id=0x6 addr=0x13000 burst=AXI4_BURST_INCR beats=8 size=8B lock=0 | read beats=8 | total=4
# UVM_INFO ../10_tb/seq/axi4_mst_seq/axi4_mst_1kb_boundary_seq.sv(157) @ 775000: uvm_test_top.env.axi_agent.sqr@@axi_seq [axi4_mst_1kb_boundary_seq] [4] NO_CROSS_INCR16_WR addr=0x14000 beats=16 page_off=0x0 class=BOUNDARY_NO_CROSS
# UVM_INFO ../10_tb/axi4_mst/axi4_mst_driver.sv(105) @ 775000: uvm_test_top.env.axi_agent.drv [axi4_mst_driver] [DRV][AXI][REQ] AXI4 AXI4_WRITE id=0xf addr=0x14000 burst=AXI4_BURST_INCR beats=16 size=8B lock=0 | outstanding=1
# UVM_INFO ../10_tb/axi4_mst/axi4_mst_driver.sv(178) @ 815000: uvm_test_top.env.axi_agent.drv [axi4_mst_driver] [DRV][AXI][AW] id=0xf addr=0x14000 burst=AXI4_BURST_INCR beats=16 size=8B
# UVM_INFO ../10_tb/axi4_mst/axi4_mst_driver.sv(202) @ 815000: uvm_test_top.env.axi_agent.drv [axi4_mst_driver] [DRV][AXI][W] id=0xf beat=1/16 data=0xafaeadacabaaa9a8 strb=0xff last=0
# UVM_INFO ../10_tb/ahb_slv/ahb_slv_driver.sv(87) @ 825000: uvm_test_top.env.ahb_agent.drv [ahb_slv_driver] [DRV][AHB][REQ] AHB_WRITE addr=0x14000 trans=AHB_TRANS_NONSEQ burst=AHB_BURST_INCR16 size=8B
# UVM_INFO ../10_tb/ahb_slv/ahb_slv_driver.sv(201) @ 835000: uvm_test_top.env.ahb_agent.drv [ahb_slv_driver] [DRV][AHB][RSP] AHB_WRITE addr=0x14000 data=0xafaeadacabaaa9a8 resp=AHB_RESP_OKAY ready_delay=0
# UVM_INFO ../10_tb/ahb_slv/ahb_slv_monitor.sv(119) @ 835000: uvm_test_top.env.ahb_agent.mon [ahb_slv_monitor] [MON][AHB][TR] AHB AHB_WRITE addr=0x14000 trans=AHB_TRANS_NONSEQ burst=AHB_BURST_INCR16 size=8B mastlock=0 resp=AHB_RESP_OKAY waits=0 | data=0xafaeadacabaaa9a8
# UVM_INFO ../10_tb/ahb_slv/ahb_slv_driver.sv(87) @ 845000: uvm_test_top.env.ahb_agent.drv [ahb_slv_driver] [DRV][AHB][REQ] AHB_WRITE addr=0x14008 trans=AHB_TRANS_SEQ burst=AHB_BURST_INCR16 size=8B
# UVM_INFO ../10_tb/axi4_mst/axi4_mst_driver.sv(202) @ 845000: uvm_test_top.env.axi_agent.drv [axi4_mst_driver] [DRV][AXI][W] id=0xf beat=2/16 data=0xb1b0afaeadacabaa strb=0xff last=0
# UVM_INFO ../10_tb/ahb_slv/ahb_slv_driver.sv(201) @ 855000: uvm_test_top.env.ahb_agent.drv [ahb_slv_driver] [DRV][AHB][RSP] AHB_WRITE addr=0x14008 data=0xb1b0afaeadacabaa resp=AHB_RESP_OKAY ready_delay=0
# UVM_INFO ../10_tb/ahb_slv/ahb_slv_monitor.sv(119) @ 855000: uvm_test_top.env.ahb_agent.mon [ahb_slv_monitor] [MON][AHB][TR] AHB AHB_WRITE addr=0x14008 trans=AHB_TRANS_SEQ burst=AHB_BURST_INCR16 size=8B mastlock=0 resp=AHB_RESP_OKAY waits=0 | data=0xb1b0afaeadacabaa
# UVM_INFO ../10_tb/ahb_slv/ahb_slv_driver.sv(87) @ 865000: uvm_test_top.env.ahb_agent.drv [ahb_slv_driver] [DRV][AHB][REQ] AHB_WRITE addr=0x14010 trans=AHB_TRANS_SEQ burst=AHB_BURST_INCR16 size=8B
# UVM_INFO ../10_tb/axi4_mst/axi4_mst_driver.sv(202) @ 865000: uvm_test_top.env.axi_agent.drv [axi4_mst_driver] [DRV][AXI][W] id=0xf beat=3/16 data=0xb3b2b1b0afaeadac strb=0xff last=0
# UVM_INFO ../10_tb/ahb_slv/ahb_slv_driver.sv(201) @ 875000: uvm_test_top.env.ahb_agent.drv [ahb_slv_driver] [DRV][AHB][RSP] AHB_WRITE addr=0x14010 data=0xb3b2b1b0afaeadac resp=AHB_RESP_OKAY ready_delay=0
# UVM_INFO ../10_tb/ahb_slv/ahb_slv_monitor.sv(119) @ 875000: uvm_test_top.env.ahb_agent.mon [ahb_slv_monitor] [MON][AHB][TR] AHB AHB_WRITE addr=0x14010 trans=AHB_TRANS_SEQ burst=AHB_BURST_INCR16 size=8B mastlock=0 resp=AHB_RESP_OKAY waits=0 | data=0xb3b2b1b0afaeadac
# UVM_INFO ../10_tb/ahb_slv/ahb_slv_driver.sv(87) @ 885000: uvm_test_top.env.ahb_agent.drv [ahb_slv_driver] [DRV][AHB][REQ] AHB_WRITE addr=0x14018 trans=AHB_TRANS_SEQ burst=AHB_BURST_INCR16 size=8B
# UVM_INFO ../10_tb/axi4_mst/axi4_mst_driver.sv(202) @ 885000: uvm_test_top.env.axi_agent.drv [axi4_mst_driver] [DRV][AXI][W] id=0xf beat=4/16 data=0xb5b4b3b2b1b0afae strb=0xff last=0
# UVM_INFO ../10_tb/ahb_slv/ahb_slv_driver.sv(201) @ 895000: uvm_test_top.env.ahb_agent.drv [ahb_slv_driver] [DRV][AHB][RSP] AHB_WRITE addr=0x14018 data=0xb5b4b3b2b1b0afae resp=AHB_RESP_OKAY ready_delay=0
# UVM_INFO ../10_tb/ahb_slv/ahb_slv_monitor.sv(119) @ 895000: uvm_test_top.env.ahb_agent.mon [ahb_slv_monitor] [MON][AHB][TR] AHB AHB_WRITE addr=0x14018 trans=AHB_TRANS_SEQ burst=AHB_BURST_INCR16 size=8B mastlock=0 resp=AHB_RESP_OKAY waits=0 | data=0xb5b4b3b2b1b0afae
# UVM_INFO ../10_tb/ahb_slv/ahb_slv_driver.sv(87) @ 905000: uvm_test_top.env.ahb_agent.drv [ahb_slv_driver] [DRV][AHB][REQ] AHB_WRITE addr=0x14020 trans=AHB_TRANS_SEQ burst=AHB_BURST_INCR16 size=8B
# UVM_INFO ../10_tb/axi4_mst/axi4_mst_driver.sv(202) @ 905000: uvm_test_top.env.axi_agent.drv [axi4_mst_driver] [DRV][AXI][W] id=0xf beat=5/16 data=0xb7b6b5b4b3b2b1b0 strb=0xff last=0
# UVM_INFO ../10_tb/ahb_slv/ahb_slv_driver.sv(201) @ 915000: uvm_test_top.env.ahb_agent.drv [ahb_slv_driver] [DRV][AHB][RSP] AHB_WRITE addr=0x14020 data=0xb7b6b5b4b3b2b1b0 resp=AHB_RESP_OKAY ready_delay=0
# UVM_INFO ../10_tb/ahb_slv/ahb_slv_monitor.sv(119) @ 915000: uvm_test_top.env.ahb_agent.mon [ahb_slv_monitor] [MON][AHB][TR] AHB AHB_WRITE addr=0x14020 trans=AHB_TRANS_SEQ burst=AHB_BURST_INCR16 size=8B mastlock=0 resp=AHB_RESP_OKAY waits=0 | data=0xb7b6b5b4b3b2b1b0
# UVM_INFO ../10_tb/ahb_slv/ahb_slv_driver.sv(87) @ 925000: uvm_test_top.env.ahb_agent.drv [ahb_slv_driver] [DRV][AHB][REQ] AHB_WRITE addr=0x14028 trans=AHB_TRANS_SEQ burst=AHB_BURST_INCR16 size=8B
# UVM_INFO ../10_tb/axi4_mst/axi4_mst_driver.sv(202) @ 925000: uvm_test_top.env.axi_agent.drv [axi4_mst_driver] [DRV][AXI][W] id=0xf beat=6/16 data=0xb9b8b7b6b5b4b3b2 strb=0xff last=0
# UVM_INFO ../10_tb/ahb_slv/ahb_slv_driver.sv(201) @ 935000: uvm_test_top.env.ahb_agent.drv [ahb_slv_driver] [DRV][AHB][RSP] AHB_WRITE addr=0x14028 data=0xb9b8b7b6b5b4b3b2 resp=AHB_RESP_OKAY ready_delay=0
# UVM_INFO ../10_tb/ahb_slv/ahb_slv_monitor.sv(119) @ 935000: uvm_test_top.env.ahb_agent.mon [ahb_slv_monitor] [MON][AHB][TR] AHB AHB_WRITE addr=0x14028 trans=AHB_TRANS_SEQ burst=AHB_BURST_INCR16 size=8B mastlock=0 resp=AHB_RESP_OKAY waits=0 | data=0xb9b8b7b6b5b4b3b2
# UVM_INFO ../10_tb/ahb_slv/ahb_slv_driver.sv(87) @ 945000: uvm_test_top.env.ahb_agent.drv [ahb_slv_driver] [DRV][AHB][REQ] AHB_WRITE addr=0x14030 trans=AHB_TRANS_SEQ burst=AHB_BURST_INCR16 size=8B
# UVM_INFO ../10_tb/axi4_mst/axi4_mst_driver.sv(202) @ 945000: uvm_test_top.env.axi_agent.drv [axi4_mst_driver] [DRV][AXI][W] id=0xf beat=7/16 data=0xbbbab9b8b7b6b5b4 strb=0xff last=0
# UVM_INFO ../10_tb/ahb_slv/ahb_slv_driver.sv(201) @ 955000: uvm_test_top.env.ahb_agent.drv [ahb_slv_driver] [DRV][AHB][RSP] AHB_WRITE addr=0x14030 data=0xbbbab9b8b7b6b5b4 resp=AHB_RESP_OKAY ready_delay=0
# UVM_INFO ../10_tb/ahb_slv/ahb_slv_monitor.sv(119) @ 955000: uvm_test_top.env.ahb_agent.mon [ahb_slv_monitor] [MON][AHB][TR] AHB AHB_WRITE addr=0x14030 trans=AHB_TRANS_SEQ burst=AHB_BURST_INCR16 size=8B mastlock=0 resp=AHB_RESP_OKAY waits=0 | data=0xbbbab9b8b7b6b5b4
# UVM_INFO ../10_tb/ahb_slv/ahb_slv_driver.sv(87) @ 965000: uvm_test_top.env.ahb_agent.drv [ahb_slv_driver] [DRV][AHB][REQ] AHB_WRITE addr=0x14038 trans=AHB_TRANS_SEQ burst=AHB_BURST_INCR16 size=8B
# UVM_INFO ../10_tb/axi4_mst/axi4_mst_driver.sv(202) @ 965000: uvm_test_top.env.axi_agent.drv [axi4_mst_driver] [DRV][AXI][W] id=0xf beat=8/16 data=0xbdbcbbbab9b8b7b6 strb=0xff last=0
# UVM_INFO ../10_tb/ahb_slv/ahb_slv_driver.sv(201) @ 975000: uvm_test_top.env.ahb_agent.drv [ahb_slv_driver] [DRV][AHB][RSP] AHB_WRITE addr=0x14038 data=0xbdbcbbbab9b8b7b6 resp=AHB_RESP_OKAY ready_delay=0
# UVM_INFO ../10_tb/ahb_slv/ahb_slv_monitor.sv(119) @ 975000: uvm_test_top.env.ahb_agent.mon [ahb_slv_monitor] [MON][AHB][TR] AHB AHB_WRITE addr=0x14038 trans=AHB_TRANS_SEQ burst=AHB_BURST_INCR16 size=8B mastlock=0 resp=AHB_RESP_OKAY waits=0 | data=0xbdbcbbbab9b8b7b6
# UVM_INFO ../10_tb/ahb_slv/ahb_slv_driver.sv(87) @ 985000: uvm_test_top.env.ahb_agent.drv [ahb_slv_driver] [DRV][AHB][REQ] AHB_WRITE addr=0x14040 trans=AHB_TRANS_SEQ burst=AHB_BURST_INCR16 size=8B
# UVM_INFO ../10_tb/axi4_mst/axi4_mst_driver.sv(202) @ 985000: uvm_test_top.env.axi_agent.drv [axi4_mst_driver] [DRV][AXI][W] id=0xf beat=9/16 data=0xbfbebdbcbbbab9b8 strb=0xff last=0
# UVM_INFO ../10_tb/ahb_slv/ahb_slv_driver.sv(201) @ 995000: uvm_test_top.env.ahb_agent.drv [ahb_slv_driver] [DRV][AHB][RSP] AHB_WRITE addr=0x14040 data=0xbfbebdbcbbbab9b8 resp=AHB_RESP_OKAY ready_delay=0
# UVM_INFO ../10_tb/ahb_slv/ahb_slv_monitor.sv(119) @ 995000: uvm_test_top.env.ahb_agent.mon [ahb_slv_monitor] [MON][AHB][TR] AHB AHB_WRITE addr=0x14040 trans=AHB_TRANS_SEQ burst=AHB_BURST_INCR16 size=8B mastlock=0 resp=AHB_RESP_OKAY waits=0 | data=0xbfbebdbcbbbab9b8
# UVM_INFO ../10_tb/ahb_slv/ahb_slv_driver.sv(87) @ 1005000: uvm_test_top.env.ahb_agent.drv [ahb_slv_driver] [DRV][AHB][REQ] AHB_WRITE addr=0x14048 trans=AHB_TRANS_SEQ burst=AHB_BURST_INCR16 size=8B
# UVM_INFO ../10_tb/axi4_mst/axi4_mst_driver.sv(202) @ 1005000: uvm_test_top.env.axi_agent.drv [axi4_mst_driver] [DRV][AXI][W] id=0xf beat=10/16 data=0xc1c0bfbebdbcbbba strb=0xff last=0
# UVM_INFO ../10_tb/ahb_slv/ahb_slv_driver.sv(201) @ 1015000: uvm_test_top.env.ahb_agent.drv [ahb_slv_driver] [DRV][AHB][RSP] AHB_WRITE addr=0x14048 data=0xc1c0bfbebdbcbbba resp=AHB_RESP_OKAY ready_delay=0
# UVM_INFO ../10_tb/ahb_slv/ahb_slv_monitor.sv(119) @ 1015000: uvm_test_top.env.ahb_agent.mon [ahb_slv_monitor] [MON][AHB][TR] AHB AHB_WRITE addr=0x14048 trans=AHB_TRANS_SEQ burst=AHB_BURST_INCR16 size=8B mastlock=0 resp=AHB_RESP_OKAY waits=0 | data=0xc1c0bfbebdbcbbba
# UVM_INFO ../10_tb/ahb_slv/ahb_slv_driver.sv(87) @ 1025000: uvm_test_top.env.ahb_agent.drv [ahb_slv_driver] [DRV][AHB][REQ] AHB_WRITE addr=0x14050 trans=AHB_TRANS_SEQ burst=AHB_BURST_INCR16 size=8B
# UVM_INFO ../10_tb/axi4_mst/axi4_mst_driver.sv(202) @ 1025000: uvm_test_top.env.axi_agent.drv [axi4_mst_driver] [DRV][AXI][W] id=0xf beat=11/16 data=0xc3c2c1c0bfbebdbc strb=0xff last=0
# UVM_INFO ../10_tb/ahb_slv/ahb_slv_driver.sv(201) @ 1035000: uvm_test_top.env.ahb_agent.drv [ahb_slv_driver] [DRV][AHB][RSP] AHB_WRITE addr=0x14050 data=0xc3c2c1c0bfbebdbc resp=AHB_RESP_OKAY ready_delay=0
# UVM_INFO ../10_tb/ahb_slv/ahb_slv_monitor.sv(119) @ 1035000: uvm_test_top.env.ahb_agent.mon [ahb_slv_monitor] [MON][AHB][TR] AHB AHB_WRITE addr=0x14050 trans=AHB_TRANS_SEQ burst=AHB_BURST_INCR16 size=8B mastlock=0 resp=AHB_RESP_OKAY waits=0 | data=0xc3c2c1c0bfbebdbc
# UVM_INFO ../10_tb/ahb_slv/ahb_slv_driver.sv(87) @ 1045000: uvm_test_top.env.ahb_agent.drv [ahb_slv_driver] [DRV][AHB][REQ] AHB_WRITE addr=0x14058 trans=AHB_TRANS_SEQ burst=AHB_BURST_INCR16 size=8B
# UVM_INFO ../10_tb/axi4_mst/axi4_mst_driver.sv(202) @ 1045000: uvm_test_top.env.axi_agent.drv [axi4_mst_driver] [DRV][AXI][W] id=0xf beat=12/16 data=0xc5c4c3c2c1c0bfbe strb=0xff last=0
# UVM_INFO ../10_tb/ahb_slv/ahb_slv_driver.sv(201) @ 1055000: uvm_test_top.env.ahb_agent.drv [ahb_slv_driver] [DRV][AHB][RSP] AHB_WRITE addr=0x14058 data=0xc5c4c3c2c1c0bfbe resp=AHB_RESP_OKAY ready_delay=0
# UVM_INFO ../10_tb/ahb_slv/ahb_slv_monitor.sv(119) @ 1055000: uvm_test_top.env.ahb_agent.mon [ahb_slv_monitor] [MON][AHB][TR] AHB AHB_WRITE addr=0x14058 trans=AHB_TRANS_SEQ burst=AHB_BURST_INCR16 size=8B mastlock=0 resp=AHB_RESP_OKAY waits=0 | data=0xc5c4c3c2c1c0bfbe
# UVM_INFO ../10_tb/ahb_slv/ahb_slv_driver.sv(87) @ 1065000: uvm_test_top.env.ahb_agent.drv [ahb_slv_driver] [DRV][AHB][REQ] AHB_WRITE addr=0x14060 trans=AHB_TRANS_SEQ burst=AHB_BURST_INCR16 size=8B
# UVM_INFO ../10_tb/axi4_mst/axi4_mst_driver.sv(202) @ 1065000: uvm_test_top.env.axi_agent.drv [axi4_mst_driver] [DRV][AXI][W] id=0xf beat=13/16 data=0xc7c6c5c4c3c2c1c0 strb=0xff last=0
# UVM_INFO ../10_tb/ahb_slv/ahb_slv_driver.sv(201) @ 1075000: uvm_test_top.env.ahb_agent.drv [ahb_slv_driver] [DRV][AHB][RSP] AHB_WRITE addr=0x14060 data=0xc7c6c5c4c3c2c1c0 resp=AHB_RESP_OKAY ready_delay=0
# UVM_INFO ../10_tb/ahb_slv/ahb_slv_monitor.sv(119) @ 1075000: uvm_test_top.env.ahb_agent.mon [ahb_slv_monitor] [MON][AHB][TR] AHB AHB_WRITE addr=0x14060 trans=AHB_TRANS_SEQ burst=AHB_BURST_INCR16 size=8B mastlock=0 resp=AHB_RESP_OKAY waits=0 | data=0xc7c6c5c4c3c2c1c0
# UVM_INFO ../10_tb/ahb_slv/ahb_slv_driver.sv(87) @ 1085000: uvm_test_top.env.ahb_agent.drv [ahb_slv_driver] [DRV][AHB][REQ] AHB_WRITE addr=0x14068 trans=AHB_TRANS_SEQ burst=AHB_BURST_INCR16 size=8B
# UVM_INFO ../10_tb/axi4_mst/axi4_mst_driver.sv(202) @ 1085000: uvm_test_top.env.axi_agent.drv [axi4_mst_driver] [DRV][AXI][W] id=0xf beat=14/16 data=0xc9c8c7c6c5c4c3c2 strb=0xff last=0
# UVM_INFO ../10_tb/ahb_slv/ahb_slv_driver.sv(201) @ 1095000: uvm_test_top.env.ahb_agent.drv [ahb_slv_driver] [DRV][AHB][RSP] AHB_WRITE addr=0x14068 data=0xc9c8c7c6c5c4c3c2 resp=AHB_RESP_OKAY ready_delay=0
# UVM_INFO ../10_tb/ahb_slv/ahb_slv_monitor.sv(119) @ 1095000: uvm_test_top.env.ahb_agent.mon [ahb_slv_monitor] [MON][AHB][TR] AHB AHB_WRITE addr=0x14068 trans=AHB_TRANS_SEQ burst=AHB_BURST_INCR16 size=8B mastlock=0 resp=AHB_RESP_OKAY waits=0 | data=0xc9c8c7c6c5c4c3c2
# UVM_INFO ../10_tb/ahb_slv/ahb_slv_driver.sv(87) @ 1105000: uvm_test_top.env.ahb_agent.drv [ahb_slv_driver] [DRV][AHB][REQ] AHB_WRITE addr=0x14070 trans=AHB_TRANS_SEQ burst=AHB_BURST_INCR16 size=8B
# UVM_INFO ../10_tb/axi4_mst/axi4_mst_driver.sv(202) @ 1105000: uvm_test_top.env.axi_agent.drv [axi4_mst_driver] [DRV][AXI][W] id=0xf beat=15/16 data=0xcbcac9c8c7c6c5c4 strb=0xff last=0
# UVM_INFO ../10_tb/ahb_slv/ahb_slv_driver.sv(201) @ 1115000: uvm_test_top.env.ahb_agent.drv [ahb_slv_driver] [DRV][AHB][RSP] AHB_WRITE addr=0x14070 data=0xcbcac9c8c7c6c5c4 resp=AHB_RESP_OKAY ready_delay=0
# UVM_INFO ../10_tb/ahb_slv/ahb_slv_monitor.sv(119) @ 1115000: uvm_test_top.env.ahb_agent.mon [ahb_slv_monitor] [MON][AHB][TR] AHB AHB_WRITE addr=0x14070 trans=AHB_TRANS_SEQ burst=AHB_BURST_INCR16 size=8B mastlock=0 resp=AHB_RESP_OKAY waits=0 | data=0xcbcac9c8c7c6c5c4
# UVM_INFO ../10_tb/ahb_slv/ahb_slv_driver.sv(87) @ 1125000: uvm_test_top.env.ahb_agent.drv [ahb_slv_driver] [DRV][AHB][REQ] AHB_WRITE addr=0x14078 trans=AHB_TRANS_SEQ burst=AHB_BURST_INCR16 size=8B
# UVM_INFO ../10_tb/axi4_mst/axi4_mst_driver.sv(202) @ 1125000: uvm_test_top.env.axi_agent.drv [axi4_mst_driver] [DRV][AXI][W] id=0xf beat=16/16 data=0xcdcccbcac9c8c7c6 strb=0xff last=1
# UVM_INFO ../10_tb/axi4_mst/axi4_mst_monitor.sv(151) @ 1125000: uvm_test_top.env.axi_agent.mon [axi4_mst_monitor] [MON][AXI][REQ] AXI4 AXI4_WRITE id=0xf addr=0x14000 burst=AXI4_BURST_INCR beats=16 size=8B lock=0
# UVM_INFO ../10_tb/env/predictor.sv(81) @ 1125000: uvm_test_top.env.pred [predictor] [PRED][AXI][IN] AXI4 AXI4_WRITE id=0xf addr=0x14000 burst=AXI4_BURST_INCR beats=16 size=8B lock=0 | queued=1
# UVM_INFO ../10_tb/env/predictor.sv(147) @ 1125000: uvm_test_top.env.pred [predictor] [PRED][MAP] AXI4 AXI4_WRITE id=0xf addr=0x14000 burst=AXI4_BURST_INCR beats=16 size=8B lock=0 -> AHB burst=AHB_BURST_INCR16 size=8B crosses_1kb=0
# UVM_INFO ../10_tb/env/predictor.sv(178) @ 1125000: uvm_test_top.env.pred [predictor] [PRED][AHB] beat=1/16 | AHB AHB_WRITE addr=0x14000 trans=AHB_TRANS_NONSEQ burst=AHB_BURST_INCR16 size=8B mastlock=0 resp=AHB_RESP_OKAY waits=0 | wdata=0xafaeadacabaaa9a8
# UVM_INFO ../10_tb/env/scoreboard.sv(469) @ 1125000: uvm_test_top.env.scb [scoreboard] [SCB][AHB][PASS] AHB AHB_WRITE addr=0x14000 trans=AHB_TRANS_NONSEQ burst=AHB_BURST_INCR16 size=8B mastlock=0 resp=AHB_RESP_OKAY waits=0 | data=0xafaeadacabaaa9a8 | total=25
# UVM_INFO ../10_tb/env/predictor.sv(178) @ 1125000: uvm_test_top.env.pred [predictor] [PRED][AHB] beat=2/16 | AHB AHB_WRITE addr=0x14008 trans=AHB_TRANS_SEQ burst=AHB_BURST_INCR16 size=8B mastlock=0 resp=AHB_RESP_OKAY waits=0 | wdata=0xb1b0afaeadacabaa
# UVM_INFO ../10_tb/env/scoreboard.sv(469) @ 1125000: uvm_test_top.env.scb [scoreboard] [SCB][AHB][PASS] AHB AHB_WRITE addr=0x14008 trans=AHB_TRANS_SEQ burst=AHB_BURST_INCR16 size=8B mastlock=0 resp=AHB_RESP_OKAY waits=0 | data=0xb1b0afaeadacabaa | total=26
# UVM_INFO ../10_tb/env/predictor.sv(178) @ 1125000: uvm_test_top.env.pred [predictor] [PRED][AHB] beat=3/16 | AHB AHB_WRITE addr=0x14010 trans=AHB_TRANS_SEQ burst=AHB_BURST_INCR16 size=8B mastlock=0 resp=AHB_RESP_OKAY waits=0 | wdata=0xb3b2b1b0afaeadac
# UVM_INFO ../10_tb/env/scoreboard.sv(469) @ 1125000: uvm_test_top.env.scb [scoreboard] [SCB][AHB][PASS] AHB AHB_WRITE addr=0x14010 trans=AHB_TRANS_SEQ burst=AHB_BURST_INCR16 size=8B mastlock=0 resp=AHB_RESP_OKAY waits=0 | data=0xb3b2b1b0afaeadac | total=27
# UVM_INFO ../10_tb/env/predictor.sv(178) @ 1125000: uvm_test_top.env.pred [predictor] [PRED][AHB] beat=4/16 | AHB AHB_WRITE addr=0x14018 trans=AHB_TRANS_SEQ burst=AHB_BURST_INCR16 size=8B mastlock=0 resp=AHB_RESP_OKAY waits=0 | wdata=0xb5b4b3b2b1b0afae
# UVM_INFO ../10_tb/env/scoreboard.sv(469) @ 1125000: uvm_test_top.env.scb [scoreboard] [SCB][AHB][PASS] AHB AHB_WRITE addr=0x14018 trans=AHB_TRANS_SEQ burst=AHB_BURST_INCR16 size=8B mastlock=0 resp=AHB_RESP_OKAY waits=0 | data=0xb5b4b3b2b1b0afae | total=28
# UVM_INFO ../10_tb/env/predictor.sv(178) @ 1125000: uvm_test_top.env.pred [predictor] [PRED][AHB] beat=5/16 | AHB AHB_WRITE addr=0x14020 trans=AHB_TRANS_SEQ burst=AHB_BURST_INCR16 size=8B mastlock=0 resp=AHB_RESP_OKAY waits=0 | wdata=0xb7b6b5b4b3b2b1b0
# UVM_INFO ../10_tb/env/scoreboard.sv(469) @ 1125000: uvm_test_top.env.scb [scoreboard] [SCB][AHB][PASS] AHB AHB_WRITE addr=0x14020 trans=AHB_TRANS_SEQ burst=AHB_BURST_INCR16 size=8B mastlock=0 resp=AHB_RESP_OKAY waits=0 | data=0xb7b6b5b4b3b2b1b0 | total=29
# UVM_INFO ../10_tb/env/predictor.sv(178) @ 1125000: uvm_test_top.env.pred [predictor] [PRED][AHB] beat=6/16 | AHB AHB_WRITE addr=0x14028 trans=AHB_TRANS_SEQ burst=AHB_BURST_INCR16 size=8B mastlock=0 resp=AHB_RESP_OKAY waits=0 | wdata=0xb9b8b7b6b5b4b3b2
# UVM_INFO ../10_tb/env/scoreboard.sv(469) @ 1125000: uvm_test_top.env.scb [scoreboard] [SCB][AHB][PASS] AHB AHB_WRITE addr=0x14028 trans=AHB_TRANS_SEQ burst=AHB_BURST_INCR16 size=8B mastlock=0 resp=AHB_RESP_OKAY waits=0 | data=0xb9b8b7b6b5b4b3b2 | total=30
# UVM_INFO ../10_tb/env/predictor.sv(178) @ 1125000: uvm_test_top.env.pred [predictor] [PRED][AHB] beat=7/16 | AHB AHB_WRITE addr=0x14030 trans=AHB_TRANS_SEQ burst=AHB_BURST_INCR16 size=8B mastlock=0 resp=AHB_RESP_OKAY waits=0 | wdata=0xbbbab9b8b7b6b5b4
# UVM_INFO ../10_tb/env/scoreboard.sv(469) @ 1125000: uvm_test_top.env.scb [scoreboard] [SCB][AHB][PASS] AHB AHB_WRITE addr=0x14030 trans=AHB_TRANS_SEQ burst=AHB_BURST_INCR16 size=8B mastlock=0 resp=AHB_RESP_OKAY waits=0 | data=0xbbbab9b8b7b6b5b4 | total=31
# UVM_INFO ../10_tb/env/predictor.sv(178) @ 1125000: uvm_test_top.env.pred [predictor] [PRED][AHB] beat=8/16 | AHB AHB_WRITE addr=0x14038 trans=AHB_TRANS_SEQ burst=AHB_BURST_INCR16 size=8B mastlock=0 resp=AHB_RESP_OKAY waits=0 | wdata=0xbdbcbbbab9b8b7b6
# UVM_INFO ../10_tb/env/scoreboard.sv(469) @ 1125000: uvm_test_top.env.scb [scoreboard] [SCB][AHB][PASS] AHB AHB_WRITE addr=0x14038 trans=AHB_TRANS_SEQ burst=AHB_BURST_INCR16 size=8B mastlock=0 resp=AHB_RESP_OKAY waits=0 | data=0xbdbcbbbab9b8b7b6 | total=32
# UVM_INFO ../10_tb/env/predictor.sv(178) @ 1125000: uvm_test_top.env.pred [predictor] [PRED][AHB] beat=9/16 | AHB AHB_WRITE addr=0x14040 trans=AHB_TRANS_SEQ burst=AHB_BURST_INCR16 size=8B mastlock=0 resp=AHB_RESP_OKAY waits=0 | wdata=0xbfbebdbcbbbab9b8
# UVM_INFO ../10_tb/env/scoreboard.sv(469) @ 1125000: uvm_test_top.env.scb [scoreboard] [SCB][AHB][PASS] AHB AHB_WRITE addr=0x14040 trans=AHB_TRANS_SEQ burst=AHB_BURST_INCR16 size=8B mastlock=0 resp=AHB_RESP_OKAY waits=0 | data=0xbfbebdbcbbbab9b8 | total=33
# UVM_INFO ../10_tb/env/predictor.sv(178) @ 1125000: uvm_test_top.env.pred [predictor] [PRED][AHB] beat=10/16 | AHB AHB_WRITE addr=0x14048 trans=AHB_TRANS_SEQ burst=AHB_BURST_INCR16 size=8B mastlock=0 resp=AHB_RESP_OKAY waits=0 | wdata=0xc1c0bfbebdbcbbba
# UVM_INFO ../10_tb/env/scoreboard.sv(469) @ 1125000: uvm_test_top.env.scb [scoreboard] [SCB][AHB][PASS] AHB AHB_WRITE addr=0x14048 trans=AHB_TRANS_SEQ burst=AHB_BURST_INCR16 size=8B mastlock=0 resp=AHB_RESP_OKAY waits=0 | data=0xc1c0bfbebdbcbbba | total=34
# UVM_INFO ../10_tb/env/predictor.sv(178) @ 1125000: uvm_test_top.env.pred [predictor] [PRED][AHB] beat=11/16 | AHB AHB_WRITE addr=0x14050 trans=AHB_TRANS_SEQ burst=AHB_BURST_INCR16 size=8B mastlock=0 resp=AHB_RESP_OKAY waits=0 | wdata=0xc3c2c1c0bfbebdbc
# UVM_INFO ../10_tb/env/scoreboard.sv(469) @ 1125000: uvm_test_top.env.scb [scoreboard] [SCB][AHB][PASS] AHB AHB_WRITE addr=0x14050 trans=AHB_TRANS_SEQ burst=AHB_BURST_INCR16 size=8B mastlock=0 resp=AHB_RESP_OKAY waits=0 | data=0xc3c2c1c0bfbebdbc | total=35
# UVM_INFO ../10_tb/env/predictor.sv(178) @ 1125000: uvm_test_top.env.pred [predictor] [PRED][AHB] beat=12/16 | AHB AHB_WRITE addr=0x14058 trans=AHB_TRANS_SEQ burst=AHB_BURST_INCR16 size=8B mastlock=0 resp=AHB_RESP_OKAY waits=0 | wdata=0xc5c4c3c2c1c0bfbe
# UVM_INFO ../10_tb/env/scoreboard.sv(469) @ 1125000: uvm_test_top.env.scb [scoreboard] [SCB][AHB][PASS] AHB AHB_WRITE addr=0x14058 trans=AHB_TRANS_SEQ burst=AHB_BURST_INCR16 size=8B mastlock=0 resp=AHB_RESP_OKAY waits=0 | data=0xc5c4c3c2c1c0bfbe | total=36
# UVM_INFO ../10_tb/env/predictor.sv(178) @ 1125000: uvm_test_top.env.pred [predictor] [PRED][AHB] beat=13/16 | AHB AHB_WRITE addr=0x14060 trans=AHB_TRANS_SEQ burst=AHB_BURST_INCR16 size=8B mastlock=0 resp=AHB_RESP_OKAY waits=0 | wdata=0xc7c6c5c4c3c2c1c0
# UVM_INFO ../10_tb/env/scoreboard.sv(469) @ 1125000: uvm_test_top.env.scb [scoreboard] [SCB][AHB][PASS] AHB AHB_WRITE addr=0x14060 trans=AHB_TRANS_SEQ burst=AHB_BURST_INCR16 size=8B mastlock=0 resp=AHB_RESP_OKAY waits=0 | data=0xc7c6c5c4c3c2c1c0 | total=37
# UVM_INFO ../10_tb/env/predictor.sv(178) @ 1125000: uvm_test_top.env.pred [predictor] [PRED][AHB] beat=14/16 | AHB AHB_WRITE addr=0x14068 trans=AHB_TRANS_SEQ burst=AHB_BURST_INCR16 size=8B mastlock=0 resp=AHB_RESP_OKAY waits=0 | wdata=0xc9c8c7c6c5c4c3c2
# UVM_INFO ../10_tb/env/scoreboard.sv(469) @ 1125000: uvm_test_top.env.scb [scoreboard] [SCB][AHB][PASS] AHB AHB_WRITE addr=0x14068 trans=AHB_TRANS_SEQ burst=AHB_BURST_INCR16 size=8B mastlock=0 resp=AHB_RESP_OKAY waits=0 | data=0xc9c8c7c6c5c4c3c2 | total=38
# UVM_INFO ../10_tb/env/predictor.sv(178) @ 1125000: uvm_test_top.env.pred [predictor] [PRED][AHB] beat=15/16 | AHB AHB_WRITE addr=0x14070 trans=AHB_TRANS_SEQ burst=AHB_BURST_INCR16 size=8B mastlock=0 resp=AHB_RESP_OKAY waits=0 | wdata=0xcbcac9c8c7c6c5c4
# UVM_INFO ../10_tb/env/scoreboard.sv(469) @ 1125000: uvm_test_top.env.scb [scoreboard] [SCB][AHB][PASS] AHB AHB_WRITE addr=0x14070 trans=AHB_TRANS_SEQ burst=AHB_BURST_INCR16 size=8B mastlock=0 resp=AHB_RESP_OKAY waits=0 | data=0xcbcac9c8c7c6c5c4 | total=39
# UVM_INFO ../10_tb/env/predictor.sv(178) @ 1125000: uvm_test_top.env.pred [predictor] [PRED][AHB] beat=16/16 | AHB AHB_WRITE addr=0x14078 trans=AHB_TRANS_SEQ burst=AHB_BURST_INCR16 size=8B mastlock=0 resp=AHB_RESP_OKAY waits=0 | wdata=0xcdcccbcac9c8c7c6
# UVM_INFO ../10_tb/ahb_slv/ahb_slv_driver.sv(201) @ 1135000: uvm_test_top.env.ahb_agent.drv [ahb_slv_driver] [DRV][AHB][RSP] AHB_WRITE addr=0x14078 data=0xcdcccbcac9c8c7c6 resp=AHB_RESP_OKAY ready_delay=0
# UVM_INFO ../10_tb/ahb_slv/ahb_slv_monitor.sv(119) @ 1135000: uvm_test_top.env.ahb_agent.mon [ahb_slv_monitor] [MON][AHB][TR] AHB AHB_WRITE addr=0x14078 trans=AHB_TRANS_SEQ burst=AHB_BURST_INCR16 size=8B mastlock=0 resp=AHB_RESP_OKAY waits=0 | data=0xcdcccbcac9c8c7c6
# UVM_INFO ../10_tb/env/scoreboard.sv(469) @ 1135000: uvm_test_top.env.scb [scoreboard] [SCB][AHB][PASS] AHB AHB_WRITE addr=0x14078 trans=AHB_TRANS_SEQ burst=AHB_BURST_INCR16 size=8B mastlock=0 resp=AHB_RESP_OKAY waits=0 | data=0xcdcccbcac9c8c7c6 | total=40
# UVM_INFO ../10_tb/axi4_mst/axi4_mst_driver.sv(280) @ 1145000: uvm_test_top.env.axi_agent.drv [axi4_mst_driver] [DRV][AXI][B] id=0xf resp=AXI4_RESP_OKAY
# UVM_INFO ../10_tb/axi4_mst/axi4_mst_monitor.sv(177) @ 1145000: uvm_test_top.env.axi_agent.mon [axi4_mst_monitor] [MON][AXI][RSP] WRITE id=0xf resp=AXI4_RESP_OKAY
# UVM_INFO ../10_tb/env/scoreboard.sv(604) @ 1145000: uvm_test_top.env.scb [scoreboard] [SCB][AXI][PASS] AXI4 AXI4_WRITE id=0xf addr=0x14000 burst=AXI4_BURST_INCR beats=16 size=8B lock=0 | bresp=AXI4_RESP_OKAY | total=5
# UVM_INFO ../10_tb/seq/axi4_mst_seq/axi4_mst_1kb_boundary_seq.sv(157) @ 1145000: uvm_test_top.env.axi_agent.sqr@@axi_seq [axi4_mst_1kb_boundary_seq] [5] NO_CROSS_INCR16_RD addr=0x15000 beats=16 page_off=0x0 class=BOUNDARY_NO_CROSS
# UVM_INFO ../10_tb/axi4_mst/axi4_mst_driver.sv(105) @ 1145000: uvm_test_top.env.axi_agent.drv [axi4_mst_driver] [DRV][AXI][REQ] AXI4 AXI4_READ id=0xd addr=0x15000 burst=AXI4_BURST_INCR beats=16 size=8B lock=0 | outstanding=1
# UVM_INFO ../10_tb/axi4_mst/axi4_mst_driver.sv(255) @ 1175000: uvm_test_top.env.axi_agent.drv [axi4_mst_driver] [DRV][AXI][AR] id=0xd addr=0x15000 burst=AXI4_BURST_INCR beats=16 size=8B
# UVM_INFO ../10_tb/axi4_mst/axi4_mst_monitor.sv(211) @ 1175000: uvm_test_top.env.axi_agent.mon [axi4_mst_monitor] [MON][AXI][REQ] AXI4 AXI4_READ id=0xd addr=0x15000 burst=AXI4_BURST_INCR beats=16 size=8B lock=0
# UVM_INFO ../10_tb/env/predictor.sv(81) @ 1175000: uvm_test_top.env.pred [predictor] [PRED][AXI][IN] AXI4 AXI4_READ id=0xd addr=0x15000 burst=AXI4_BURST_INCR beats=16 size=8B lock=0 | queued=1
# UVM_INFO ../10_tb/env/predictor.sv(147) @ 1175000: uvm_test_top.env.pred [predictor] [PRED][MAP] AXI4 AXI4_READ id=0xd addr=0x15000 burst=AXI4_BURST_INCR beats=16 size=8B lock=0 -> AHB burst=AHB_BURST_INCR16 size=8B crosses_1kb=0
# UVM_INFO ../10_tb/env/predictor.sv(184) @ 1175000: uvm_test_top.env.pred [predictor] [PRED][AHB] beat=1/16 | AHB AHB_READ addr=0x15000 trans=AHB_TRANS_NONSEQ burst=AHB_BURST_INCR16 size=8B mastlock=0 resp=AHB_RESP_OKAY waits=0
# UVM_INFO ../10_tb/env/predictor.sv(184) @ 1175000: uvm_test_top.env.pred [predictor] [PRED][AHB] beat=2/16 | AHB AHB_READ addr=0x15008 trans=AHB_TRANS_SEQ burst=AHB_BURST_INCR16 size=8B mastlock=0 resp=AHB_RESP_OKAY waits=0
# UVM_INFO ../10_tb/env/predictor.sv(184) @ 1175000: uvm_test_top.env.pred [predictor] [PRED][AHB] beat=3/16 | AHB AHB_READ addr=0x15010 trans=AHB_TRANS_SEQ burst=AHB_BURST_INCR16 size=8B mastlock=0 resp=AHB_RESP_OKAY waits=0
# UVM_INFO ../10_tb/env/predictor.sv(184) @ 1175000: uvm_test_top.env.pred [predictor] [PRED][AHB] beat=4/16 | AHB AHB_READ addr=0x15018 trans=AHB_TRANS_SEQ burst=AHB_BURST_INCR16 size=8B mastlock=0 resp=AHB_RESP_OKAY waits=0
# UVM_INFO ../10_tb/env/predictor.sv(184) @ 1175000: uvm_test_top.env.pred [predictor] [PRED][AHB] beat=5/16 | AHB AHB_READ addr=0x15020 trans=AHB_TRANS_SEQ burst=AHB_BURST_INCR16 size=8B mastlock=0 resp=AHB_RESP_OKAY waits=0
# UVM_INFO ../10_tb/env/predictor.sv(184) @ 1175000: uvm_test_top.env.pred [predictor] [PRED][AHB] beat=6/16 | AHB AHB_READ addr=0x15028 trans=AHB_TRANS_SEQ burst=AHB_BURST_INCR16 size=8B mastlock=0 resp=AHB_RESP_OKAY waits=0
# UVM_INFO ../10_tb/env/predictor.sv(184) @ 1175000: uvm_test_top.env.pred [predictor] [PRED][AHB] beat=7/16 | AHB AHB_READ addr=0x15030 trans=AHB_TRANS_SEQ burst=AHB_BURST_INCR16 size=8B mastlock=0 resp=AHB_RESP_OKAY waits=0
# UVM_INFO ../10_tb/env/predictor.sv(184) @ 1175000: uvm_test_top.env.pred [predictor] [PRED][AHB] beat=8/16 | AHB AHB_READ addr=0x15038 trans=AHB_TRANS_SEQ burst=AHB_BURST_INCR16 size=8B mastlock=0 resp=AHB_RESP_OKAY waits=0
# UVM_INFO ../10_tb/env/predictor.sv(184) @ 1175000: uvm_test_top.env.pred [predictor] [PRED][AHB] beat=9/16 | AHB AHB_READ addr=0x15040 trans=AHB_TRANS_SEQ burst=AHB_BURST_INCR16 size=8B mastlock=0 resp=AHB_RESP_OKAY waits=0
# UVM_INFO ../10_tb/env/predictor.sv(184) @ 1175000: uvm_test_top.env.pred [predictor] [PRED][AHB] beat=10/16 | AHB AHB_READ addr=0x15048 trans=AHB_TRANS_SEQ burst=AHB_BURST_INCR16 size=8B mastlock=0 resp=AHB_RESP_OKAY waits=0
# UVM_INFO ../10_tb/env/predictor.sv(184) @ 1175000: uvm_test_top.env.pred [predictor] [PRED][AHB] beat=11/16 | AHB AHB_READ addr=0x15050 trans=AHB_TRANS_SEQ burst=AHB_BURST_INCR16 size=8B mastlock=0 resp=AHB_RESP_OKAY waits=0
# UVM_INFO ../10_tb/env/predictor.sv(184) @ 1175000: uvm_test_top.env.pred [predictor] [PRED][AHB] beat=12/16 | AHB AHB_READ addr=0x15058 trans=AHB_TRANS_SEQ burst=AHB_BURST_INCR16 size=8B mastlock=0 resp=AHB_RESP_OKAY waits=0
# UVM_INFO ../10_tb/env/predictor.sv(184) @ 1175000: uvm_test_top.env.pred [predictor] [PRED][AHB] beat=13/16 | AHB AHB_READ addr=0x15060 trans=AHB_TRANS_SEQ burst=AHB_BURST_INCR16 size=8B mastlock=0 resp=AHB_RESP_OKAY waits=0
# UVM_INFO ../10_tb/env/predictor.sv(184) @ 1175000: uvm_test_top.env.pred [predictor] [PRED][AHB] beat=14/16 | AHB AHB_READ addr=0x15068 trans=AHB_TRANS_SEQ burst=AHB_BURST_INCR16 size=8B mastlock=0 resp=AHB_RESP_OKAY waits=0
# UVM_INFO ../10_tb/env/predictor.sv(184) @ 1175000: uvm_test_top.env.pred [predictor] [PRED][AHB] beat=15/16 | AHB AHB_READ addr=0x15070 trans=AHB_TRANS_SEQ burst=AHB_BURST_INCR16 size=8B mastlock=0 resp=AHB_RESP_OKAY waits=0
# UVM_INFO ../10_tb/env/predictor.sv(184) @ 1175000: uvm_test_top.env.pred [predictor] [PRED][AHB] beat=16/16 | AHB AHB_READ addr=0x15078 trans=AHB_TRANS_SEQ burst=AHB_BURST_INCR16 size=8B mastlock=0 resp=AHB_RESP_OKAY waits=0
# UVM_INFO ../10_tb/ahb_slv/ahb_slv_driver.sv(87) @ 1185000: uvm_test_top.env.ahb_agent.drv [ahb_slv_driver] [DRV][AHB][REQ] AHB_READ addr=0x15000 trans=AHB_TRANS_NONSEQ burst=AHB_BURST_INCR16 size=8B
# UVM_INFO ../10_tb/ahb_slv/ahb_slv_driver.sv(201) @ 1195000: uvm_test_top.env.ahb_agent.drv [ahb_slv_driver] [DRV][AHB][RSP] AHB_READ addr=0x15000 data=0x15000fffeafff resp=AHB_RESP_OKAY ready_delay=0
# UVM_INFO ../10_tb/ahb_slv/ahb_slv_monitor.sv(119) @ 1195000: uvm_test_top.env.ahb_agent.mon [ahb_slv_monitor] [MON][AHB][TR] AHB AHB_READ addr=0x15000 trans=AHB_TRANS_NONSEQ burst=AHB_BURST_INCR16 size=8B mastlock=0 resp=AHB_RESP_OKAY waits=0 | data=0x15000fffeafff
# UVM_INFO ../10_tb/env/scoreboard.sv(469) @ 1195000: uvm_test_top.env.scb [scoreboard] [SCB][AHB][PASS] AHB AHB_READ addr=0x15000 trans=AHB_TRANS_NONSEQ burst=AHB_BURST_INCR16 size=8B mastlock=0 resp=AHB_RESP_OKAY waits=0 | data=0x15000fffeafff | total=41
# UVM_INFO ../10_tb/ahb_slv/ahb_slv_driver.sv(87) @ 1205000: uvm_test_top.env.ahb_agent.drv [ahb_slv_driver] [DRV][AHB][REQ] AHB_READ addr=0x15008 trans=AHB_TRANS_SEQ burst=AHB_BURST_INCR16 size=8B
# UVM_INFO ../10_tb/ahb_slv/ahb_slv_driver.sv(201) @ 1215000: uvm_test_top.env.ahb_agent.drv [ahb_slv_driver] [DRV][AHB][RSP] AHB_READ addr=0x15008 data=0x15008fffeaff7 resp=AHB_RESP_OKAY ready_delay=0
# UVM_INFO ../10_tb/ahb_slv/ahb_slv_monitor.sv(119) @ 1215000: uvm_test_top.env.ahb_agent.mon [ahb_slv_monitor] [MON][AHB][TR] AHB AHB_READ addr=0x15008 trans=AHB_TRANS_SEQ burst=AHB_BURST_INCR16 size=8B mastlock=0 resp=AHB_RESP_OKAY waits=0 | data=0x15008fffeaff7
# UVM_INFO ../10_tb/env/scoreboard.sv(469) @ 1215000: uvm_test_top.env.scb [scoreboard] [SCB][AHB][PASS] AHB AHB_READ addr=0x15008 trans=AHB_TRANS_SEQ burst=AHB_BURST_INCR16 size=8B mastlock=0 resp=AHB_RESP_OKAY waits=0 | data=0x15008fffeaff7 | total=42
# UVM_INFO ../10_tb/axi4_mst/axi4_mst_driver.sv(320) @ 1215000: uvm_test_top.env.axi_agent.drv [axi4_mst_driver] [DRV][AXI][R] id=0xd beat=1/16 data=0x15000fffeafff resp=AXI4_RESP_OKAY last=0
# UVM_INFO ../10_tb/axi4_mst/axi4_mst_monitor.sv(256) @ 1215000: uvm_test_top.env.axi_agent.mon [axi4_mst_monitor] [MON][AXI][R] id=0xd beat=1/16 data=0x15000fffeafff resp=AXI4_RESP_OKAY last=0
# UVM_INFO ../10_tb/ahb_slv/ahb_slv_driver.sv(87) @ 1225000: uvm_test_top.env.ahb_agent.drv [ahb_slv_driver] [DRV][AHB][REQ] AHB_READ addr=0x15010 trans=AHB_TRANS_SEQ burst=AHB_BURST_INCR16 size=8B
# UVM_INFO ../10_tb/ahb_slv/ahb_slv_driver.sv(201) @ 1235000: uvm_test_top.env.ahb_agent.drv [ahb_slv_driver] [DRV][AHB][RSP] AHB_READ addr=0x15010 data=0x15010fffeafef resp=AHB_RESP_OKAY ready_delay=0
# UVM_INFO ../10_tb/ahb_slv/ahb_slv_monitor.sv(119) @ 1235000: uvm_test_top.env.ahb_agent.mon [ahb_slv_monitor] [MON][AHB][TR] AHB AHB_READ addr=0x15010 trans=AHB_TRANS_SEQ burst=AHB_BURST_INCR16 size=8B mastlock=0 resp=AHB_RESP_OKAY waits=0 | data=0x15010fffeafef
# UVM_INFO ../10_tb/env/scoreboard.sv(469) @ 1235000: uvm_test_top.env.scb [scoreboard] [SCB][AHB][PASS] AHB AHB_READ addr=0x15010 trans=AHB_TRANS_SEQ burst=AHB_BURST_INCR16 size=8B mastlock=0 resp=AHB_RESP_OKAY waits=0 | data=0x15010fffeafef | total=43
# UVM_INFO ../10_tb/axi4_mst/axi4_mst_driver.sv(320) @ 1235000: uvm_test_top.env.axi_agent.drv [axi4_mst_driver] [DRV][AXI][R] id=0xd beat=2/16 data=0x15008fffeaff7 resp=AXI4_RESP_OKAY last=0
# UVM_INFO ../10_tb/axi4_mst/axi4_mst_monitor.sv(256) @ 1235000: uvm_test_top.env.axi_agent.mon [axi4_mst_monitor] [MON][AXI][R] id=0xd beat=2/16 data=0x15008fffeaff7 resp=AXI4_RESP_OKAY last=0
# UVM_INFO ../10_tb/ahb_slv/ahb_slv_driver.sv(87) @ 1245000: uvm_test_top.env.ahb_agent.drv [ahb_slv_driver] [DRV][AHB][REQ] AHB_READ addr=0x15018 trans=AHB_TRANS_SEQ burst=AHB_BURST_INCR16 size=8B
# UVM_INFO ../10_tb/ahb_slv/ahb_slv_driver.sv(201) @ 1255000: uvm_test_top.env.ahb_agent.drv [ahb_slv_driver] [DRV][AHB][RSP] AHB_READ addr=0x15018 data=0x15018fffeafe7 resp=AHB_RESP_OKAY ready_delay=0
# UVM_INFO ../10_tb/ahb_slv/ahb_slv_monitor.sv(119) @ 1255000: uvm_test_top.env.ahb_agent.mon [ahb_slv_monitor] [MON][AHB][TR] AHB AHB_READ addr=0x15018 trans=AHB_TRANS_SEQ burst=AHB_BURST_INCR16 size=8B mastlock=0 resp=AHB_RESP_OKAY waits=0 | data=0x15018fffeafe7
# UVM_INFO ../10_tb/env/scoreboard.sv(469) @ 1255000: uvm_test_top.env.scb [scoreboard] [SCB][AHB][PASS] AHB AHB_READ addr=0x15018 trans=AHB_TRANS_SEQ burst=AHB_BURST_INCR16 size=8B mastlock=0 resp=AHB_RESP_OKAY waits=0 | data=0x15018fffeafe7 | total=44
# UVM_INFO ../10_tb/axi4_mst/axi4_mst_driver.sv(320) @ 1255000: uvm_test_top.env.axi_agent.drv [axi4_mst_driver] [DRV][AXI][R] id=0xd beat=3/16 data=0x15010fffeafef resp=AXI4_RESP_OKAY last=0
# UVM_INFO ../10_tb/axi4_mst/axi4_mst_monitor.sv(256) @ 1255000: uvm_test_top.env.axi_agent.mon [axi4_mst_monitor] [MON][AXI][R] id=0xd beat=3/16 data=0x15010fffeafef resp=AXI4_RESP_OKAY last=0
# UVM_INFO ../10_tb/ahb_slv/ahb_slv_driver.sv(87) @ 1265000: uvm_test_top.env.ahb_agent.drv [ahb_slv_driver] [DRV][AHB][REQ] AHB_READ addr=0x15020 trans=AHB_TRANS_SEQ burst=AHB_BURST_INCR16 size=8B
# UVM_INFO ../10_tb/ahb_slv/ahb_slv_driver.sv(201) @ 1275000: uvm_test_top.env.ahb_agent.drv [ahb_slv_driver] [DRV][AHB][RSP] AHB_READ addr=0x15020 data=0x15020fffeafdf resp=AHB_RESP_OKAY ready_delay=0
# UVM_INFO ../10_tb/ahb_slv/ahb_slv_monitor.sv(119) @ 1275000: uvm_test_top.env.ahb_agent.mon [ahb_slv_monitor] [MON][AHB][TR] AHB AHB_READ addr=0x15020 trans=AHB_TRANS_SEQ burst=AHB_BURST_INCR16 size=8B mastlock=0 resp=AHB_RESP_OKAY waits=0 | data=0x15020fffeafdf
# UVM_INFO ../10_tb/env/scoreboard.sv(469) @ 1275000: uvm_test_top.env.scb [scoreboard] [SCB][AHB][PASS] AHB AHB_READ addr=0x15020 trans=AHB_TRANS_SEQ burst=AHB_BURST_INCR16 size=8B mastlock=0 resp=AHB_RESP_OKAY waits=0 | data=0x15020fffeafdf | total=45
# UVM_INFO ../10_tb/axi4_mst/axi4_mst_driver.sv(320) @ 1275000: uvm_test_top.env.axi_agent.drv [axi4_mst_driver] [DRV][AXI][R] id=0xd beat=4/16 data=0x15018fffeafe7 resp=AXI4_RESP_OKAY last=0
# UVM_INFO ../10_tb/axi4_mst/axi4_mst_monitor.sv(256) @ 1275000: uvm_test_top.env.axi_agent.mon [axi4_mst_monitor] [MON][AXI][R] id=0xd beat=4/16 data=0x15018fffeafe7 resp=AXI4_RESP_OKAY last=0
# UVM_INFO ../10_tb/ahb_slv/ahb_slv_driver.sv(87) @ 1285000: uvm_test_top.env.ahb_agent.drv [ahb_slv_driver] [DRV][AHB][REQ] AHB_READ addr=0x15028 trans=AHB_TRANS_SEQ burst=AHB_BURST_INCR16 size=8B
# UVM_INFO ../10_tb/ahb_slv/ahb_slv_driver.sv(201) @ 1295000: uvm_test_top.env.ahb_agent.drv [ahb_slv_driver] [DRV][AHB][RSP] AHB_READ addr=0x15028 data=0x15028fffeafd7 resp=AHB_RESP_OKAY ready_delay=0
# UVM_INFO ../10_tb/ahb_slv/ahb_slv_monitor.sv(119) @ 1295000: uvm_test_top.env.ahb_agent.mon [ahb_slv_monitor] [MON][AHB][TR] AHB AHB_READ addr=0x15028 trans=AHB_TRANS_SEQ burst=AHB_BURST_INCR16 size=8B mastlock=0 resp=AHB_RESP_OKAY waits=0 | data=0x15028fffeafd7
# UVM_INFO ../10_tb/env/scoreboard.sv(469) @ 1295000: uvm_test_top.env.scb [scoreboard] [SCB][AHB][PASS] AHB AHB_READ addr=0x15028 trans=AHB_TRANS_SEQ burst=AHB_BURST_INCR16 size=8B mastlock=0 resp=AHB_RESP_OKAY waits=0 | data=0x15028fffeafd7 | total=46
# UVM_INFO ../10_tb/axi4_mst/axi4_mst_driver.sv(320) @ 1295000: uvm_test_top.env.axi_agent.drv [axi4_mst_driver] [DRV][AXI][R] id=0xd beat=5/16 data=0x15020fffeafdf resp=AXI4_RESP_OKAY last=0
# UVM_INFO ../10_tb/axi4_mst/axi4_mst_monitor.sv(256) @ 1295000: uvm_test_top.env.axi_agent.mon [axi4_mst_monitor] [MON][AXI][R] id=0xd beat=5/16 data=0x15020fffeafdf resp=AXI4_RESP_OKAY last=0
# UVM_INFO ../10_tb/ahb_slv/ahb_slv_driver.sv(87) @ 1305000: uvm_test_top.env.ahb_agent.drv [ahb_slv_driver] [DRV][AHB][REQ] AHB_READ addr=0x15030 trans=AHB_TRANS_SEQ burst=AHB_BURST_INCR16 size=8B
# UVM_INFO ../10_tb/ahb_slv/ahb_slv_driver.sv(201) @ 1315000: uvm_test_top.env.ahb_agent.drv [ahb_slv_driver] [DRV][AHB][RSP] AHB_READ addr=0x15030 data=0x15030fffeafcf resp=AHB_RESP_OKAY ready_delay=0
# UVM_INFO ../10_tb/ahb_slv/ahb_slv_monitor.sv(119) @ 1315000: uvm_test_top.env.ahb_agent.mon [ahb_slv_monitor] [MON][AHB][TR] AHB AHB_READ addr=0x15030 trans=AHB_TRANS_SEQ burst=AHB_BURST_INCR16 size=8B mastlock=0 resp=AHB_RESP_OKAY waits=0 | data=0x15030fffeafcf
# UVM_INFO ../10_tb/env/scoreboard.sv(469) @ 1315000: uvm_test_top.env.scb [scoreboard] [SCB][AHB][PASS] AHB AHB_READ addr=0x15030 trans=AHB_TRANS_SEQ burst=AHB_BURST_INCR16 size=8B mastlock=0 resp=AHB_RESP_OKAY waits=0 | data=0x15030fffeafcf | total=47
# UVM_INFO ../10_tb/axi4_mst/axi4_mst_driver.sv(320) @ 1315000: uvm_test_top.env.axi_agent.drv [axi4_mst_driver] [DRV][AXI][R] id=0xd beat=6/16 data=0x15028fffeafd7 resp=AXI4_RESP_OKAY last=0
# UVM_INFO ../10_tb/axi4_mst/axi4_mst_monitor.sv(256) @ 1315000: uvm_test_top.env.axi_agent.mon [axi4_mst_monitor] [MON][AXI][R] id=0xd beat=6/16 data=0x15028fffeafd7 resp=AXI4_RESP_OKAY last=0
# UVM_INFO ../10_tb/ahb_slv/ahb_slv_driver.sv(87) @ 1325000: uvm_test_top.env.ahb_agent.drv [ahb_slv_driver] [DRV][AHB][REQ] AHB_READ addr=0x15038 trans=AHB_TRANS_SEQ burst=AHB_BURST_INCR16 size=8B
# UVM_INFO ../10_tb/ahb_slv/ahb_slv_driver.sv(201) @ 1335000: uvm_test_top.env.ahb_agent.drv [ahb_slv_driver] [DRV][AHB][RSP] AHB_READ addr=0x15038 data=0x15038fffeafc7 resp=AHB_RESP_OKAY ready_delay=0
# UVM_INFO ../10_tb/ahb_slv/ahb_slv_monitor.sv(119) @ 1335000: uvm_test_top.env.ahb_agent.mon [ahb_slv_monitor] [MON][AHB][TR] AHB AHB_READ addr=0x15038 trans=AHB_TRANS_SEQ burst=AHB_BURST_INCR16 size=8B mastlock=0 resp=AHB_RESP_OKAY waits=0 | data=0x15038fffeafc7
# UVM_INFO ../10_tb/env/scoreboard.sv(469) @ 1335000: uvm_test_top.env.scb [scoreboard] [SCB][AHB][PASS] AHB AHB_READ addr=0x15038 trans=AHB_TRANS_SEQ burst=AHB_BURST_INCR16 size=8B mastlock=0 resp=AHB_RESP_OKAY waits=0 | data=0x15038fffeafc7 | total=48
# UVM_INFO ../10_tb/axi4_mst/axi4_mst_driver.sv(320) @ 1335000: uvm_test_top.env.axi_agent.drv [axi4_mst_driver] [DRV][AXI][R] id=0xd beat=7/16 data=0x15030fffeafcf resp=AXI4_RESP_OKAY last=0
# UVM_INFO ../10_tb/axi4_mst/axi4_mst_monitor.sv(256) @ 1335000: uvm_test_top.env.axi_agent.mon [axi4_mst_monitor] [MON][AXI][R] id=0xd beat=7/16 data=0x15030fffeafcf resp=AXI4_RESP_OKAY last=0
# UVM_INFO ../10_tb/ahb_slv/ahb_slv_driver.sv(87) @ 1345000: uvm_test_top.env.ahb_agent.drv [ahb_slv_driver] [DRV][AHB][REQ] AHB_READ addr=0x15040 trans=AHB_TRANS_SEQ burst=AHB_BURST_INCR16 size=8B
# UVM_INFO ../10_tb/ahb_slv/ahb_slv_driver.sv(201) @ 1355000: uvm_test_top.env.ahb_agent.drv [ahb_slv_driver] [DRV][AHB][RSP] AHB_READ addr=0x15040 data=0x15040fffeafbf resp=AHB_RESP_OKAY ready_delay=0
# UVM_INFO ../10_tb/ahb_slv/ahb_slv_monitor.sv(119) @ 1355000: uvm_test_top.env.ahb_agent.mon [ahb_slv_monitor] [MON][AHB][TR] AHB AHB_READ addr=0x15040 trans=AHB_TRANS_SEQ burst=AHB_BURST_INCR16 size=8B mastlock=0 resp=AHB_RESP_OKAY waits=0 | data=0x15040fffeafbf
# UVM_INFO ../10_tb/env/scoreboard.sv(469) @ 1355000: uvm_test_top.env.scb [scoreboard] [SCB][AHB][PASS] AHB AHB_READ addr=0x15040 trans=AHB_TRANS_SEQ burst=AHB_BURST_INCR16 size=8B mastlock=0 resp=AHB_RESP_OKAY waits=0 | data=0x15040fffeafbf | total=49
# UVM_INFO ../10_tb/axi4_mst/axi4_mst_driver.sv(320) @ 1355000: uvm_test_top.env.axi_agent.drv [axi4_mst_driver] [DRV][AXI][R] id=0xd beat=8/16 data=0x15038fffeafc7 resp=AXI4_RESP_OKAY last=0
# UVM_INFO ../10_tb/axi4_mst/axi4_mst_monitor.sv(256) @ 1355000: uvm_test_top.env.axi_agent.mon [axi4_mst_monitor] [MON][AXI][R] id=0xd beat=8/16 data=0x15038fffeafc7 resp=AXI4_RESP_OKAY last=0
# UVM_INFO ../10_tb/ahb_slv/ahb_slv_driver.sv(87) @ 1365000: uvm_test_top.env.ahb_agent.drv [ahb_slv_driver] [DRV][AHB][REQ] AHB_READ addr=0x15048 trans=AHB_TRANS_SEQ burst=AHB_BURST_INCR16 size=8B
# UVM_INFO ../10_tb/ahb_slv/ahb_slv_driver.sv(201) @ 1375000: uvm_test_top.env.ahb_agent.drv [ahb_slv_driver] [DRV][AHB][RSP] AHB_READ addr=0x15048 data=0x15048fffeafb7 resp=AHB_RESP_OKAY ready_delay=0
# UVM_INFO ../10_tb/ahb_slv/ahb_slv_monitor.sv(119) @ 1375000: uvm_test_top.env.ahb_agent.mon [ahb_slv_monitor] [MON][AHB][TR] AHB AHB_READ addr=0x15048 trans=AHB_TRANS_SEQ burst=AHB_BURST_INCR16 size=8B mastlock=0 resp=AHB_RESP_OKAY waits=0 | data=0x15048fffeafb7
# UVM_INFO ../10_tb/env/scoreboard.sv(469) @ 1375000: uvm_test_top.env.scb [scoreboard] [SCB][AHB][PASS] AHB AHB_READ addr=0x15048 trans=AHB_TRANS_SEQ burst=AHB_BURST_INCR16 size=8B mastlock=0 resp=AHB_RESP_OKAY waits=0 | data=0x15048fffeafb7 | total=50
# UVM_INFO ../10_tb/axi4_mst/axi4_mst_driver.sv(320) @ 1375000: uvm_test_top.env.axi_agent.drv [axi4_mst_driver] [DRV][AXI][R] id=0xd beat=9/16 data=0x15040fffeafbf resp=AXI4_RESP_OKAY last=0
# UVM_INFO ../10_tb/axi4_mst/axi4_mst_monitor.sv(256) @ 1375000: uvm_test_top.env.axi_agent.mon [axi4_mst_monitor] [MON][AXI][R] id=0xd beat=9/16 data=0x15040fffeafbf resp=AXI4_RESP_OKAY last=0
# UVM_INFO ../10_tb/ahb_slv/ahb_slv_driver.sv(87) @ 1385000: uvm_test_top.env.ahb_agent.drv [ahb_slv_driver] [DRV][AHB][REQ] AHB_READ addr=0x15050 trans=AHB_TRANS_SEQ burst=AHB_BURST_INCR16 size=8B
# UVM_INFO ../10_tb/ahb_slv/ahb_slv_driver.sv(201) @ 1395000: uvm_test_top.env.ahb_agent.drv [ahb_slv_driver] [DRV][AHB][RSP] AHB_READ addr=0x15050 data=0x15050fffeafaf resp=AHB_RESP_OKAY ready_delay=0
# UVM_INFO ../10_tb/ahb_slv/ahb_slv_monitor.sv(119) @ 1395000: uvm_test_top.env.ahb_agent.mon [ahb_slv_monitor] [MON][AHB][TR] AHB AHB_READ addr=0x15050 trans=AHB_TRANS_SEQ burst=AHB_BURST_INCR16 size=8B mastlock=0 resp=AHB_RESP_OKAY waits=0 | data=0x15050fffeafaf
# UVM_INFO ../10_tb/env/scoreboard.sv(469) @ 1395000: uvm_test_top.env.scb [scoreboard] [SCB][AHB][PASS] AHB AHB_READ addr=0x15050 trans=AHB_TRANS_SEQ burst=AHB_BURST_INCR16 size=8B mastlock=0 resp=AHB_RESP_OKAY waits=0 | data=0x15050fffeafaf | total=51
# UVM_INFO ../10_tb/axi4_mst/axi4_mst_driver.sv(320) @ 1395000: uvm_test_top.env.axi_agent.drv [axi4_mst_driver] [DRV][AXI][R] id=0xd beat=10/16 data=0x15048fffeafb7 resp=AXI4_RESP_OKAY last=0
# UVM_INFO ../10_tb/axi4_mst/axi4_mst_monitor.sv(256) @ 1395000: uvm_test_top.env.axi_agent.mon [axi4_mst_monitor] [MON][AXI][R] id=0xd beat=10/16 data=0x15048fffeafb7 resp=AXI4_RESP_OKAY last=0
# UVM_INFO ../10_tb/ahb_slv/ahb_slv_driver.sv(87) @ 1405000: uvm_test_top.env.ahb_agent.drv [ahb_slv_driver] [DRV][AHB][REQ] AHB_READ addr=0x15058 trans=AHB_TRANS_SEQ burst=AHB_BURST_INCR16 size=8B
# UVM_INFO ../10_tb/ahb_slv/ahb_slv_driver.sv(201) @ 1415000: uvm_test_top.env.ahb_agent.drv [ahb_slv_driver] [DRV][AHB][RSP] AHB_READ addr=0x15058 data=0x15058fffeafa7 resp=AHB_RESP_OKAY ready_delay=0
# UVM_INFO ../10_tb/ahb_slv/ahb_slv_monitor.sv(119) @ 1415000: uvm_test_top.env.ahb_agent.mon [ahb_slv_monitor] [MON][AHB][TR] AHB AHB_READ addr=0x15058 trans=AHB_TRANS_SEQ burst=AHB_BURST_INCR16 size=8B mastlock=0 resp=AHB_RESP_OKAY waits=0 | data=0x15058fffeafa7
# UVM_INFO ../10_tb/env/scoreboard.sv(469) @ 1415000: uvm_test_top.env.scb [scoreboard] [SCB][AHB][PASS] AHB AHB_READ addr=0x15058 trans=AHB_TRANS_SEQ burst=AHB_BURST_INCR16 size=8B mastlock=0 resp=AHB_RESP_OKAY waits=0 | data=0x15058fffeafa7 | total=52
# UVM_INFO ../10_tb/axi4_mst/axi4_mst_driver.sv(320) @ 1415000: uvm_test_top.env.axi_agent.drv [axi4_mst_driver] [DRV][AXI][R] id=0xd beat=11/16 data=0x15050fffeafaf resp=AXI4_RESP_OKAY last=0
# UVM_INFO ../10_tb/axi4_mst/axi4_mst_monitor.sv(256) @ 1415000: uvm_test_top.env.axi_agent.mon [axi4_mst_monitor] [MON][AXI][R] id=0xd beat=11/16 data=0x15050fffeafaf resp=AXI4_RESP_OKAY last=0
# UVM_INFO ../10_tb/ahb_slv/ahb_slv_driver.sv(87) @ 1425000: uvm_test_top.env.ahb_agent.drv [ahb_slv_driver] [DRV][AHB][REQ] AHB_READ addr=0x15060 trans=AHB_TRANS_SEQ burst=AHB_BURST_INCR16 size=8B
# UVM_INFO ../10_tb/ahb_slv/ahb_slv_driver.sv(201) @ 1435000: uvm_test_top.env.ahb_agent.drv [ahb_slv_driver] [DRV][AHB][RSP] AHB_READ addr=0x15060 data=0x15060fffeaf9f resp=AHB_RESP_OKAY ready_delay=0
# UVM_INFO ../10_tb/ahb_slv/ahb_slv_monitor.sv(119) @ 1435000: uvm_test_top.env.ahb_agent.mon [ahb_slv_monitor] [MON][AHB][TR] AHB AHB_READ addr=0x15060 trans=AHB_TRANS_SEQ burst=AHB_BURST_INCR16 size=8B mastlock=0 resp=AHB_RESP_OKAY waits=0 | data=0x15060fffeaf9f
# UVM_INFO ../10_tb/env/scoreboard.sv(469) @ 1435000: uvm_test_top.env.scb [scoreboard] [SCB][AHB][PASS] AHB AHB_READ addr=0x15060 trans=AHB_TRANS_SEQ burst=AHB_BURST_INCR16 size=8B mastlock=0 resp=AHB_RESP_OKAY waits=0 | data=0x15060fffeaf9f | total=53
# UVM_INFO ../10_tb/axi4_mst/axi4_mst_driver.sv(320) @ 1435000: uvm_test_top.env.axi_agent.drv [axi4_mst_driver] [DRV][AXI][R] id=0xd beat=12/16 data=0x15058fffeafa7 resp=AXI4_RESP_OKAY last=0
# UVM_INFO ../10_tb/axi4_mst/axi4_mst_monitor.sv(256) @ 1435000: uvm_test_top.env.axi_agent.mon [axi4_mst_monitor] [MON][AXI][R] id=0xd beat=12/16 data=0x15058fffeafa7 resp=AXI4_RESP_OKAY last=0
# UVM_INFO ../10_tb/ahb_slv/ahb_slv_driver.sv(87) @ 1445000: uvm_test_top.env.ahb_agent.drv [ahb_slv_driver] [DRV][AHB][REQ] AHB_READ addr=0x15068 trans=AHB_TRANS_SEQ burst=AHB_BURST_INCR16 size=8B
# UVM_INFO ../10_tb/ahb_slv/ahb_slv_driver.sv(201) @ 1455000: uvm_test_top.env.ahb_agent.drv [ahb_slv_driver] [DRV][AHB][RSP] AHB_READ addr=0x15068 data=0x15068fffeaf97 resp=AHB_RESP_OKAY ready_delay=0
# UVM_INFO ../10_tb/ahb_slv/ahb_slv_monitor.sv(119) @ 1455000: uvm_test_top.env.ahb_agent.mon [ahb_slv_monitor] [MON][AHB][TR] AHB AHB_READ addr=0x15068 trans=AHB_TRANS_SEQ burst=AHB_BURST_INCR16 size=8B mastlock=0 resp=AHB_RESP_OKAY waits=0 | data=0x15068fffeaf97
# UVM_INFO ../10_tb/env/scoreboard.sv(469) @ 1455000: uvm_test_top.env.scb [scoreboard] [SCB][AHB][PASS] AHB AHB_READ addr=0x15068 trans=AHB_TRANS_SEQ burst=AHB_BURST_INCR16 size=8B mastlock=0 resp=AHB_RESP_OKAY waits=0 | data=0x15068fffeaf97 | total=54
# UVM_INFO ../10_tb/axi4_mst/axi4_mst_driver.sv(320) @ 1455000: uvm_test_top.env.axi_agent.drv [axi4_mst_driver] [DRV][AXI][R] id=0xd beat=13/16 data=0x15060fffeaf9f resp=AXI4_RESP_OKAY last=0
# UVM_INFO ../10_tb/axi4_mst/axi4_mst_monitor.sv(256) @ 1455000: uvm_test_top.env.axi_agent.mon [axi4_mst_monitor] [MON][AXI][R] id=0xd beat=13/16 data=0x15060fffeaf9f resp=AXI4_RESP_OKAY last=0
# UVM_INFO ../10_tb/ahb_slv/ahb_slv_driver.sv(87) @ 1465000: uvm_test_top.env.ahb_agent.drv [ahb_slv_driver] [DRV][AHB][REQ] AHB_READ addr=0x15070 trans=AHB_TRANS_SEQ burst=AHB_BURST_INCR16 size=8B
# UVM_INFO ../10_tb/ahb_slv/ahb_slv_driver.sv(201) @ 1475000: uvm_test_top.env.ahb_agent.drv [ahb_slv_driver] [DRV][AHB][RSP] AHB_READ addr=0x15070 data=0x15070fffeaf8f resp=AHB_RESP_OKAY ready_delay=0
# UVM_INFO ../10_tb/ahb_slv/ahb_slv_monitor.sv(119) @ 1475000: uvm_test_top.env.ahb_agent.mon [ahb_slv_monitor] [MON][AHB][TR] AHB AHB_READ addr=0x15070 trans=AHB_TRANS_SEQ burst=AHB_BURST_INCR16 size=8B mastlock=0 resp=AHB_RESP_OKAY waits=0 | data=0x15070fffeaf8f
# UVM_INFO ../10_tb/env/scoreboard.sv(469) @ 1475000: uvm_test_top.env.scb [scoreboard] [SCB][AHB][PASS] AHB AHB_READ addr=0x15070 trans=AHB_TRANS_SEQ burst=AHB_BURST_INCR16 size=8B mastlock=0 resp=AHB_RESP_OKAY waits=0 | data=0x15070fffeaf8f | total=55
# UVM_INFO ../10_tb/axi4_mst/axi4_mst_driver.sv(320) @ 1475000: uvm_test_top.env.axi_agent.drv [axi4_mst_driver] [DRV][AXI][R] id=0xd beat=14/16 data=0x15068fffeaf97 resp=AXI4_RESP_OKAY last=0
# UVM_INFO ../10_tb/axi4_mst/axi4_mst_monitor.sv(256) @ 1475000: uvm_test_top.env.axi_agent.mon [axi4_mst_monitor] [MON][AXI][R] id=0xd beat=14/16 data=0x15068fffeaf97 resp=AXI4_RESP_OKAY last=0
# UVM_INFO ../10_tb/ahb_slv/ahb_slv_driver.sv(87) @ 1485000: uvm_test_top.env.ahb_agent.drv [ahb_slv_driver] [DRV][AHB][REQ] AHB_READ addr=0x15078 trans=AHB_TRANS_SEQ burst=AHB_BURST_INCR16 size=8B
# UVM_INFO ../10_tb/ahb_slv/ahb_slv_driver.sv(201) @ 1495000: uvm_test_top.env.ahb_agent.drv [ahb_slv_driver] [DRV][AHB][RSP] AHB_READ addr=0x15078 data=0x15078fffeaf87 resp=AHB_RESP_OKAY ready_delay=0
# UVM_INFO ../10_tb/ahb_slv/ahb_slv_monitor.sv(119) @ 1495000: uvm_test_top.env.ahb_agent.mon [ahb_slv_monitor] [MON][AHB][TR] AHB AHB_READ addr=0x15078 trans=AHB_TRANS_SEQ burst=AHB_BURST_INCR16 size=8B mastlock=0 resp=AHB_RESP_OKAY waits=0 | data=0x15078fffeaf87
# UVM_INFO ../10_tb/env/scoreboard.sv(469) @ 1495000: uvm_test_top.env.scb [scoreboard] [SCB][AHB][PASS] AHB AHB_READ addr=0x15078 trans=AHB_TRANS_SEQ burst=AHB_BURST_INCR16 size=8B mastlock=0 resp=AHB_RESP_OKAY waits=0 | data=0x15078fffeaf87 | total=56
# UVM_INFO ../10_tb/axi4_mst/axi4_mst_driver.sv(320) @ 1495000: uvm_test_top.env.axi_agent.drv [axi4_mst_driver] [DRV][AXI][R] id=0xd beat=15/16 data=0x15070fffeaf8f resp=AXI4_RESP_OKAY last=0
# UVM_INFO ../10_tb/axi4_mst/axi4_mst_monitor.sv(256) @ 1495000: uvm_test_top.env.axi_agent.mon [axi4_mst_monitor] [MON][AXI][R] id=0xd beat=15/16 data=0x15070fffeaf8f resp=AXI4_RESP_OKAY last=0
# UVM_INFO ../10_tb/axi4_mst/axi4_mst_driver.sv(320) @ 1515000: uvm_test_top.env.axi_agent.drv [axi4_mst_driver] [DRV][AXI][R] id=0xd beat=16/16 data=0x15078fffeaf87 resp=AXI4_RESP_OKAY last=1
# UVM_INFO ../10_tb/axi4_mst/axi4_mst_monitor.sv(256) @ 1515000: uvm_test_top.env.axi_agent.mon [axi4_mst_monitor] [MON][AXI][R] id=0xd beat=16/16 data=0x15078fffeaf87 resp=AXI4_RESP_OKAY last=1
# UVM_INFO ../10_tb/axi4_mst/axi4_mst_monitor.sv(262) @ 1515000: uvm_test_top.env.axi_agent.mon [axi4_mst_monitor] [MON][AXI][RSP] READ id=0xd beats=16
# UVM_INFO ../10_tb/env/scoreboard.sv(611) @ 1515000: uvm_test_top.env.scb [scoreboard] [SCB][AXI][PASS] AXI4 AXI4_READ id=0xd addr=0x15000 burst=AXI4_BURST_INCR beats=16 size=8B lock=0 | read beats=16 | total=6
# UVM_INFO ../10_tb/seq/axi4_mst_seq/axi4_mst_1kb_boundary_seq.sv(157) @ 1515000: uvm_test_top.env.axi_agent.sqr@@axi_seq [axi4_mst_1kb_boundary_seq] [6] NO_CROSS_INCR5_WR addr=0x16000 beats=5 page_off=0x0 class=BOUNDARY_NO_CROSS
