# vsim -c -coverage -sv_seed 54682512 "+UVM_TESTNAME=bridge_size_mapping_test" "+UVM_VERBOSITY=UVM_HIGH" -l report/logs/bridge_size_mapping_test_w64_run_1_seed_54682512.log -wlf report/wlf/bridge_size_mapping_test_w64_run_1_seed_54682512.wlf -do "coverage save -onexit report/coverage/bridge_size_mapping_test_w64_run_1_seed_54682512.ucdb; run -all; quit -f" work64.opt_bridge_tb_top_w64 
# Start time: 09:16:42 on Sep 28,2026
# //  Questa Sim-64
# //  Version 10.6b linux_x86_64 May 25 2017
# //
# //  Copyright 1991-2017 Mentor Graphics Corporation
# //  All Rights Reserved.
# //
# //  QuestaSim and its associated documentation contain trade
# //  secrets and commercial or financial information that are the property of
# //  Mentor Graphics Corporation and are privileged, confidential,
# //  and exempt from disclosure under the Freedom of Information Act,
# //  5 U.S.C. Section 552. Furthermore, this information
# //  is prohibited from disclosure under the Trade Secrets Act,
# //  18 U.S.C. Section 1905.
# //
# Loading sv_std.std
# Loading work.axi4_if(fast)
# Loading work.ahb_if(fast)
# Loading mtiUvm.uvm_pkg
# Loading work.bridge_vip_pkg(fast)
# Loading work.bridge_seq_pkg(fast)
# Loading work.bridge_test_pkg(fast)
# Loading work.bridge_tb_top(fast)
# Loading work.axi4_if(fast)
# Loading work.ahb_if(fast)
# Loading work.axi_ahblite_bridge(fast)
# Loading work.ahb_skid_buf(fast)
# Loading work.axi_slv_if(fast)
# Loading work.ahb_mstr_if(fast)
# Loading work.time_out(fast)
# Loading work.axi4_sva(fast)
# Loading work.ahb_sva(fast)
# Loading mtiUvm.questa_uvm_pkg(fast)
# Loading /cadtools/mentor/Questa_10.6b/questasim/uvm-1.1d/linux_x86_64/uvm_dpi.so
# coverage save -onexit report/coverage/bridge_size_mapping_test_w64_run_1_seed_54682512.ucdb
#  run -all
# ----------------------------------------------------------------
# UVM-1.1d
# (C) 2007-2013 Mentor Graphics Corporation
# (C) 2007-2013 Cadence Design Systems, Inc.
# (C) 2006-2013 Synopsys, Inc.
# (C) 2011-2013 Cypress Semiconductor Corp.
# ----------------------------------------------------------------
# 
#   ***********       IMPORTANT RELEASE NOTES         ************
# 
#   You are using a version of the UVM library that has been compiled
#   with `UVM_NO_DEPRECATED undefined.
#   See http://www.eda.org/svdb/view.php?id=3313 for more details.
# 
#   You are using a version of the UVM library that has been compiled
#   with `UVM_OBJECT_MUST_HAVE_CONSTRUCTOR undefined.
#   See http://www.eda.org/svdb/view.php?id=3770 for more details.
# 
#       (Specify +UVM_NO_RELNOTES to turn off this notice)
# 
# UVM_INFO verilog_src/questa_uvm_pkg-1.2/src/questa_uvm_pkg.sv(215) @ 0: reporter [Questa UVM] QUESTA_UVM-1.2.3
# UVM_INFO verilog_src/questa_uvm_pkg-1.2/src/questa_uvm_pkg.sv(217) @ 0: reporter [Questa UVM]  questa_uvm::init(+struct)
# UVM_INFO @ 0: reporter [RNTST] Running test bridge_size_mapping_test...
# UVM_INFO @ 0: reporter [UVMTOP] UVM testbench topology:
# -------------------------------------------------------------------------
# Name                       Type                               Size  Value
# -------------------------------------------------------------------------
# uvm_test_top               bridge_size_mapping_test           -     @490 
#   env                      vip_env                            -     @508 
#     ahb_agent              ahb_slv_agent                      -     @529 
#       ap                   uvm_analysis_port                  -     @667 
#       cov                  ahb_slv_coverage                   -     @693 
#         analysis_imp       uvm_analysis_imp                   -     @700 
#         trans_export       uvm_analysis_imp_ahb_trans         -     @841 
#       drv                  ahb_slv_driver                     -     @818 
#         rsp_port           uvm_analysis_port                  -     @833 
#         seq_item_port      uvm_seq_item_pull_port             -     @825 
#       mon                  ahb_slv_monitor                    -     @686 
#         ap                 uvm_analysis_port                  -     @850 
#         trans_ap           uvm_analysis_port                  -     @858 
#       sqr                  ahb_slv_sequencer                  -     @709 
#         rsp_export         uvm_analysis_export                -     @716 
#         seq_item_export    uvm_seq_item_pull_imp              -     @810 
#         arbitration_queue  array                              0     -    
#         lock_queue         array                              0     -    
#         num_last_reqs      integral                           32    'd1  
#         num_last_rsps      integral                           32    'd1  
#       trans_ap             uvm_analysis_port                  -     @675 
#     axi_agent              axi4_mst_agent                     -     @522 
#       ap                   uvm_analysis_port                  -     @881 
#       cov                  axi4_mst_coverage                  -     @899 
#         analysis_imp       uvm_analysis_imp                   -     @906 
#       drv                  axi4_mst_driver                    -     @1024
#         rsp_port           uvm_analysis_port                  -     @1039
#         seq_item_port      uvm_seq_item_pull_port             -     @1031
#       mon                  axi4_mst_monitor                   -     @892 
#         ap                 uvm_analysis_port                  -     @1056
#         req_ap             uvm_analysis_port                  -     @1048
#       req_ap               uvm_analysis_port                  -     @873 
#       sqr                  axi4_mst_sequencer                 -     @915 
#         rsp_export         uvm_analysis_export                -     @922 
#         seq_item_export    uvm_seq_item_pull_imp              -     @1016
#         arbitration_queue  array                              0     -    
#         lock_queue         array                              0     -    
#         num_last_reqs      integral                           32    'd1  
#         num_last_rsps      integral                           32    'd1  
#     cov                    e2e_cov                            -     @659 
#       actual_ahb_export    uvm_analysis_imp_e2e_actual_ahb    -     @1086
#       axi_req_export       uvm_analysis_imp_e2e_axi_req       -     @1070
#       axi_rsp_export       uvm_analysis_imp_e2e_axi_rsp       -     @1094
#       expected_ahb_export  uvm_analysis_imp_e2e_expected_ahb  -     @1078
#     pred                   predictor                          -     @645 
#       axi_request_export   uvm_analysis_imp_axi_request       -     @1102
#       expected_ahb_ap      uvm_analysis_port                  -     @1110
#       expected_axi_ap      uvm_analysis_port                  -     @1118
#     scb                    scoreboard                         -     @652 
#       actual_ahb_export    uvm_analysis_imp_actual_ahb        -     @1134
#       actual_axi_export    uvm_analysis_imp_actual_axi        -     @1150
#       expected_ahb_export  uvm_analysis_imp_expected_ahb      -     @1126
#       expected_axi_export  uvm_analysis_imp_expected_axi      -     @1142
#     vseqr                  virtual_sequencer                  -     @536 
#       rsp_export           uvm_analysis_export                -     @543 
#       seq_item_export      uvm_seq_item_pull_imp              -     @637 
#       arbitration_queue    array                              0     -    
#       lock_queue           array                              0     -    
#       num_last_reqs        integral                           32    'd1  
#       num_last_rsps        integral                           32    'd1  
# -------------------------------------------------------------------------
# 
# UVM_INFO verilog_src/questa_uvm_pkg-1.2/src/questa_uvm_pkg.sv(277) @ 0: reporter [Questa UVM] End Of Elaboration
# UVM_INFO ../10_tb/bridge_tb_top.sv(47) @ 95000: reporter [BRIDGE_TB_TOP] Power-on reset released
# UVM_INFO ../10_tb/seq/axi4_mst_seq/axi4_mst_size_mapping_seq.sv(71) @ 95000: uvm_test_top.env.axi_agent.sqr@@axi_seq [axi4_mst_size_mapping_seq] Size mapping: 6 cases, narrow=0
# UVM_INFO ../10_tb/seq/axi4_mst_seq/axi4_mst_size_mapping_seq.sv(75) @ 95000: uvm_test_top.env.axi_agent.sqr@@axi_seq [axi4_mst_size_mapping_seq] Narrow size-mapping cases disabled by test configuration
# UVM_INFO ../10_tb/seq/axi4_mst_seq/axi4_mst_size_mapping_seq.sv(168) @ 95000: uvm_test_top.env.axi_agent.sqr@@axi_seq [axi4_mst_size_mapping_seq] [0] SINGLE_FULL_LANE0 addr=0x1000 beats=1 AxSIZE=8B expected HSIZE=8B
# UVM_INFO ../10_tb/axi4_mst/axi4_mst_driver.sv(105) @ 95000: uvm_test_top.env.axi_agent.drv [axi4_mst_driver] [DRV][AXI][REQ] AXI4 AXI4_WRITE id=0x2 addr=0x1000 burst=AXI4_BURST_INCR beats=1 size=8B lock=0 | outstanding=1
# UVM_INFO ../10_tb/axi4_mst/axi4_mst_driver.sv(178) @ 135000: uvm_test_top.env.axi_agent.drv [axi4_mst_driver] [DRV][AXI][AW] id=0x2 addr=0x1000 burst=AXI4_BURST_INCR beats=1 size=8B
# UVM_INFO ../10_tb/axi4_mst/axi4_mst_driver.sv(198) @ 135000: uvm_test_top.env.axi_agent.drv [axi4_mst_driver] [DRV][AXI][W] id=0x2 beat=1/1 data=0x4746454443424140 strb=0xff last=1
# UVM_INFO ../10_tb/axi4_mst/axi4_mst_monitor.sv(151) @ 135000: uvm_test_top.env.axi_agent.mon [axi4_mst_monitor] [MON][AXI][REQ] AXI4 AXI4_WRITE id=0x2 addr=0x1000 burst=AXI4_BURST_INCR beats=1 size=8B lock=0
# UVM_INFO ../10_tb/env/predictor.sv(75) @ 135000: uvm_test_top.env.pred [predictor] [PRED][AXI][IN] AXI4 AXI4_WRITE id=0x2 addr=0x1000 burst=AXI4_BURST_INCR beats=1 size=8B lock=0 | queued=1
# UVM_INFO ../10_tb/env/predictor.sv(138) @ 135000: uvm_test_top.env.pred [predictor] [PRED][MAP] AXI4 AXI4_WRITE id=0x2 addr=0x1000 burst=AXI4_BURST_INCR beats=1 size=8B lock=0 -> AHB burst=AHB_BURST_SINGLE size=8B crosses_1kb=0
# UVM_INFO ../10_tb/env/predictor.sv(169) @ 135000: uvm_test_top.env.pred [predictor] [PRED][AHB] beat=1/1 | AHB AHB_WRITE addr=0x1000 trans=AHB_TRANS_NONSEQ burst=AHB_BURST_SINGLE size=8B mastlock=0 resp=AHB_RESP_OKAY waits=0 | wdata=0x4746454443424140
# UVM_INFO ../10_tb/ahb_slv/ahb_slv_driver.sv(87) @ 145000: uvm_test_top.env.ahb_agent.drv [ahb_slv_driver] [DRV][AHB][REQ] AHB_WRITE addr=0x1000 trans=AHB_TRANS_NONSEQ burst=AHB_BURST_SINGLE size=8B
# UVM_INFO ../10_tb/ahb_slv/ahb_slv_driver.sv(201) @ 155000: uvm_test_top.env.ahb_agent.drv [ahb_slv_driver] [DRV][AHB][RSP] AHB_WRITE addr=0x1000 data=0x4746454443424140 resp=AHB_RESP_OKAY ready_delay=0
# UVM_INFO ../10_tb/ahb_slv/ahb_slv_monitor.sv(119) @ 155000: uvm_test_top.env.ahb_agent.mon [ahb_slv_monitor] [MON][AHB][TR] AHB AHB_WRITE addr=0x1000 trans=AHB_TRANS_NONSEQ burst=AHB_BURST_SINGLE size=8B mastlock=0 resp=AHB_RESP_OKAY waits=0 | data=0x4746454443424140
# UVM_INFO ../10_tb/env/scoreboard.sv(359) @ 155000: uvm_test_top.env.scb [scoreboard] [SCB][AHB][PASS] AHB AHB_WRITE addr=0x1000 trans=AHB_TRANS_NONSEQ burst=AHB_BURST_SINGLE size=8B mastlock=0 resp=AHB_RESP_OKAY waits=0 | data=0x4746454443424140 | total=1
# UVM_INFO ../10_tb/axi4_mst/axi4_mst_driver.sv(250) @ 165000: uvm_test_top.env.axi_agent.drv [axi4_mst_driver] [DRV][AXI][B] id=0x2 resp=AXI4_RESP_OKAY
# UVM_INFO ../10_tb/axi4_mst/axi4_mst_monitor.sv(177) @ 165000: uvm_test_top.env.axi_agent.mon [axi4_mst_monitor] [MON][AXI][RSP] WRITE id=0x2 resp=AXI4_RESP_OKAY
# UVM_INFO ../10_tb/env/scoreboard.sv(499) @ 165000: uvm_test_top.env.scb [scoreboard] [SCB][AXI][PASS] AXI4 AXI4_WRITE id=0x2 addr=0x1000 burst=AXI4_BURST_INCR beats=1 size=8B lock=0 | bresp=AXI4_RESP_OKAY | total=1
# UVM_INFO ../10_tb/axi4_mst/axi4_mst_driver.sv(105) @ 165000: uvm_test_top.env.axi_agent.drv [axi4_mst_driver] [DRV][AXI][REQ] AXI4 AXI4_READ id=0x5 addr=0x1000 burst=AXI4_BURST_INCR beats=1 size=8B lock=0 | outstanding=1
# UVM_INFO ../10_tb/axi4_mst/axi4_mst_driver.sv(225) @ 195000: uvm_test_top.env.axi_agent.drv [axi4_mst_driver] [DRV][AXI][AR] id=0x5 addr=0x1000 burst=AXI4_BURST_INCR beats=1 size=8B
# UVM_INFO ../10_tb/axi4_mst/axi4_mst_monitor.sv(211) @ 195000: uvm_test_top.env.axi_agent.mon [axi4_mst_monitor] [MON][AXI][REQ] AXI4 AXI4_READ id=0x5 addr=0x1000 burst=AXI4_BURST_INCR beats=1 size=8B lock=0
# UVM_INFO ../10_tb/env/predictor.sv(75) @ 195000: uvm_test_top.env.pred [predictor] [PRED][AXI][IN] AXI4 AXI4_READ id=0x5 addr=0x1000 burst=AXI4_BURST_INCR beats=1 size=8B lock=0 | queued=1
# UVM_INFO ../10_tb/env/predictor.sv(138) @ 195000: uvm_test_top.env.pred [predictor] [PRED][MAP] AXI4 AXI4_READ id=0x5 addr=0x1000 burst=AXI4_BURST_INCR beats=1 size=8B lock=0 -> AHB burst=AHB_BURST_SINGLE size=8B crosses_1kb=0
# UVM_INFO ../10_tb/env/predictor.sv(175) @ 195000: uvm_test_top.env.pred [predictor] [PRED][AHB] beat=1/1 | AHB AHB_READ addr=0x1000 trans=AHB_TRANS_NONSEQ burst=AHB_BURST_SINGLE size=8B mastlock=0 resp=AHB_RESP_OKAY waits=0
# UVM_INFO ../10_tb/ahb_slv/ahb_slv_driver.sv(87) @ 205000: uvm_test_top.env.ahb_agent.drv [ahb_slv_driver] [DRV][AHB][REQ] AHB_READ addr=0x1000 trans=AHB_TRANS_NONSEQ burst=AHB_BURST_SINGLE size=8B
# UVM_INFO ../10_tb/ahb_slv/ahb_slv_driver.sv(201) @ 215000: uvm_test_top.env.ahb_agent.drv [ahb_slv_driver] [DRV][AHB][RSP] AHB_READ addr=0x1000 data=0x4746454443424140 resp=AHB_RESP_OKAY ready_delay=0
# UVM_INFO ../10_tb/ahb_slv/ahb_slv_monitor.sv(119) @ 215000: uvm_test_top.env.ahb_agent.mon [ahb_slv_monitor] [MON][AHB][TR] AHB AHB_READ addr=0x1000 trans=AHB_TRANS_NONSEQ burst=AHB_BURST_SINGLE size=8B mastlock=0 resp=AHB_RESP_OKAY waits=0 | data=0x4746454443424140
# UVM_INFO ../10_tb/env/scoreboard.sv(359) @ 215000: uvm_test_top.env.scb [scoreboard] [SCB][AHB][PASS] AHB AHB_READ addr=0x1000 trans=AHB_TRANS_NONSEQ burst=AHB_BURST_SINGLE size=8B mastlock=0 resp=AHB_RESP_OKAY waits=0 | data=0x4746454443424140 | total=2
# UVM_INFO ../10_tb/axi4_mst/axi4_mst_driver.sv(290) @ 235000: uvm_test_top.env.axi_agent.drv [axi4_mst_driver] [DRV][AXI][R] id=0x5 beat=1/1 data=0x4746454443424140 resp=AXI4_RESP_OKAY last=1
# UVM_INFO ../10_tb/axi4_mst/axi4_mst_monitor.sv(256) @ 235000: uvm_test_top.env.axi_agent.mon [axi4_mst_monitor] [MON][AXI][R] id=0x5 beat=1/1 data=0x4746454443424140 resp=AXI4_RESP_OKAY last=1
# UVM_INFO ../10_tb/axi4_mst/axi4_mst_monitor.sv(262) @ 235000: uvm_test_top.env.axi_agent.mon [axi4_mst_monitor] [MON][AXI][RSP] READ id=0x5 beats=1
# UVM_INFO ../10_tb/env/scoreboard.sv(506) @ 235000: uvm_test_top.env.scb [scoreboard] [SCB][AXI][PASS] AXI4 AXI4_READ id=0x5 addr=0x1000 burst=AXI4_BURST_INCR beats=1 size=8B lock=0 | read beats=1 | total=2
# UVM_INFO ../10_tb/seq/axi4_mst_seq/axi4_mst_size_mapping_seq.sv(168) @ 235000: uvm_test_top.env.axi_agent.sqr@@axi_seq [axi4_mst_size_mapping_seq] [1] INCR4_FULL addr=0x1108 beats=4 AxSIZE=8B expected HSIZE=8B
# UVM_INFO ../10_tb/axi4_mst/axi4_mst_driver.sv(105) @ 235000: uvm_test_top.env.axi_agent.drv [axi4_mst_driver] [DRV][AXI][REQ] AXI4 AXI4_WRITE id=0xc addr=0x1108 burst=AXI4_BURST_INCR beats=4 size=8B lock=0 | outstanding=1
# UVM_INFO ../10_tb/axi4_mst/axi4_mst_driver.sv(178) @ 275000: uvm_test_top.env.axi_agent.drv [axi4_mst_driver] [DRV][AXI][AW] id=0xc addr=0x1108 burst=AXI4_BURST_INCR beats=4 size=8B
# UVM_INFO ../10_tb/axi4_mst/axi4_mst_driver.sv(198) @ 275000: uvm_test_top.env.axi_agent.drv [axi4_mst_driver] [DRV][AXI][W] id=0xc beat=1/4 data=0x4f4e4d4c4b4a4948 strb=0xff last=0
# UVM_INFO ../10_tb/ahb_slv/ahb_slv_driver.sv(87) @ 285000: uvm_test_top.env.ahb_agent.drv [ahb_slv_driver] [DRV][AHB][REQ] AHB_WRITE addr=0x1108 trans=AHB_TRANS_NONSEQ burst=AHB_BURST_INCR4 size=8B
# UVM_INFO ../10_tb/ahb_slv/ahb_slv_driver.sv(201) @ 295000: uvm_test_top.env.ahb_agent.drv [ahb_slv_driver] [DRV][AHB][RSP] AHB_WRITE addr=0x1108 data=0x4f4e4d4c4b4a4948 resp=AHB_RESP_OKAY ready_delay=0
# UVM_INFO ../10_tb/ahb_slv/ahb_slv_monitor.sv(119) @ 295000: uvm_test_top.env.ahb_agent.mon [ahb_slv_monitor] [MON][AHB][TR] AHB AHB_WRITE addr=0x1108 trans=AHB_TRANS_NONSEQ burst=AHB_BURST_INCR4 size=8B mastlock=0 resp=AHB_RESP_OKAY waits=0 | data=0x4f4e4d4c4b4a4948
# UVM_INFO ../10_tb/ahb_slv/ahb_slv_driver.sv(87) @ 305000: uvm_test_top.env.ahb_agent.drv [ahb_slv_driver] [DRV][AHB][REQ] AHB_WRITE addr=0x1110 trans=AHB_TRANS_SEQ burst=AHB_BURST_INCR4 size=8B
# UVM_INFO ../10_tb/axi4_mst/axi4_mst_driver.sv(198) @ 305000: uvm_test_top.env.axi_agent.drv [axi4_mst_driver] [DRV][AXI][W] id=0xc beat=2/4 data=0x51504f4e4d4c4b4a strb=0xff last=0
# UVM_INFO ../10_tb/ahb_slv/ahb_slv_driver.sv(201) @ 315000: uvm_test_top.env.ahb_agent.drv [ahb_slv_driver] [DRV][AHB][RSP] AHB_WRITE addr=0x1110 data=0x51504f4e4d4c4b4a resp=AHB_RESP_OKAY ready_delay=0
# UVM_INFO ../10_tb/ahb_slv/ahb_slv_monitor.sv(119) @ 315000: uvm_test_top.env.ahb_agent.mon [ahb_slv_monitor] [MON][AHB][TR] AHB AHB_WRITE addr=0x1110 trans=AHB_TRANS_SEQ burst=AHB_BURST_INCR4 size=8B mastlock=0 resp=AHB_RESP_OKAY waits=0 | data=0x51504f4e4d4c4b4a
# UVM_INFO ../10_tb/ahb_slv/ahb_slv_driver.sv(87) @ 325000: uvm_test_top.env.ahb_agent.drv [ahb_slv_driver] [DRV][AHB][REQ] AHB_WRITE addr=0x1118 trans=AHB_TRANS_SEQ burst=AHB_BURST_INCR4 size=8B
# UVM_INFO ../10_tb/axi4_mst/axi4_mst_driver.sv(198) @ 325000: uvm_test_top.env.axi_agent.drv [axi4_mst_driver] [DRV][AXI][W] id=0xc beat=3/4 data=0x535251504f4e4d4c strb=0xff last=0
# UVM_INFO ../10_tb/ahb_slv/ahb_slv_driver.sv(201) @ 335000: uvm_test_top.env.ahb_agent.drv [ahb_slv_driver] [DRV][AHB][RSP] AHB_WRITE addr=0x1118 data=0x535251504f4e4d4c resp=AHB_RESP_OKAY ready_delay=0
# UVM_INFO ../10_tb/ahb_slv/ahb_slv_monitor.sv(119) @ 335000: uvm_test_top.env.ahb_agent.mon [ahb_slv_monitor] [MON][AHB][TR] AHB AHB_WRITE addr=0x1118 trans=AHB_TRANS_SEQ burst=AHB_BURST_INCR4 size=8B mastlock=0 resp=AHB_RESP_OKAY waits=0 | data=0x535251504f4e4d4c
# UVM_INFO ../10_tb/ahb_slv/ahb_slv_driver.sv(87) @ 345000: uvm_test_top.env.ahb_agent.drv [ahb_slv_driver] [DRV][AHB][REQ] AHB_WRITE addr=0x1120 trans=AHB_TRANS_SEQ burst=AHB_BURST_INCR4 size=8B
# UVM_INFO ../10_tb/axi4_mst/axi4_mst_driver.sv(198) @ 345000: uvm_test_top.env.axi_agent.drv [axi4_mst_driver] [DRV][AXI][W] id=0xc beat=4/4 data=0x5554535251504f4e strb=0xff last=1
# UVM_INFO ../10_tb/axi4_mst/axi4_mst_monitor.sv(151) @ 345000: uvm_test_top.env.axi_agent.mon [axi4_mst_monitor] [MON][AXI][REQ] AXI4 AXI4_WRITE id=0xc addr=0x1108 burst=AXI4_BURST_INCR beats=4 size=8B lock=0
# UVM_INFO ../10_tb/env/predictor.sv(75) @ 345000: uvm_test_top.env.pred [predictor] [PRED][AXI][IN] AXI4 AXI4_WRITE id=0xc addr=0x1108 burst=AXI4_BURST_INCR beats=4 size=8B lock=0 | queued=1
# UVM_INFO ../10_tb/env/predictor.sv(138) @ 345000: uvm_test_top.env.pred [predictor] [PRED][MAP] AXI4 AXI4_WRITE id=0xc addr=0x1108 burst=AXI4_BURST_INCR beats=4 size=8B lock=0 -> AHB burst=AHB_BURST_INCR4 size=8B crosses_1kb=0
# UVM_INFO ../10_tb/env/predictor.sv(169) @ 345000: uvm_test_top.env.pred [predictor] [PRED][AHB] beat=1/4 | AHB AHB_WRITE addr=0x1108 trans=AHB_TRANS_NONSEQ burst=AHB_BURST_INCR4 size=8B mastlock=0 resp=AHB_RESP_OKAY waits=0 | wdata=0x4f4e4d4c4b4a4948
# UVM_INFO ../10_tb/env/scoreboard.sv(359) @ 345000: uvm_test_top.env.scb [scoreboard] [SCB][AHB][PASS] AHB AHB_WRITE addr=0x1108 trans=AHB_TRANS_NONSEQ burst=AHB_BURST_INCR4 size=8B mastlock=0 resp=AHB_RESP_OKAY waits=0 | data=0x4f4e4d4c4b4a4948 | total=3
# UVM_INFO ../10_tb/env/predictor.sv(169) @ 345000: uvm_test_top.env.pred [predictor] [PRED][AHB] beat=2/4 | AHB AHB_WRITE addr=0x1110 trans=AHB_TRANS_SEQ burst=AHB_BURST_INCR4 size=8B mastlock=0 resp=AHB_RESP_OKAY waits=0 | wdata=0x51504f4e4d4c4b4a
# UVM_INFO ../10_tb/env/scoreboard.sv(359) @ 345000: uvm_test_top.env.scb [scoreboard] [SCB][AHB][PASS] AHB AHB_WRITE addr=0x1110 trans=AHB_TRANS_SEQ burst=AHB_BURST_INCR4 size=8B mastlock=0 resp=AHB_RESP_OKAY waits=0 | data=0x51504f4e4d4c4b4a | total=4
# UVM_INFO ../10_tb/env/predictor.sv(169) @ 345000: uvm_test_top.env.pred [predictor] [PRED][AHB] beat=3/4 | AHB AHB_WRITE addr=0x1118 trans=AHB_TRANS_SEQ burst=AHB_BURST_INCR4 size=8B mastlock=0 resp=AHB_RESP_OKAY waits=0 | wdata=0x535251504f4e4d4c
# UVM_INFO ../10_tb/env/scoreboard.sv(359) @ 345000: uvm_test_top.env.scb [scoreboard] [SCB][AHB][PASS] AHB AHB_WRITE addr=0x1118 trans=AHB_TRANS_SEQ burst=AHB_BURST_INCR4 size=8B mastlock=0 resp=AHB_RESP_OKAY waits=0 | data=0x535251504f4e4d4c | total=5
# UVM_INFO ../10_tb/env/predictor.sv(169) @ 345000: uvm_test_top.env.pred [predictor] [PRED][AHB] beat=4/4 | AHB AHB_WRITE addr=0x1120 trans=AHB_TRANS_SEQ burst=AHB_BURST_INCR4 size=8B mastlock=0 resp=AHB_RESP_OKAY waits=0 | wdata=0x5554535251504f4e
# UVM_INFO ../10_tb/ahb_slv/ahb_slv_driver.sv(201) @ 355000: uvm_test_top.env.ahb_agent.drv [ahb_slv_driver] [DRV][AHB][RSP] AHB_WRITE addr=0x1120 data=0x5554535251504f4e resp=AHB_RESP_OKAY ready_delay=0
# UVM_INFO ../10_tb/ahb_slv/ahb_slv_monitor.sv(119) @ 355000: uvm_test_top.env.ahb_agent.mon [ahb_slv_monitor] [MON][AHB][TR] AHB AHB_WRITE addr=0x1120 trans=AHB_TRANS_SEQ burst=AHB_BURST_INCR4 size=8B mastlock=0 resp=AHB_RESP_OKAY waits=0 | data=0x5554535251504f4e
# UVM_INFO ../10_tb/env/scoreboard.sv(359) @ 355000: uvm_test_top.env.scb [scoreboard] [SCB][AHB][PASS] AHB AHB_WRITE addr=0x1120 trans=AHB_TRANS_SEQ burst=AHB_BURST_INCR4 size=8B mastlock=0 resp=AHB_RESP_OKAY waits=0 | data=0x5554535251504f4e | total=6
# UVM_INFO ../10_tb/axi4_mst/axi4_mst_driver.sv(250) @ 365000: uvm_test_top.env.axi_agent.drv [axi4_mst_driver] [DRV][AXI][B] id=0xc resp=AXI4_RESP_OKAY
# UVM_INFO ../10_tb/axi4_mst/axi4_mst_monitor.sv(177) @ 365000: uvm_test_top.env.axi_agent.mon [axi4_mst_monitor] [MON][AXI][RSP] WRITE id=0xc resp=AXI4_RESP_OKAY
# UVM_INFO ../10_tb/env/scoreboard.sv(499) @ 365000: uvm_test_top.env.scb [scoreboard] [SCB][AXI][PASS] AXI4 AXI4_WRITE id=0xc addr=0x1108 burst=AXI4_BURST_INCR beats=4 size=8B lock=0 | bresp=AXI4_RESP_OKAY | total=3
# UVM_INFO ../10_tb/axi4_mst/axi4_mst_driver.sv(105) @ 365000: uvm_test_top.env.axi_agent.drv [axi4_mst_driver] [DRV][AXI][REQ] AXI4 AXI4_READ id=0x4 addr=0x1108 burst=AXI4_BURST_INCR beats=4 size=8B lock=0 | outstanding=1
# UVM_INFO ../10_tb/axi4_mst/axi4_mst_driver.sv(225) @ 395000: uvm_test_top.env.axi_agent.drv [axi4_mst_driver] [DRV][AXI][AR] id=0x4 addr=0x1108 burst=AXI4_BURST_INCR beats=4 size=8B
# UVM_INFO ../10_tb/axi4_mst/axi4_mst_monitor.sv(211) @ 395000: uvm_test_top.env.axi_agent.mon [axi4_mst_monitor] [MON][AXI][REQ] AXI4 AXI4_READ id=0x4 addr=0x1108 burst=AXI4_BURST_INCR beats=4 size=8B lock=0
# UVM_INFO ../10_tb/env/predictor.sv(75) @ 395000: uvm_test_top.env.pred [predictor] [PRED][AXI][IN] AXI4 AXI4_READ id=0x4 addr=0x1108 burst=AXI4_BURST_INCR beats=4 size=8B lock=0 | queued=1
# UVM_INFO ../10_tb/env/predictor.sv(138) @ 395000: uvm_test_top.env.pred [predictor] [PRED][MAP] AXI4 AXI4_READ id=0x4 addr=0x1108 burst=AXI4_BURST_INCR beats=4 size=8B lock=0 -> AHB burst=AHB_BURST_INCR4 size=8B crosses_1kb=0
# UVM_INFO ../10_tb/env/predictor.sv(175) @ 395000: uvm_test_top.env.pred [predictor] [PRED][AHB] beat=1/4 | AHB AHB_READ addr=0x1108 trans=AHB_TRANS_NONSEQ burst=AHB_BURST_INCR4 size=8B mastlock=0 resp=AHB_RESP_OKAY waits=0
# UVM_INFO ../10_tb/env/predictor.sv(175) @ 395000: uvm_test_top.env.pred [predictor] [PRED][AHB] beat=2/4 | AHB AHB_READ addr=0x1110 trans=AHB_TRANS_SEQ burst=AHB_BURST_INCR4 size=8B mastlock=0 resp=AHB_RESP_OKAY waits=0
# UVM_INFO ../10_tb/env/predictor.sv(175) @ 395000: uvm_test_top.env.pred [predictor] [PRED][AHB] beat=3/4 | AHB AHB_READ addr=0x1118 trans=AHB_TRANS_SEQ burst=AHB_BURST_INCR4 size=8B mastlock=0 resp=AHB_RESP_OKAY waits=0
# UVM_INFO ../10_tb/env/predictor.sv(175) @ 395000: uvm_test_top.env.pred [predictor] [PRED][AHB] beat=4/4 | AHB AHB_READ addr=0x1120 trans=AHB_TRANS_SEQ burst=AHB_BURST_INCR4 size=8B mastlock=0 resp=AHB_RESP_OKAY waits=0
# UVM_INFO ../10_tb/ahb_slv/ahb_slv_driver.sv(87) @ 405000: uvm_test_top.env.ahb_agent.drv [ahb_slv_driver] [DRV][AHB][REQ] AHB_READ addr=0x1108 trans=AHB_TRANS_NONSEQ burst=AHB_BURST_INCR4 size=8B
# UVM_INFO ../10_tb/ahb_slv/ahb_slv_driver.sv(201) @ 415000: uvm_test_top.env.ahb_agent.drv [ahb_slv_driver] [DRV][AHB][RSP] AHB_READ addr=0x1108 data=0x4f4e4d4c4b4a4948 resp=AHB_RESP_OKAY ready_delay=0
# UVM_INFO ../10_tb/ahb_slv/ahb_slv_monitor.sv(119) @ 415000: uvm_test_top.env.ahb_agent.mon [ahb_slv_monitor] [MON][AHB][TR] AHB AHB_READ addr=0x1108 trans=AHB_TRANS_NONSEQ burst=AHB_BURST_INCR4 size=8B mastlock=0 resp=AHB_RESP_OKAY waits=0 | data=0x4f4e4d4c4b4a4948
# UVM_INFO ../10_tb/env/scoreboard.sv(359) @ 415000: uvm_test_top.env.scb [scoreboard] [SCB][AHB][PASS] AHB AHB_READ addr=0x1108 trans=AHB_TRANS_NONSEQ burst=AHB_BURST_INCR4 size=8B mastlock=0 resp=AHB_RESP_OKAY waits=0 | data=0x4f4e4d4c4b4a4948 | total=7
# UVM_INFO ../10_tb/ahb_slv/ahb_slv_driver.sv(87) @ 425000: uvm_test_top.env.ahb_agent.drv [ahb_slv_driver] [DRV][AHB][REQ] AHB_READ addr=0x1110 trans=AHB_TRANS_SEQ burst=AHB_BURST_INCR4 size=8B
# UVM_INFO ../10_tb/ahb_slv/ahb_slv_driver.sv(201) @ 435000: uvm_test_top.env.ahb_agent.drv [ahb_slv_driver] [DRV][AHB][RSP] AHB_READ addr=0x1110 data=0x51504f4e4d4c4b4a resp=AHB_RESP_OKAY ready_delay=0
# UVM_INFO ../10_tb/ahb_slv/ahb_slv_monitor.sv(119) @ 435000: uvm_test_top.env.ahb_agent.mon [ahb_slv_monitor] [MON][AHB][TR] AHB AHB_READ addr=0x1110 trans=AHB_TRANS_SEQ burst=AHB_BURST_INCR4 size=8B mastlock=0 resp=AHB_RESP_OKAY waits=0 | data=0x51504f4e4d4c4b4a
# UVM_INFO ../10_tb/env/scoreboard.sv(359) @ 435000: uvm_test_top.env.scb [scoreboard] [SCB][AHB][PASS] AHB AHB_READ addr=0x1110 trans=AHB_TRANS_SEQ burst=AHB_BURST_INCR4 size=8B mastlock=0 resp=AHB_RESP_OKAY waits=0 | data=0x51504f4e4d4c4b4a | total=8
# UVM_INFO ../10_tb/axi4_mst/axi4_mst_driver.sv(290) @ 435000: uvm_test_top.env.axi_agent.drv [axi4_mst_driver] [DRV][AXI][R] id=0x4 beat=1/4 data=0x4f4e4d4c4b4a4948 resp=AXI4_RESP_OKAY last=0
# UVM_INFO ../10_tb/axi4_mst/axi4_mst_monitor.sv(256) @ 435000: uvm_test_top.env.axi_agent.mon [axi4_mst_monitor] [MON][AXI][R] id=0x4 beat=1/4 data=0x4f4e4d4c4b4a4948 resp=AXI4_RESP_OKAY last=0
# UVM_INFO ../10_tb/ahb_slv/ahb_slv_driver.sv(87) @ 445000: uvm_test_top.env.ahb_agent.drv [ahb_slv_driver] [DRV][AHB][REQ] AHB_READ addr=0x1118 trans=AHB_TRANS_SEQ burst=AHB_BURST_INCR4 size=8B
# UVM_INFO ../10_tb/ahb_slv/ahb_slv_driver.sv(201) @ 455000: uvm_test_top.env.ahb_agent.drv [ahb_slv_driver] [DRV][AHB][RSP] AHB_READ addr=0x1118 data=0x535251504f4e4d4c resp=AHB_RESP_OKAY ready_delay=0
# UVM_INFO ../10_tb/ahb_slv/ahb_slv_monitor.sv(119) @ 455000: uvm_test_top.env.ahb_agent.mon [ahb_slv_monitor] [MON][AHB][TR] AHB AHB_READ addr=0x1118 trans=AHB_TRANS_SEQ burst=AHB_BURST_INCR4 size=8B mastlock=0 resp=AHB_RESP_OKAY waits=0 | data=0x535251504f4e4d4c
# UVM_INFO ../10_tb/env/scoreboard.sv(359) @ 455000: uvm_test_top.env.scb [scoreboard] [SCB][AHB][PASS] AHB AHB_READ addr=0x1118 trans=AHB_TRANS_SEQ burst=AHB_BURST_INCR4 size=8B mastlock=0 resp=AHB_RESP_OKAY waits=0 | data=0x535251504f4e4d4c | total=9
# UVM_INFO ../10_tb/axi4_mst/axi4_mst_driver.sv(290) @ 455000: uvm_test_top.env.axi_agent.drv [axi4_mst_driver] [DRV][AXI][R] id=0x4 beat=2/4 data=0x51504f4e4d4c4b4a resp=AXI4_RESP_OKAY last=0
# UVM_INFO ../10_tb/axi4_mst/axi4_mst_monitor.sv(256) @ 455000: uvm_test_top.env.axi_agent.mon [axi4_mst_monitor] [MON][AXI][R] id=0x4 beat=2/4 data=0x51504f4e4d4c4b4a resp=AXI4_RESP_OKAY last=0
# UVM_INFO ../10_tb/ahb_slv/ahb_slv_driver.sv(87) @ 465000: uvm_test_top.env.ahb_agent.drv [ahb_slv_driver] [DRV][AHB][REQ] AHB_READ addr=0x1120 trans=AHB_TRANS_SEQ burst=AHB_BURST_INCR4 size=8B
# UVM_INFO ../10_tb/ahb_slv/ahb_slv_driver.sv(201) @ 475000: uvm_test_top.env.ahb_agent.drv [ahb_slv_driver] [DRV][AHB][RSP] AHB_READ addr=0x1120 data=0x5554535251504f4e resp=AHB_RESP_OKAY ready_delay=0
# UVM_INFO ../10_tb/ahb_slv/ahb_slv_monitor.sv(119) @ 475000: uvm_test_top.env.ahb_agent.mon [ahb_slv_monitor] [MON][AHB][TR] AHB AHB_READ addr=0x1120 trans=AHB_TRANS_SEQ burst=AHB_BURST_INCR4 size=8B mastlock=0 resp=AHB_RESP_OKAY waits=0 | data=0x5554535251504f4e
# UVM_INFO ../10_tb/env/scoreboard.sv(359) @ 475000: uvm_test_top.env.scb [scoreboard] [SCB][AHB][PASS] AHB AHB_READ addr=0x1120 trans=AHB_TRANS_SEQ burst=AHB_BURST_INCR4 size=8B mastlock=0 resp=AHB_RESP_OKAY waits=0 | data=0x5554535251504f4e | total=10
# UVM_INFO ../10_tb/axi4_mst/axi4_mst_driver.sv(290) @ 475000: uvm_test_top.env.axi_agent.drv [axi4_mst_driver] [DRV][AXI][R] id=0x4 beat=3/4 data=0x535251504f4e4d4c resp=AXI4_RESP_OKAY last=0
# UVM_INFO ../10_tb/axi4_mst/axi4_mst_monitor.sv(256) @ 475000: uvm_test_top.env.axi_agent.mon [axi4_mst_monitor] [MON][AXI][R] id=0x4 beat=3/4 data=0x535251504f4e4d4c resp=AXI4_RESP_OKAY last=0
# UVM_INFO ../10_tb/axi4_mst/axi4_mst_driver.sv(290) @ 495000: uvm_test_top.env.axi_agent.drv [axi4_mst_driver] [DRV][AXI][R] id=0x4 beat=4/4 data=0x5554535251504f4e resp=AXI4_RESP_OKAY last=1
# UVM_INFO ../10_tb/axi4_mst/axi4_mst_monitor.sv(256) @ 495000: uvm_test_top.env.axi_agent.mon [axi4_mst_monitor] [MON][AXI][R] id=0x4 beat=4/4 data=0x5554535251504f4e resp=AXI4_RESP_OKAY last=1
# UVM_INFO ../10_tb/axi4_mst/axi4_mst_monitor.sv(262) @ 495000: uvm_test_top.env.axi_agent.mon [axi4_mst_monitor] [MON][AXI][RSP] READ id=0x4 beats=4
# UVM_INFO ../10_tb/env/scoreboard.sv(506) @ 495000: uvm_test_top.env.scb [scoreboard] [SCB][AXI][PASS] AXI4 AXI4_READ id=0x4 addr=0x1108 burst=AXI4_BURST_INCR beats=4 size=8B lock=0 | read beats=4 | total=4
# UVM_INFO ../10_tb/seq/axi4_mst_seq/axi4_mst_size_mapping_seq.sv(168) @ 495000: uvm_test_top.env.axi_agent.sqr@@axi_seq [axi4_mst_size_mapping_seq] [2] INCR5_FULL addr=0x1200 beats=5 AxSIZE=8B expected HSIZE=8B
# UVM_INFO ../10_tb/axi4_mst/axi4_mst_driver.sv(105) @ 495000: uvm_test_top.env.axi_agent.drv [axi4_mst_driver] [DRV][AXI][REQ] AXI4 AXI4_WRITE id=0x3 addr=0x1200 burst=AXI4_BURST_INCR beats=5 size=8B lock=0 | outstanding=1
# UVM_INFO ../10_tb/axi4_mst/axi4_mst_driver.sv(178) @ 535000: uvm_test_top.env.axi_agent.drv [axi4_mst_driver] [DRV][AXI][AW] id=0x3 addr=0x1200 burst=AXI4_BURST_INCR beats=5 size=8B
# UVM_INFO ../10_tb/axi4_mst/axi4_mst_driver.sv(198) @ 535000: uvm_test_top.env.axi_agent.drv [axi4_mst_driver] [DRV][AXI][W] id=0x3 beat=1/5 data=0x5756555453525150 strb=0xff last=0
# UVM_INFO ../10_tb/ahb_slv/ahb_slv_driver.sv(87) @ 545000: uvm_test_top.env.ahb_agent.drv [ahb_slv_driver] [DRV][AHB][REQ] AHB_WRITE addr=0x1200 trans=AHB_TRANS_NONSEQ burst=AHB_BURST_INCR size=8B
# UVM_INFO ../10_tb/ahb_slv/ahb_slv_driver.sv(201) @ 555000: uvm_test_top.env.ahb_agent.drv [ahb_slv_driver] [DRV][AHB][RSP] AHB_WRITE addr=0x1200 data=0x5756555453525150 resp=AHB_RESP_OKAY ready_delay=0
# UVM_INFO ../10_tb/ahb_slv/ahb_slv_monitor.sv(119) @ 555000: uvm_test_top.env.ahb_agent.mon [ahb_slv_monitor] [MON][AHB][TR] AHB AHB_WRITE addr=0x1200 trans=AHB_TRANS_NONSEQ burst=AHB_BURST_INCR size=8B mastlock=0 resp=AHB_RESP_OKAY waits=0 | data=0x5756555453525150
# UVM_INFO ../10_tb/ahb_slv/ahb_slv_driver.sv(87) @ 565000: uvm_test_top.env.ahb_agent.drv [ahb_slv_driver] [DRV][AHB][REQ] AHB_WRITE addr=0x1208 trans=AHB_TRANS_SEQ burst=AHB_BURST_INCR size=8B
# UVM_INFO ../10_tb/axi4_mst/axi4_mst_driver.sv(198) @ 565000: uvm_test_top.env.axi_agent.drv [axi4_mst_driver] [DRV][AXI][W] id=0x3 beat=2/5 data=0x5958575655545352 strb=0xff last=0
# UVM_INFO ../10_tb/ahb_slv/ahb_slv_driver.sv(201) @ 575000: uvm_test_top.env.ahb_agent.drv [ahb_slv_driver] [DRV][AHB][RSP] AHB_WRITE addr=0x1208 data=0x5958575655545352 resp=AHB_RESP_OKAY ready_delay=0
# UVM_INFO ../10_tb/ahb_slv/ahb_slv_monitor.sv(119) @ 575000: uvm_test_top.env.ahb_agent.mon [ahb_slv_monitor] [MON][AHB][TR] AHB AHB_WRITE addr=0x1208 trans=AHB_TRANS_SEQ burst=AHB_BURST_INCR size=8B mastlock=0 resp=AHB_RESP_OKAY waits=0 | data=0x5958575655545352
# UVM_INFO ../10_tb/ahb_slv/ahb_slv_driver.sv(87) @ 585000: uvm_test_top.env.ahb_agent.drv [ahb_slv_driver] [DRV][AHB][REQ] AHB_WRITE addr=0x1210 trans=AHB_TRANS_SEQ burst=AHB_BURST_INCR size=8B
# UVM_INFO ../10_tb/axi4_mst/axi4_mst_driver.sv(198) @ 585000: uvm_test_top.env.axi_agent.drv [axi4_mst_driver] [DRV][AXI][W] id=0x3 beat=3/5 data=0x5b5a595857565554 strb=0xff last=0
# UVM_INFO ../10_tb/ahb_slv/ahb_slv_driver.sv(201) @ 595000: uvm_test_top.env.ahb_agent.drv [ahb_slv_driver] [DRV][AHB][RSP] AHB_WRITE addr=0x1210 data=0x5b5a595857565554 resp=AHB_RESP_OKAY ready_delay=0
# UVM_INFO ../10_tb/ahb_slv/ahb_slv_monitor.sv(119) @ 595000: uvm_test_top.env.ahb_agent.mon [ahb_slv_monitor] [MON][AHB][TR] AHB AHB_WRITE addr=0x1210 trans=AHB_TRANS_SEQ burst=AHB_BURST_INCR size=8B mastlock=0 resp=AHB_RESP_OKAY waits=0 | data=0x5b5a595857565554
# UVM_INFO ../10_tb/ahb_slv/ahb_slv_driver.sv(87) @ 605000: uvm_test_top.env.ahb_agent.drv [ahb_slv_driver] [DRV][AHB][REQ] AHB_WRITE addr=0x1218 trans=AHB_TRANS_SEQ burst=AHB_BURST_INCR size=8B
# UVM_INFO ../10_tb/axi4_mst/axi4_mst_driver.sv(198) @ 605000: uvm_test_top.env.axi_agent.drv [axi4_mst_driver] [DRV][AXI][W] id=0x3 beat=4/5 data=0x5d5c5b5a59585756 strb=0xff last=0
# UVM_INFO ../10_tb/ahb_slv/ahb_slv_driver.sv(201) @ 615000: uvm_test_top.env.ahb_agent.drv [ahb_slv_driver] [DRV][AHB][RSP] AHB_WRITE addr=0x1218 data=0x5d5c5b5a59585756 resp=AHB_RESP_OKAY ready_delay=0
# UVM_INFO ../10_tb/ahb_slv/ahb_slv_monitor.sv(119) @ 615000: uvm_test_top.env.ahb_agent.mon [ahb_slv_monitor] [MON][AHB][TR] AHB AHB_WRITE addr=0x1218 trans=AHB_TRANS_SEQ burst=AHB_BURST_INCR size=8B mastlock=0 resp=AHB_RESP_OKAY waits=0 | data=0x5d5c5b5a59585756
# UVM_INFO ../10_tb/ahb_slv/ahb_slv_driver.sv(87) @ 625000: uvm_test_top.env.ahb_agent.drv [ahb_slv_driver] [DRV][AHB][REQ] AHB_WRITE addr=0x1220 trans=AHB_TRANS_SEQ burst=AHB_BURST_INCR size=8B
# UVM_INFO ../10_tb/axi4_mst/axi4_mst_driver.sv(198) @ 625000: uvm_test_top.env.axi_agent.drv [axi4_mst_driver] [DRV][AXI][W] id=0x3 beat=5/5 data=0x5f5e5d5c5b5a5958 strb=0xff last=1
# UVM_INFO ../10_tb/axi4_mst/axi4_mst_monitor.sv(151) @ 625000: uvm_test_top.env.axi_agent.mon [axi4_mst_monitor] [MON][AXI][REQ] AXI4 AXI4_WRITE id=0x3 addr=0x1200 burst=AXI4_BURST_INCR beats=5 size=8B lock=0
# UVM_INFO ../10_tb/env/predictor.sv(75) @ 625000: uvm_test_top.env.pred [predictor] [PRED][AXI][IN] AXI4 AXI4_WRITE id=0x3 addr=0x1200 burst=AXI4_BURST_INCR beats=5 size=8B lock=0 | queued=1
# UVM_INFO ../10_tb/env/predictor.sv(138) @ 625000: uvm_test_top.env.pred [predictor] [PRED][MAP] AXI4 AXI4_WRITE id=0x3 addr=0x1200 burst=AXI4_BURST_INCR beats=5 size=8B lock=0 -> AHB burst=AHB_BURST_INCR size=8B crosses_1kb=0
# UVM_INFO ../10_tb/env/predictor.sv(169) @ 625000: uvm_test_top.env.pred [predictor] [PRED][AHB] beat=1/5 | AHB AHB_WRITE addr=0x1200 trans=AHB_TRANS_NONSEQ burst=AHB_BURST_INCR size=8B mastlock=0 resp=AHB_RESP_OKAY waits=0 | wdata=0x5756555453525150
# UVM_INFO ../10_tb/env/scoreboard.sv(359) @ 625000: uvm_test_top.env.scb [scoreboard] [SCB][AHB][PASS] AHB AHB_WRITE addr=0x1200 trans=AHB_TRANS_NONSEQ burst=AHB_BURST_INCR size=8B mastlock=0 resp=AHB_RESP_OKAY waits=0 | data=0x5756555453525150 | total=11
# UVM_INFO ../10_tb/env/predictor.sv(169) @ 625000: uvm_test_top.env.pred [predictor] [PRED][AHB] beat=2/5 | AHB AHB_WRITE addr=0x1208 trans=AHB_TRANS_SEQ burst=AHB_BURST_INCR size=8B mastlock=0 resp=AHB_RESP_OKAY waits=0 | wdata=0x5958575655545352
# UVM_INFO ../10_tb/env/scoreboard.sv(359) @ 625000: uvm_test_top.env.scb [scoreboard] [SCB][AHB][PASS] AHB AHB_WRITE addr=0x1208 trans=AHB_TRANS_SEQ burst=AHB_BURST_INCR size=8B mastlock=0 resp=AHB_RESP_OKAY waits=0 | data=0x5958575655545352 | total=12
# UVM_INFO ../10_tb/env/predictor.sv(169) @ 625000: uvm_test_top.env.pred [predictor] [PRED][AHB] beat=3/5 | AHB AHB_WRITE addr=0x1210 trans=AHB_TRANS_SEQ burst=AHB_BURST_INCR size=8B mastlock=0 resp=AHB_RESP_OKAY waits=0 | wdata=0x5b5a595857565554
# UVM_INFO ../10_tb/env/scoreboard.sv(359) @ 625000: uvm_test_top.env.scb [scoreboard] [SCB][AHB][PASS] AHB AHB_WRITE addr=0x1210 trans=AHB_TRANS_SEQ burst=AHB_BURST_INCR size=8B mastlock=0 resp=AHB_RESP_OKAY waits=0 | data=0x5b5a595857565554 | total=13
# UVM_INFO ../10_tb/env/predictor.sv(169) @ 625000: uvm_test_top.env.pred [predictor] [PRED][AHB] beat=4/5 | AHB AHB_WRITE addr=0x1218 trans=AHB_TRANS_SEQ burst=AHB_BURST_INCR size=8B mastlock=0 resp=AHB_RESP_OKAY waits=0 | wdata=0x5d5c5b5a59585756
# UVM_INFO ../10_tb/env/scoreboard.sv(359) @ 625000: uvm_test_top.env.scb [scoreboard] [SCB][AHB][PASS] AHB AHB_WRITE addr=0x1218 trans=AHB_TRANS_SEQ burst=AHB_BURST_INCR size=8B mastlock=0 resp=AHB_RESP_OKAY waits=0 | data=0x5d5c5b5a59585756 | total=14
# UVM_INFO ../10_tb/env/predictor.sv(169) @ 625000: uvm_test_top.env.pred [predictor] [PRED][AHB] beat=5/5 | AHB AHB_WRITE addr=0x1220 trans=AHB_TRANS_SEQ burst=AHB_BURST_INCR size=8B mastlock=0 resp=AHB_RESP_OKAY waits=0 | wdata=0x5f5e5d5c5b5a5958
# UVM_INFO ../10_tb/ahb_slv/ahb_slv_driver.sv(201) @ 635000: uvm_test_top.env.ahb_agent.drv [ahb_slv_driver] [DRV][AHB][RSP] AHB_WRITE addr=0x1220 data=0x5f5e5d5c5b5a5958 resp=AHB_RESP_OKAY ready_delay=0
# UVM_INFO ../10_tb/ahb_slv/ahb_slv_monitor.sv(119) @ 635000: uvm_test_top.env.ahb_agent.mon [ahb_slv_monitor] [MON][AHB][TR] AHB AHB_WRITE addr=0x1220 trans=AHB_TRANS_SEQ burst=AHB_BURST_INCR size=8B mastlock=0 resp=AHB_RESP_OKAY waits=0 | data=0x5f5e5d5c5b5a5958
# UVM_INFO ../10_tb/env/scoreboard.sv(359) @ 635000: uvm_test_top.env.scb [scoreboard] [SCB][AHB][PASS] AHB AHB_WRITE addr=0x1220 trans=AHB_TRANS_SEQ burst=AHB_BURST_INCR size=8B mastlock=0 resp=AHB_RESP_OKAY waits=0 | data=0x5f5e5d5c5b5a5958 | total=15
# UVM_INFO ../10_tb/axi4_mst/axi4_mst_driver.sv(250) @ 645000: uvm_test_top.env.axi_agent.drv [axi4_mst_driver] [DRV][AXI][B] id=0x3 resp=AXI4_RESP_OKAY
# UVM_INFO ../10_tb/axi4_mst/axi4_mst_monitor.sv(177) @ 645000: uvm_test_top.env.axi_agent.mon [axi4_mst_monitor] [MON][AXI][RSP] WRITE id=0x3 resp=AXI4_RESP_OKAY
# UVM_INFO ../10_tb/env/scoreboard.sv(499) @ 645000: uvm_test_top.env.scb [scoreboard] [SCB][AXI][PASS] AXI4 AXI4_WRITE id=0x3 addr=0x1200 burst=AXI4_BURST_INCR beats=5 size=8B lock=0 | bresp=AXI4_RESP_OKAY | total=5
# UVM_INFO ../10_tb/axi4_mst/axi4_mst_driver.sv(105) @ 645000: uvm_test_top.env.axi_agent.drv [axi4_mst_driver] [DRV][AXI][REQ] AXI4 AXI4_READ id=0x0 addr=0x1200 burst=AXI4_BURST_INCR beats=5 size=8B lock=0 | outstanding=1
# UVM_INFO ../10_tb/axi4_mst/axi4_mst_driver.sv(225) @ 675000: uvm_test_top.env.axi_agent.drv [axi4_mst_driver] [DRV][AXI][AR] id=0x0 addr=0x1200 burst=AXI4_BURST_INCR beats=5 size=8B
# UVM_INFO ../10_tb/axi4_mst/axi4_mst_monitor.sv(211) @ 675000: uvm_test_top.env.axi_agent.mon [axi4_mst_monitor] [MON][AXI][REQ] AXI4 AXI4_READ id=0x0 addr=0x1200 burst=AXI4_BURST_INCR beats=5 size=8B lock=0
# UVM_INFO ../10_tb/env/predictor.sv(75) @ 675000: uvm_test_top.env.pred [predictor] [PRED][AXI][IN] AXI4 AXI4_READ id=0x0 addr=0x1200 burst=AXI4_BURST_INCR beats=5 size=8B lock=0 | queued=1
# UVM_INFO ../10_tb/env/predictor.sv(138) @ 675000: uvm_test_top.env.pred [predictor] [PRED][MAP] AXI4 AXI4_READ id=0x0 addr=0x1200 burst=AXI4_BURST_INCR beats=5 size=8B lock=0 -> AHB burst=AHB_BURST_INCR size=8B crosses_1kb=0
# UVM_INFO ../10_tb/env/predictor.sv(175) @ 675000: uvm_test_top.env.pred [predictor] [PRED][AHB] beat=1/5 | AHB AHB_READ addr=0x1200 trans=AHB_TRANS_NONSEQ burst=AHB_BURST_INCR size=8B mastlock=0 resp=AHB_RESP_OKAY waits=0
# UVM_INFO ../10_tb/env/predictor.sv(175) @ 675000: uvm_test_top.env.pred [predictor] [PRED][AHB] beat=2/5 | AHB AHB_READ addr=0x1208 trans=AHB_TRANS_SEQ burst=AHB_BURST_INCR size=8B mastlock=0 resp=AHB_RESP_OKAY waits=0
# UVM_INFO ../10_tb/env/predictor.sv(175) @ 675000: uvm_test_top.env.pred [predictor] [PRED][AHB] beat=3/5 | AHB AHB_READ addr=0x1210 trans=AHB_TRANS_SEQ burst=AHB_BURST_INCR size=8B mastlock=0 resp=AHB_RESP_OKAY waits=0
# UVM_INFO ../10_tb/env/predictor.sv(175) @ 675000: uvm_test_top.env.pred [predictor] [PRED][AHB] beat=4/5 | AHB AHB_READ addr=0x1218 trans=AHB_TRANS_SEQ burst=AHB_BURST_INCR size=8B mastlock=0 resp=AHB_RESP_OKAY waits=0
# UVM_INFO ../10_tb/env/predictor.sv(175) @ 675000: uvm_test_top.env.pred [predictor] [PRED][AHB] beat=5/5 | AHB AHB_READ addr=0x1220 trans=AHB_TRANS_SEQ burst=AHB_BURST_INCR size=8B mastlock=0 resp=AHB_RESP_OKAY waits=0
# UVM_INFO ../10_tb/ahb_slv/ahb_slv_driver.sv(87) @ 685000: uvm_test_top.env.ahb_agent.drv [ahb_slv_driver] [DRV][AHB][REQ] AHB_READ addr=0x1200 trans=AHB_TRANS_NONSEQ burst=AHB_BURST_INCR size=8B
# UVM_INFO ../10_tb/ahb_slv/ahb_slv_driver.sv(201) @ 695000: uvm_test_top.env.ahb_agent.drv [ahb_slv_driver] [DRV][AHB][RSP] AHB_READ addr=0x1200 data=0x5756555453525150 resp=AHB_RESP_OKAY ready_delay=0
# UVM_INFO ../10_tb/ahb_slv/ahb_slv_monitor.sv(119) @ 695000: uvm_test_top.env.ahb_agent.mon [ahb_slv_monitor] [MON][AHB][TR] AHB AHB_READ addr=0x1200 trans=AHB_TRANS_NONSEQ burst=AHB_BURST_INCR size=8B mastlock=0 resp=AHB_RESP_OKAY waits=0 | data=0x5756555453525150
# UVM_INFO ../10_tb/env/scoreboard.sv(359) @ 695000: uvm_test_top.env.scb [scoreboard] [SCB][AHB][PASS] AHB AHB_READ addr=0x1200 trans=AHB_TRANS_NONSEQ burst=AHB_BURST_INCR size=8B mastlock=0 resp=AHB_RESP_OKAY waits=0 | data=0x5756555453525150 | total=16
# UVM_INFO ../10_tb/ahb_slv/ahb_slv_driver.sv(87) @ 705000: uvm_test_top.env.ahb_agent.drv [ahb_slv_driver] [DRV][AHB][REQ] AHB_READ addr=0x1208 trans=AHB_TRANS_SEQ burst=AHB_BURST_INCR size=8B
# UVM_INFO ../10_tb/ahb_slv/ahb_slv_driver.sv(201) @ 715000: uvm_test_top.env.ahb_agent.drv [ahb_slv_driver] [DRV][AHB][RSP] AHB_READ addr=0x1208 data=0x5958575655545352 resp=AHB_RESP_OKAY ready_delay=0
# UVM_INFO ../10_tb/ahb_slv/ahb_slv_monitor.sv(119) @ 715000: uvm_test_top.env.ahb_agent.mon [ahb_slv_monitor] [MON][AHB][TR] AHB AHB_READ addr=0x1208 trans=AHB_TRANS_SEQ burst=AHB_BURST_INCR size=8B mastlock=0 resp=AHB_RESP_OKAY waits=0 | data=0x5958575655545352
# UVM_INFO ../10_tb/env/scoreboard.sv(359) @ 715000: uvm_test_top.env.scb [scoreboard] [SCB][AHB][PASS] AHB AHB_READ addr=0x1208 trans=AHB_TRANS_SEQ burst=AHB_BURST_INCR size=8B mastlock=0 resp=AHB_RESP_OKAY waits=0 | data=0x5958575655545352 | total=17
# UVM_INFO ../10_tb/axi4_mst/axi4_mst_driver.sv(290) @ 715000: uvm_test_top.env.axi_agent.drv [axi4_mst_driver] [DRV][AXI][R] id=0x0 beat=1/5 data=0x5756555453525150 resp=AXI4_RESP_OKAY last=0
# UVM_INFO ../10_tb/axi4_mst/axi4_mst_monitor.sv(256) @ 715000: uvm_test_top.env.axi_agent.mon [axi4_mst_monitor] [MON][AXI][R] id=0x0 beat=1/5 data=0x5756555453525150 resp=AXI4_RESP_OKAY last=0
# UVM_INFO ../10_tb/ahb_slv/ahb_slv_driver.sv(87) @ 725000: uvm_test_top.env.ahb_agent.drv [ahb_slv_driver] [DRV][AHB][REQ] AHB_READ addr=0x1210 trans=AHB_TRANS_SEQ burst=AHB_BURST_INCR size=8B
# UVM_INFO ../10_tb/ahb_slv/ahb_slv_driver.sv(201) @ 735000: uvm_test_top.env.ahb_agent.drv [ahb_slv_driver] [DRV][AHB][RSP] AHB_READ addr=0x1210 data=0x5b5a595857565554 resp=AHB_RESP_OKAY ready_delay=0
# UVM_INFO ../10_tb/ahb_slv/ahb_slv_monitor.sv(119) @ 735000: uvm_test_top.env.ahb_agent.mon [ahb_slv_monitor] [MON][AHB][TR] AHB AHB_READ addr=0x1210 trans=AHB_TRANS_SEQ burst=AHB_BURST_INCR size=8B mastlock=0 resp=AHB_RESP_OKAY waits=0 | data=0x5b5a595857565554
# UVM_INFO ../10_tb/env/scoreboard.sv(359) @ 735000: uvm_test_top.env.scb [scoreboard] [SCB][AHB][PASS] AHB AHB_READ addr=0x1210 trans=AHB_TRANS_SEQ burst=AHB_BURST_INCR size=8B mastlock=0 resp=AHB_RESP_OKAY waits=0 | data=0x5b5a595857565554 | total=18
# UVM_INFO ../10_tb/axi4_mst/axi4_mst_driver.sv(290) @ 735000: uvm_test_top.env.axi_agent.drv [axi4_mst_driver] [DRV][AXI][R] id=0x0 beat=2/5 data=0x5958575655545352 resp=AXI4_RESP_OKAY last=0
# UVM_INFO ../10_tb/axi4_mst/axi4_mst_monitor.sv(256) @ 735000: uvm_test_top.env.axi_agent.mon [axi4_mst_monitor] [MON][AXI][R] id=0x0 beat=2/5 data=0x5958575655545352 resp=AXI4_RESP_OKAY last=0
# UVM_INFO ../10_tb/ahb_slv/ahb_slv_driver.sv(87) @ 745000: uvm_test_top.env.ahb_agent.drv [ahb_slv_driver] [DRV][AHB][REQ] AHB_READ addr=0x1218 trans=AHB_TRANS_SEQ burst=AHB_BURST_INCR size=8B
# UVM_INFO ../10_tb/ahb_slv/ahb_slv_driver.sv(201) @ 755000: uvm_test_top.env.ahb_agent.drv [ahb_slv_driver] [DRV][AHB][RSP] AHB_READ addr=0x1218 data=0x5d5c5b5a59585756 resp=AHB_RESP_OKAY ready_delay=0
# UVM_INFO ../10_tb/ahb_slv/ahb_slv_monitor.sv(119) @ 755000: uvm_test_top.env.ahb_agent.mon [ahb_slv_monitor] [MON][AHB][TR] AHB AHB_READ addr=0x1218 trans=AHB_TRANS_SEQ burst=AHB_BURST_INCR size=8B mastlock=0 resp=AHB_RESP_OKAY waits=0 | data=0x5d5c5b5a59585756
# UVM_INFO ../10_tb/env/scoreboard.sv(359) @ 755000: uvm_test_top.env.scb [scoreboard] [SCB][AHB][PASS] AHB AHB_READ addr=0x1218 trans=AHB_TRANS_SEQ burst=AHB_BURST_INCR size=8B mastlock=0 resp=AHB_RESP_OKAY waits=0 | data=0x5d5c5b5a59585756 | total=19
# UVM_INFO ../10_tb/axi4_mst/axi4_mst_driver.sv(290) @ 755000: uvm_test_top.env.axi_agent.drv [axi4_mst_driver] [DRV][AXI][R] id=0x0 beat=3/5 data=0x5b5a595857565554 resp=AXI4_RESP_OKAY last=0
# UVM_INFO ../10_tb/axi4_mst/axi4_mst_monitor.sv(256) @ 755000: uvm_test_top.env.axi_agent.mon [axi4_mst_monitor] [MON][AXI][R] id=0x0 beat=3/5 data=0x5b5a595857565554 resp=AXI4_RESP_OKAY last=0
# UVM_INFO ../10_tb/ahb_slv/ahb_slv_driver.sv(87) @ 765000: uvm_test_top.env.ahb_agent.drv [ahb_slv_driver] [DRV][AHB][REQ] AHB_READ addr=0x1220 trans=AHB_TRANS_SEQ burst=AHB_BURST_INCR size=8B
# UVM_INFO ../10_tb/ahb_slv/ahb_slv_driver.sv(201) @ 775000: uvm_test_top.env.ahb_agent.drv [ahb_slv_driver] [DRV][AHB][RSP] AHB_READ addr=0x1220 data=0x5f5e5d5c5b5a5958 resp=AHB_RESP_OKAY ready_delay=0
# UVM_INFO ../10_tb/ahb_slv/ahb_slv_monitor.sv(119) @ 775000: uvm_test_top.env.ahb_agent.mon [ahb_slv_monitor] [MON][AHB][TR] AHB AHB_READ addr=0x1220 trans=AHB_TRANS_SEQ burst=AHB_BURST_INCR size=8B mastlock=0 resp=AHB_RESP_OKAY waits=0 | data=0x5f5e5d5c5b5a5958
# UVM_INFO ../10_tb/env/scoreboard.sv(359) @ 775000: uvm_test_top.env.scb [scoreboard] [SCB][AHB][PASS] AHB AHB_READ addr=0x1220 trans=AHB_TRANS_SEQ burst=AHB_BURST_INCR size=8B mastlock=0 resp=AHB_RESP_OKAY waits=0 | data=0x5f5e5d5c5b5a5958 | total=20
# UVM_INFO ../10_tb/axi4_mst/axi4_mst_driver.sv(290) @ 775000: uvm_test_top.env.axi_agent.drv [axi4_mst_driver] [DRV][AXI][R] id=0x0 beat=4/5 data=0x5d5c5b5a59585756 resp=AXI4_RESP_OKAY last=0
# UVM_INFO ../10_tb/axi4_mst/axi4_mst_monitor.sv(256) @ 775000: uvm_test_top.env.axi_agent.mon [axi4_mst_monitor] [MON][AXI][R] id=0x0 beat=4/5 data=0x5d5c5b5a59585756 resp=AXI4_RESP_OKAY last=0
# UVM_INFO ../10_tb/axi4_mst/axi4_mst_driver.sv(290) @ 795000: uvm_test_top.env.axi_agent.drv [axi4_mst_driver] [DRV][AXI][R] id=0x0 beat=5/5 data=0x5f5e5d5c5b5a5958 resp=AXI4_RESP_OKAY last=1
# UVM_INFO ../10_tb/axi4_mst/axi4_mst_monitor.sv(256) @ 795000: uvm_test_top.env.axi_agent.mon [axi4_mst_monitor] [MON][AXI][R] id=0x0 beat=5/5 data=0x5f5e5d5c5b5a5958 resp=AXI4_RESP_OKAY last=1
# UVM_INFO ../10_tb/axi4_mst/axi4_mst_monitor.sv(262) @ 795000: uvm_test_top.env.axi_agent.mon [axi4_mst_monitor] [MON][AXI][RSP] READ id=0x0 beats=5
# UVM_INFO ../10_tb/env/scoreboard.sv(506) @ 795000: uvm_test_top.env.scb [scoreboard] [SCB][AXI][PASS] AXI4 AXI4_READ id=0x0 addr=0x1200 burst=AXI4_BURST_INCR beats=5 size=8B lock=0 | read beats=5 | total=6
# UVM_INFO ../10_tb/seq/axi4_mst_seq/axi4_mst_size_mapping_seq.sv(168) @ 795000: uvm_test_top.env.axi_agent.sqr@@axi_seq [axi4_mst_size_mapping_seq] [3] FIXED3_FULL addr=0x1300 beats=3 AxSIZE=8B expected HSIZE=8B
# UVM_INFO ../10_tb/axi4_mst/axi4_mst_driver.sv(105) @ 795000: uvm_test_top.env.axi_agent.drv [axi4_mst_driver] [DRV][AXI][REQ] AXI4 AXI4_WRITE id=0x2 addr=0x1300 burst=AXI4_BURST_FIXED beats=3 size=8B lock=0 | outstanding=1
# UVM_INFO ../10_tb/axi4_mst/axi4_mst_driver.sv(178) @ 835000: uvm_test_top.env.axi_agent.drv [axi4_mst_driver] [DRV][AXI][AW] id=0x2 addr=0x1300 burst=AXI4_BURST_FIXED beats=3 size=8B
# UVM_INFO ../10_tb/axi4_mst/axi4_mst_driver.sv(198) @ 835000: uvm_test_top.env.axi_agent.drv [axi4_mst_driver] [DRV][AXI][W] id=0x2 beat=1/3 data=0x5f5e5d5c5b5a5958 strb=0xff last=0
# UVM_INFO ../10_tb/ahb_slv/ahb_slv_driver.sv(87) @ 845000: uvm_test_top.env.ahb_agent.drv [ahb_slv_driver] [DRV][AHB][REQ] AHB_WRITE addr=0x1300 trans=AHB_TRANS_NONSEQ burst=AHB_BURST_SINGLE size=8B
# UVM_INFO ../10_tb/ahb_slv/ahb_slv_driver.sv(201) @ 855000: uvm_test_top.env.ahb_agent.drv [ahb_slv_driver] [DRV][AHB][RSP] AHB_WRITE addr=0x1300 data=0x5f5e5d5c5b5a5958 resp=AHB_RESP_OKAY ready_delay=0
# UVM_INFO ../10_tb/ahb_slv/ahb_slv_monitor.sv(119) @ 855000: uvm_test_top.env.ahb_agent.mon [ahb_slv_monitor] [MON][AHB][TR] AHB AHB_WRITE addr=0x1300 trans=AHB_TRANS_NONSEQ burst=AHB_BURST_SINGLE size=8B mastlock=0 resp=AHB_RESP_OKAY waits=0 | data=0x5f5e5d5c5b5a5958
# UVM_INFO ../10_tb/ahb_slv/ahb_slv_driver.sv(87) @ 865000: uvm_test_top.env.ahb_agent.drv [ahb_slv_driver] [DRV][AHB][REQ] AHB_WRITE addr=0x1300 trans=AHB_TRANS_NONSEQ burst=AHB_BURST_SINGLE size=8B
# UVM_INFO ../10_tb/axi4_mst/axi4_mst_driver.sv(198) @ 865000: uvm_test_top.env.axi_agent.drv [axi4_mst_driver] [DRV][AXI][W] id=0x2 beat=2/3 data=0x61605f5e5d5c5b5a strb=0xff last=0
# UVM_INFO ../10_tb/ahb_slv/ahb_slv_driver.sv(201) @ 875000: uvm_test_top.env.ahb_agent.drv [ahb_slv_driver] [DRV][AHB][RSP] AHB_WRITE addr=0x1300 data=0x61605f5e5d5c5b5a resp=AHB_RESP_OKAY ready_delay=0
# UVM_INFO ../10_tb/ahb_slv/ahb_slv_monitor.sv(119) @ 875000: uvm_test_top.env.ahb_agent.mon [ahb_slv_monitor] [MON][AHB][TR] AHB AHB_WRITE addr=0x1300 trans=AHB_TRANS_NONSEQ burst=AHB_BURST_SINGLE size=8B mastlock=0 resp=AHB_RESP_OKAY waits=0 | data=0x61605f5e5d5c5b5a
# UVM_INFO ../10_tb/ahb_slv/ahb_slv_driver.sv(87) @ 885000: uvm_test_top.env.ahb_agent.drv [ahb_slv_driver] [DRV][AHB][REQ] AHB_WRITE addr=0x1300 trans=AHB_TRANS_NONSEQ burst=AHB_BURST_SINGLE size=8B
# UVM_INFO ../10_tb/axi4_mst/axi4_mst_driver.sv(198) @ 885000: uvm_test_top.env.axi_agent.drv [axi4_mst_driver] [DRV][AXI][W] id=0x2 beat=3/3 data=0x636261605f5e5d5c strb=0xff last=1
# UVM_INFO ../10_tb/axi4_mst/axi4_mst_monitor.sv(151) @ 885000: uvm_test_top.env.axi_agent.mon [axi4_mst_monitor] [MON][AXI][REQ] AXI4 AXI4_WRITE id=0x2 addr=0x1300 burst=AXI4_BURST_FIXED beats=3 size=8B lock=0
# UVM_INFO ../10_tb/env/predictor.sv(75) @ 885000: uvm_test_top.env.pred [predictor] [PRED][AXI][IN] AXI4 AXI4_WRITE id=0x2 addr=0x1300 burst=AXI4_BURST_FIXED beats=3 size=8B lock=0 | queued=1
# UVM_INFO ../10_tb/env/predictor.sv(138) @ 885000: uvm_test_top.env.pred [predictor] [PRED][MAP] AXI4 AXI4_WRITE id=0x2 addr=0x1300 burst=AXI4_BURST_FIXED beats=3 size=8B lock=0 -> AHB burst=AHB_BURST_SINGLE size=8B crosses_1kb=0
# UVM_INFO ../10_tb/env/predictor.sv(169) @ 885000: uvm_test_top.env.pred [predictor] [PRED][AHB] beat=1/3 | AHB AHB_WRITE addr=0x1300 trans=AHB_TRANS_NONSEQ burst=AHB_BURST_SINGLE size=8B mastlock=0 resp=AHB_RESP_OKAY waits=0 | wdata=0x5f5e5d5c5b5a5958
# UVM_INFO ../10_tb/env/scoreboard.sv(359) @ 885000: uvm_test_top.env.scb [scoreboard] [SCB][AHB][PASS] AHB AHB_WRITE addr=0x1300 trans=AHB_TRANS_NONSEQ burst=AHB_BURST_SINGLE size=8B mastlock=0 resp=AHB_RESP_OKAY waits=0 | data=0x5f5e5d5c5b5a5958 | total=21
# UVM_INFO ../10_tb/env/predictor.sv(169) @ 885000: uvm_test_top.env.pred [predictor] [PRED][AHB] beat=2/3 | AHB AHB_WRITE addr=0x1300 trans=AHB_TRANS_NONSEQ burst=AHB_BURST_SINGLE size=8B mastlock=0 resp=AHB_RESP_OKAY waits=0 | wdata=0x61605f5e5d5c5b5a
# UVM_INFO ../10_tb/env/scoreboard.sv(359) @ 885000: uvm_test_top.env.scb [scoreboard] [SCB][AHB][PASS] AHB AHB_WRITE addr=0x1300 trans=AHB_TRANS_NONSEQ burst=AHB_BURST_SINGLE size=8B mastlock=0 resp=AHB_RESP_OKAY waits=0 | data=0x61605f5e5d5c5b5a | total=22
# UVM_INFO ../10_tb/env/predictor.sv(169) @ 885000: uvm_test_top.env.pred [predictor] [PRED][AHB] beat=3/3 | AHB AHB_WRITE addr=0x1300 trans=AHB_TRANS_NONSEQ burst=AHB_BURST_SINGLE size=8B mastlock=0 resp=AHB_RESP_OKAY waits=0 | wdata=0x636261605f5e5d5c
# UVM_INFO ../10_tb/ahb_slv/ahb_slv_driver.sv(201) @ 895000: uvm_test_top.env.ahb_agent.drv [ahb_slv_driver] [DRV][AHB][RSP] AHB_WRITE addr=0x1300 data=0x636261605f5e5d5c resp=AHB_RESP_OKAY ready_delay=0
# UVM_INFO ../10_tb/ahb_slv/ahb_slv_monitor.sv(119) @ 895000: uvm_test_top.env.ahb_agent.mon [ahb_slv_monitor] [MON][AHB][TR] AHB AHB_WRITE addr=0x1300 trans=AHB_TRANS_NONSEQ burst=AHB_BURST_SINGLE size=8B mastlock=0 resp=AHB_RESP_OKAY waits=0 | data=0x636261605f5e5d5c
# UVM_INFO ../10_tb/env/scoreboard.sv(359) @ 895000: uvm_test_top.env.scb [scoreboard] [SCB][AHB][PASS] AHB AHB_WRITE addr=0x1300 trans=AHB_TRANS_NONSEQ burst=AHB_BURST_SINGLE size=8B mastlock=0 resp=AHB_RESP_OKAY waits=0 | data=0x636261605f5e5d5c | total=23
# UVM_INFO ../10_tb/axi4_mst/axi4_mst_driver.sv(250) @ 905000: uvm_test_top.env.axi_agent.drv [axi4_mst_driver] [DRV][AXI][B] id=0x2 resp=AXI4_RESP_OKAY
# UVM_INFO ../10_tb/axi4_mst/axi4_mst_monitor.sv(177) @ 905000: uvm_test_top.env.axi_agent.mon [axi4_mst_monitor] [MON][AXI][RSP] WRITE id=0x2 resp=AXI4_RESP_OKAY
# UVM_INFO ../10_tb/env/scoreboard.sv(499) @ 905000: uvm_test_top.env.scb [scoreboard] [SCB][AXI][PASS] AXI4 AXI4_WRITE id=0x2 addr=0x1300 burst=AXI4_BURST_FIXED beats=3 size=8B lock=0 | bresp=AXI4_RESP_OKAY | total=7
# UVM_INFO ../10_tb/axi4_mst/axi4_mst_driver.sv(105) @ 905000: uvm_test_top.env.axi_agent.drv [axi4_mst_driver] [DRV][AXI][REQ] AXI4 AXI4_READ id=0xf addr=0x1300 burst=AXI4_BURST_FIXED beats=3 size=8B lock=0 | outstanding=1
# UVM_INFO ../10_tb/axi4_mst/axi4_mst_driver.sv(225) @ 935000: uvm_test_top.env.axi_agent.drv [axi4_mst_driver] [DRV][AXI][AR] id=0xf addr=0x1300 burst=AXI4_BURST_FIXED beats=3 size=8B
# UVM_INFO ../10_tb/axi4_mst/axi4_mst_monitor.sv(211) @ 935000: uvm_test_top.env.axi_agent.mon [axi4_mst_monitor] [MON][AXI][REQ] AXI4 AXI4_READ id=0xf addr=0x1300 burst=AXI4_BURST_FIXED beats=3 size=8B lock=0
# UVM_INFO ../10_tb/env/predictor.sv(75) @ 935000: uvm_test_top.env.pred [predictor] [PRED][AXI][IN] AXI4 AXI4_READ id=0xf addr=0x1300 burst=AXI4_BURST_FIXED beats=3 size=8B lock=0 | queued=1
# UVM_INFO ../10_tb/env/predictor.sv(138) @ 935000: uvm_test_top.env.pred [predictor] [PRED][MAP] AXI4 AXI4_READ id=0xf addr=0x1300 burst=AXI4_BURST_FIXED beats=3 size=8B lock=0 -> AHB burst=AHB_BURST_SINGLE size=8B crosses_1kb=0
# UVM_INFO ../10_tb/env/predictor.sv(175) @ 935000: uvm_test_top.env.pred [predictor] [PRED][AHB] beat=1/3 | AHB AHB_READ addr=0x1300 trans=AHB_TRANS_NONSEQ burst=AHB_BURST_SINGLE size=8B mastlock=0 resp=AHB_RESP_OKAY waits=0
# UVM_INFO ../10_tb/env/predictor.sv(175) @ 935000: uvm_test_top.env.pred [predictor] [PRED][AHB] beat=2/3 | AHB AHB_READ addr=0x1300 trans=AHB_TRANS_NONSEQ burst=AHB_BURST_SINGLE size=8B mastlock=0 resp=AHB_RESP_OKAY waits=0
# UVM_INFO ../10_tb/env/predictor.sv(175) @ 935000: uvm_test_top.env.pred [predictor] [PRED][AHB] beat=3/3 | AHB AHB_READ addr=0x1300 trans=AHB_TRANS_NONSEQ burst=AHB_BURST_SINGLE size=8B mastlock=0 resp=AHB_RESP_OKAY waits=0
# UVM_INFO ../10_tb/ahb_slv/ahb_slv_driver.sv(87) @ 945000: uvm_test_top.env.ahb_agent.drv [ahb_slv_driver] [DRV][AHB][REQ] AHB_READ addr=0x1300 trans=AHB_TRANS_NONSEQ burst=AHB_BURST_SINGLE size=8B
# UVM_INFO ../10_tb/ahb_slv/ahb_slv_driver.sv(201) @ 955000: uvm_test_top.env.ahb_agent.drv [ahb_slv_driver] [DRV][AHB][RSP] AHB_READ addr=0x1300 data=0x636261605f5e5d5c resp=AHB_RESP_OKAY ready_delay=0
# UVM_INFO ../10_tb/ahb_slv/ahb_slv_monitor.sv(119) @ 955000: uvm_test_top.env.ahb_agent.mon [ahb_slv_monitor] [MON][AHB][TR] AHB AHB_READ addr=0x1300 trans=AHB_TRANS_NONSEQ burst=AHB_BURST_SINGLE size=8B mastlock=0 resp=AHB_RESP_OKAY waits=0 | data=0x636261605f5e5d5c
# UVM_INFO ../10_tb/env/scoreboard.sv(359) @ 955000: uvm_test_top.env.scb [scoreboard] [SCB][AHB][PASS] AHB AHB_READ addr=0x1300 trans=AHB_TRANS_NONSEQ burst=AHB_BURST_SINGLE size=8B mastlock=0 resp=AHB_RESP_OKAY waits=0 | data=0x636261605f5e5d5c | total=24
# UVM_INFO ../10_tb/ahb_slv/ahb_slv_driver.sv(87) @ 965000: uvm_test_top.env.ahb_agent.drv [ahb_slv_driver] [DRV][AHB][REQ] AHB_READ addr=0x1300 trans=AHB_TRANS_NONSEQ burst=AHB_BURST_SINGLE size=8B
# UVM_INFO ../10_tb/ahb_slv/ahb_slv_driver.sv(201) @ 975000: uvm_test_top.env.ahb_agent.drv [ahb_slv_driver] [DRV][AHB][RSP] AHB_READ addr=0x1300 data=0x636261605f5e5d5c resp=AHB_RESP_OKAY ready_delay=0
# UVM_INFO ../10_tb/ahb_slv/ahb_slv_monitor.sv(119) @ 975000: uvm_test_top.env.ahb_agent.mon [ahb_slv_monitor] [MON][AHB][TR] AHB AHB_READ addr=0x1300 trans=AHB_TRANS_NONSEQ burst=AHB_BURST_SINGLE size=8B mastlock=0 resp=AHB_RESP_OKAY waits=0 | data=0x636261605f5e5d5c
# UVM_INFO ../10_tb/env/scoreboard.sv(359) @ 975000: uvm_test_top.env.scb [scoreboard] [SCB][AHB][PASS] AHB AHB_READ addr=0x1300 trans=AHB_TRANS_NONSEQ burst=AHB_BURST_SINGLE size=8B mastlock=0 resp=AHB_RESP_OKAY waits=0 | data=0x636261605f5e5d5c | total=25
# UVM_INFO ../10_tb/axi4_mst/axi4_mst_driver.sv(290) @ 975000: uvm_test_top.env.axi_agent.drv [axi4_mst_driver] [DRV][AXI][R] id=0xf beat=1/3 data=0x636261605f5e5d5c resp=AXI4_RESP_OKAY last=0
# UVM_INFO ../10_tb/axi4_mst/axi4_mst_monitor.sv(256) @ 975000: uvm_test_top.env.axi_agent.mon [axi4_mst_monitor] [MON][AXI][R] id=0xf beat=1/3 data=0x636261605f5e5d5c resp=AXI4_RESP_OKAY last=0
# UVM_INFO ../10_tb/ahb_slv/ahb_slv_driver.sv(87) @ 985000: uvm_test_top.env.ahb_agent.drv [ahb_slv_driver] [DRV][AHB][REQ] AHB_READ addr=0x1300 trans=AHB_TRANS_NONSEQ burst=AHB_BURST_SINGLE size=8B
# UVM_INFO ../10_tb/ahb_slv/ahb_slv_driver.sv(201) @ 995000: uvm_test_top.env.ahb_agent.drv [ahb_slv_driver] [DRV][AHB][RSP] AHB_READ addr=0x1300 data=0x636261605f5e5d5c resp=AHB_RESP_OKAY ready_delay=0
# UVM_INFO ../10_tb/ahb_slv/ahb_slv_monitor.sv(119) @ 995000: uvm_test_top.env.ahb_agent.mon [ahb_slv_monitor] [MON][AHB][TR] AHB AHB_READ addr=0x1300 trans=AHB_TRANS_NONSEQ burst=AHB_BURST_SINGLE size=8B mastlock=0 resp=AHB_RESP_OKAY waits=0 | data=0x636261605f5e5d5c
# UVM_INFO ../10_tb/env/scoreboard.sv(359) @ 995000: uvm_test_top.env.scb [scoreboard] [SCB][AHB][PASS] AHB AHB_READ addr=0x1300 trans=AHB_TRANS_NONSEQ burst=AHB_BURST_SINGLE size=8B mastlock=0 resp=AHB_RESP_OKAY waits=0 | data=0x636261605f5e5d5c | total=26
# UVM_INFO ../10_tb/axi4_mst/axi4_mst_driver.sv(290) @ 995000: uvm_test_top.env.axi_agent.drv [axi4_mst_driver] [DRV][AXI][R] id=0xf beat=2/3 data=0x636261605f5e5d5c resp=AXI4_RESP_OKAY last=0
# UVM_INFO ../10_tb/axi4_mst/axi4_mst_monitor.sv(256) @ 995000: uvm_test_top.env.axi_agent.mon [axi4_mst_monitor] [MON][AXI][R] id=0xf beat=2/3 data=0x636261605f5e5d5c resp=AXI4_RESP_OKAY last=0
# UVM_INFO ../10_tb/axi4_mst/axi4_mst_driver.sv(290) @ 1015000: uvm_test_top.env.axi_agent.drv [axi4_mst_driver] [DRV][AXI][R] id=0xf beat=3/3 data=0x636261605f5e5d5c resp=AXI4_RESP_OKAY last=1
# UVM_INFO ../10_tb/axi4_mst/axi4_mst_monitor.sv(256) @ 1015000: uvm_test_top.env.axi_agent.mon [axi4_mst_monitor] [MON][AXI][R] id=0xf beat=3/3 data=0x636261605f5e5d5c resp=AXI4_RESP_OKAY last=1
# UVM_INFO ../10_tb/axi4_mst/axi4_mst_monitor.sv(262) @ 1015000: uvm_test_top.env.axi_agent.mon [axi4_mst_monitor] [MON][AXI][RSP] READ id=0xf beats=3
# UVM_INFO ../10_tb/env/scoreboard.sv(506) @ 1015000: uvm_test_top.env.scb [scoreboard] [SCB][AXI][PASS] AXI4 AXI4_READ id=0xf addr=0x1300 burst=AXI4_BURST_FIXED beats=3 size=8B lock=0 | read beats=3 | total=8
# UVM_INFO ../10_tb/seq/axi4_mst_seq/axi4_mst_size_mapping_seq.sv(168) @ 1015000: uvm_test_top.env.axi_agent.sqr@@axi_seq [axi4_mst_size_mapping_seq] [4] WRAP2_FULL addr=0x1408 beats=2 AxSIZE=8B expected HSIZE=8B
# UVM_INFO ../10_tb/axi4_mst/axi4_mst_driver.sv(105) @ 1015000: uvm_test_top.env.axi_agent.drv [axi4_mst_driver] [DRV][AXI][REQ] AXI4 AXI4_WRITE id=0x7 addr=0x1408 burst=AXI4_BURST_WRAP beats=2 size=8B lock=0 | outstanding=1
# UVM_INFO ../10_tb/axi4_mst/axi4_mst_driver.sv(178) @ 1055000: uvm_test_top.env.axi_agent.drv [axi4_mst_driver] [DRV][AXI][AW] id=0x7 addr=0x1408 burst=AXI4_BURST_WRAP beats=2 size=8B
# UVM_INFO ../10_tb/axi4_mst/axi4_mst_driver.sv(198) @ 1055000: uvm_test_top.env.axi_agent.drv [axi4_mst_driver] [DRV][AXI][W] id=0x7 beat=1/2 data=0x6766656463626160 strb=0xff last=0
# UVM_INFO ../10_tb/ahb_slv/ahb_slv_driver.sv(87) @ 1065000: uvm_test_top.env.ahb_agent.drv [ahb_slv_driver] [DRV][AHB][REQ] AHB_WRITE addr=0x1408 trans=AHB_TRANS_NONSEQ burst=AHB_BURST_SINGLE size=8B
# UVM_INFO ../10_tb/ahb_slv/ahb_slv_driver.sv(201) @ 1075000: uvm_test_top.env.ahb_agent.drv [ahb_slv_driver] [DRV][AHB][RSP] AHB_WRITE addr=0x1408 data=0x6766656463626160 resp=AHB_RESP_OKAY ready_delay=0
# UVM_INFO ../10_tb/ahb_slv/ahb_slv_monitor.sv(119) @ 1075000: uvm_test_top.env.ahb_agent.mon [ahb_slv_monitor] [MON][AHB][TR] AHB AHB_WRITE addr=0x1408 trans=AHB_TRANS_NONSEQ burst=AHB_BURST_SINGLE size=8B mastlock=0 resp=AHB_RESP_OKAY waits=0 | data=0x6766656463626160
# UVM_INFO ../10_tb/ahb_slv/ahb_slv_driver.sv(87) @ 1085000: uvm_test_top.env.ahb_agent.drv [ahb_slv_driver] [DRV][AHB][REQ] AHB_WRITE addr=0x1400 trans=AHB_TRANS_NONSEQ burst=AHB_BURST_SINGLE size=8B
# UVM_INFO ../10_tb/axi4_mst/axi4_mst_driver.sv(198) @ 1085000: uvm_test_top.env.axi_agent.drv [axi4_mst_driver] [DRV][AXI][W] id=0x7 beat=2/2 data=0x6968676665646362 strb=0xff last=1
# UVM_INFO ../10_tb/axi4_mst/axi4_mst_monitor.sv(151) @ 1085000: uvm_test_top.env.axi_agent.mon [axi4_mst_monitor] [MON][AXI][REQ] AXI4 AXI4_WRITE id=0x7 addr=0x1408 burst=AXI4_BURST_WRAP beats=2 size=8B lock=0
# UVM_INFO ../10_tb/env/predictor.sv(75) @ 1085000: uvm_test_top.env.pred [predictor] [PRED][AXI][IN] AXI4 AXI4_WRITE id=0x7 addr=0x1408 burst=AXI4_BURST_WRAP beats=2 size=8B lock=0 | queued=1
# UVM_INFO ../10_tb/env/predictor.sv(138) @ 1085000: uvm_test_top.env.pred [predictor] [PRED][MAP] AXI4 AXI4_WRITE id=0x7 addr=0x1408 burst=AXI4_BURST_WRAP beats=2 size=8B lock=0 -> AHB burst=AHB_BURST_SINGLE size=8B crosses_1kb=0
# UVM_INFO ../10_tb/env/predictor.sv(169) @ 1085000: uvm_test_top.env.pred [predictor] [PRED][AHB] beat=1/2 | AHB AHB_WRITE addr=0x1408 trans=AHB_TRANS_NONSEQ burst=AHB_BURST_SINGLE size=8B mastlock=0 resp=AHB_RESP_OKAY waits=0 | wdata=0x6766656463626160
# UVM_INFO ../10_tb/env/scoreboard.sv(359) @ 1085000: uvm_test_top.env.scb [scoreboard] [SCB][AHB][PASS] AHB AHB_WRITE addr=0x1408 trans=AHB_TRANS_NONSEQ burst=AHB_BURST_SINGLE size=8B mastlock=0 resp=AHB_RESP_OKAY waits=0 | data=0x6766656463626160 | total=27
# UVM_INFO ../10_tb/env/predictor.sv(169) @ 1085000: uvm_test_top.env.pred [predictor] [PRED][AHB] beat=2/2 | AHB AHB_WRITE addr=0x1400 trans=AHB_TRANS_NONSEQ burst=AHB_BURST_SINGLE size=8B mastlock=0 resp=AHB_RESP_OKAY waits=0 | wdata=0x6968676665646362
# UVM_INFO ../10_tb/ahb_slv/ahb_slv_driver.sv(201) @ 1095000: uvm_test_top.env.ahb_agent.drv [ahb_slv_driver] [DRV][AHB][RSP] AHB_WRITE addr=0x1400 data=0x6968676665646362 resp=AHB_RESP_OKAY ready_delay=0
# UVM_INFO ../10_tb/ahb_slv/ahb_slv_monitor.sv(119) @ 1095000: uvm_test_top.env.ahb_agent.mon [ahb_slv_monitor] [MON][AHB][TR] AHB AHB_WRITE addr=0x1400 trans=AHB_TRANS_NONSEQ burst=AHB_BURST_SINGLE size=8B mastlock=0 resp=AHB_RESP_OKAY waits=0 | data=0x6968676665646362
# UVM_INFO ../10_tb/env/scoreboard.sv(359) @ 1095000: uvm_test_top.env.scb [scoreboard] [SCB][AHB][PASS] AHB AHB_WRITE addr=0x1400 trans=AHB_TRANS_NONSEQ burst=AHB_BURST_SINGLE size=8B mastlock=0 resp=AHB_RESP_OKAY waits=0 | data=0x6968676665646362 | total=28
# UVM_INFO ../10_tb/axi4_mst/axi4_mst_driver.sv(250) @ 1105000: uvm_test_top.env.axi_agent.drv [axi4_mst_driver] [DRV][AXI][B] id=0x7 resp=AXI4_RESP_OKAY
# UVM_INFO ../10_tb/axi4_mst/axi4_mst_monitor.sv(177) @ 1105000: uvm_test_top.env.axi_agent.mon [axi4_mst_monitor] [MON][AXI][RSP] WRITE id=0x7 resp=AXI4_RESP_OKAY
# UVM_INFO ../10_tb/env/scoreboard.sv(499) @ 1105000: uvm_test_top.env.scb [scoreboard] [SCB][AXI][PASS] AXI4 AXI4_WRITE id=0x7 addr=0x1408 burst=AXI4_BURST_WRAP beats=2 size=8B lock=0 | bresp=AXI4_RESP_OKAY | total=9
# UVM_INFO ../10_tb/axi4_mst/axi4_mst_driver.sv(105) @ 1105000: uvm_test_top.env.axi_agent.drv [axi4_mst_driver] [DRV][AXI][REQ] AXI4 AXI4_READ id=0xe addr=0x1408 burst=AXI4_BURST_WRAP beats=2 size=8B lock=0 | outstanding=1
# UVM_INFO ../10_tb/axi4_mst/axi4_mst_driver.sv(225) @ 1135000: uvm_test_top.env.axi_agent.drv [axi4_mst_driver] [DRV][AXI][AR] id=0xe addr=0x1408 burst=AXI4_BURST_WRAP beats=2 size=8B
# UVM_INFO ../10_tb/axi4_mst/axi4_mst_monitor.sv(211) @ 1135000: uvm_test_top.env.axi_agent.mon [axi4_mst_monitor] [MON][AXI][REQ] AXI4 AXI4_READ id=0xe addr=0x1408 burst=AXI4_BURST_WRAP beats=2 size=8B lock=0
# UVM_INFO ../10_tb/env/predictor.sv(75) @ 1135000: uvm_test_top.env.pred [predictor] [PRED][AXI][IN] AXI4 AXI4_READ id=0xe addr=0x1408 burst=AXI4_BURST_WRAP beats=2 size=8B lock=0 | queued=1
# UVM_INFO ../10_tb/env/predictor.sv(138) @ 1135000: uvm_test_top.env.pred [predictor] [PRED][MAP] AXI4 AXI4_READ id=0xe addr=0x1408 burst=AXI4_BURST_WRAP beats=2 size=8B lock=0 -> AHB burst=AHB_BURST_SINGLE size=8B crosses_1kb=0
# UVM_INFO ../10_tb/env/predictor.sv(175) @ 1135000: uvm_test_top.env.pred [predictor] [PRED][AHB] beat=1/2 | AHB AHB_READ addr=0x1408 trans=AHB_TRANS_NONSEQ burst=AHB_BURST_SINGLE size=8B mastlock=0 resp=AHB_RESP_OKAY waits=0
# UVM_INFO ../10_tb/env/predictor.sv(175) @ 1135000: uvm_test_top.env.pred [predictor] [PRED][AHB] beat=2/2 | AHB AHB_READ addr=0x1400 trans=AHB_TRANS_NONSEQ burst=AHB_BURST_SINGLE size=8B mastlock=0 resp=AHB_RESP_OKAY waits=0
# UVM_INFO ../10_tb/ahb_slv/ahb_slv_driver.sv(87) @ 1145000: uvm_test_top.env.ahb_agent.drv [ahb_slv_driver] [DRV][AHB][REQ] AHB_READ addr=0x1408 trans=AHB_TRANS_NONSEQ burst=AHB_BURST_SINGLE size=8B
# UVM_INFO ../10_tb/ahb_slv/ahb_slv_driver.sv(201) @ 1155000: uvm_test_top.env.ahb_agent.drv [ahb_slv_driver] [DRV][AHB][RSP] AHB_READ addr=0x1408 data=0x6766656463626160 resp=AHB_RESP_OKAY ready_delay=0
# UVM_INFO ../10_tb/ahb_slv/ahb_slv_monitor.sv(119) @ 1155000: uvm_test_top.env.ahb_agent.mon [ahb_slv_monitor] [MON][AHB][TR] AHB AHB_READ addr=0x1408 trans=AHB_TRANS_NONSEQ burst=AHB_BURST_SINGLE size=8B mastlock=0 resp=AHB_RESP_OKAY waits=0 | data=0x6766656463626160
# UVM_INFO ../10_tb/env/scoreboard.sv(359) @ 1155000: uvm_test_top.env.scb [scoreboard] [SCB][AHB][PASS] AHB AHB_READ addr=0x1408 trans=AHB_TRANS_NONSEQ burst=AHB_BURST_SINGLE size=8B mastlock=0 resp=AHB_RESP_OKAY waits=0 | data=0x6766656463626160 | total=29
# UVM_INFO ../10_tb/ahb_slv/ahb_slv_driver.sv(87) @ 1165000: uvm_test_top.env.ahb_agent.drv [ahb_slv_driver] [DRV][AHB][REQ] AHB_READ addr=0x1400 trans=AHB_TRANS_NONSEQ burst=AHB_BURST_SINGLE size=8B
# UVM_INFO ../10_tb/ahb_slv/ahb_slv_driver.sv(201) @ 1175000: uvm_test_top.env.ahb_agent.drv [ahb_slv_driver] [DRV][AHB][RSP] AHB_READ addr=0x1400 data=0x6968676665646362 resp=AHB_RESP_OKAY ready_delay=0
# UVM_INFO ../10_tb/ahb_slv/ahb_slv_monitor.sv(119) @ 1175000: uvm_test_top.env.ahb_agent.mon [ahb_slv_monitor] [MON][AHB][TR] AHB AHB_READ addr=0x1400 trans=AHB_TRANS_NONSEQ burst=AHB_BURST_SINGLE size=8B mastlock=0 resp=AHB_RESP_OKAY waits=0 | data=0x6968676665646362
# UVM_INFO ../10_tb/env/scoreboard.sv(359) @ 1175000: uvm_test_top.env.scb [scoreboard] [SCB][AHB][PASS] AHB AHB_READ addr=0x1400 trans=AHB_TRANS_NONSEQ burst=AHB_BURST_SINGLE size=8B mastlock=0 resp=AHB_RESP_OKAY waits=0 | data=0x6968676665646362 | total=30
# UVM_INFO ../10_tb/axi4_mst/axi4_mst_driver.sv(290) @ 1175000: uvm_test_top.env.axi_agent.drv [axi4_mst_driver] [DRV][AXI][R] id=0xe beat=1/2 data=0x6766656463626160 resp=AXI4_RESP_OKAY last=0
# UVM_INFO ../10_tb/axi4_mst/axi4_mst_monitor.sv(256) @ 1175000: uvm_test_top.env.axi_agent.mon [axi4_mst_monitor] [MON][AXI][R] id=0xe beat=1/2 data=0x6766656463626160 resp=AXI4_RESP_OKAY last=0
# UVM_INFO ../10_tb/axi4_mst/axi4_mst_driver.sv(290) @ 1195000: uvm_test_top.env.axi_agent.drv [axi4_mst_driver] [DRV][AXI][R] id=0xe beat=2/2 data=0x6968676665646362 resp=AXI4_RESP_OKAY last=1
# UVM_INFO ../10_tb/axi4_mst/axi4_mst_monitor.sv(256) @ 1195000: uvm_test_top.env.axi_agent.mon [axi4_mst_monitor] [MON][AXI][R] id=0xe beat=2/2 data=0x6968676665646362 resp=AXI4_RESP_OKAY last=1
# UVM_INFO ../10_tb/axi4_mst/axi4_mst_monitor.sv(262) @ 1195000: uvm_test_top.env.axi_agent.mon [axi4_mst_monitor] [MON][AXI][RSP] READ id=0xe beats=2
# UVM_INFO ../10_tb/env/scoreboard.sv(506) @ 1195000: uvm_test_top.env.scb [scoreboard] [SCB][AXI][PASS] AXI4 AXI4_READ id=0xe addr=0x1408 burst=AXI4_BURST_WRAP beats=2 size=8B lock=0 | read beats=2 | total=10
# UVM_INFO ../10_tb/seq/axi4_mst_seq/axi4_mst_size_mapping_seq.sv(168) @ 1195000: uvm_test_top.env.axi_agent.sqr@@axi_seq [axi4_mst_size_mapping_seq] [5] WRAP4_FULL addr=0x1518 beats=4 AxSIZE=8B expected HSIZE=8B
# UVM_INFO ../10_tb/axi4_mst/axi4_mst_driver.sv(105) @ 1195000: uvm_test_top.env.axi_agent.drv [axi4_mst_driver] [DRV][AXI][REQ] AXI4 AXI4_WRITE id=0x8 addr=0x1518 burst=AXI4_BURST_WRAP beats=4 size=8B lock=0 | outstanding=1
# UVM_INFO ../10_tb/axi4_mst/axi4_mst_driver.sv(178) @ 1235000: uvm_test_top.env.axi_agent.drv [axi4_mst_driver] [DRV][AXI][AW] id=0x8 addr=0x1518 burst=AXI4_BURST_WRAP beats=4 size=8B
# UVM_INFO ../10_tb/axi4_mst/axi4_mst_driver.sv(198) @ 1235000: uvm_test_top.env.axi_agent.drv [axi4_mst_driver] [DRV][AXI][W] id=0x8 beat=1/4 data=0x6f6e6d6c6b6a6968 strb=0xff last=0
# UVM_INFO ../10_tb/ahb_slv/ahb_slv_driver.sv(87) @ 1245000: uvm_test_top.env.ahb_agent.drv [ahb_slv_driver] [DRV][AHB][REQ] AHB_WRITE addr=0x1518 trans=AHB_TRANS_NONSEQ burst=AHB_BURST_WRAP4 size=8B
# UVM_INFO ../10_tb/ahb_slv/ahb_slv_driver.sv(201) @ 1255000: uvm_test_top.env.ahb_agent.drv [ahb_slv_driver] [DRV][AHB][RSP] AHB_WRITE addr=0x1518 data=0x6f6e6d6c6b6a6968 resp=AHB_RESP_OKAY ready_delay=0
# UVM_INFO ../10_tb/ahb_slv/ahb_slv_monitor.sv(119) @ 1255000: uvm_test_top.env.ahb_agent.mon [ahb_slv_monitor] [MON][AHB][TR] AHB AHB_WRITE addr=0x1518 trans=AHB_TRANS_NONSEQ burst=AHB_BURST_WRAP4 size=8B mastlock=0 resp=AHB_RESP_OKAY waits=0 | data=0x6f6e6d6c6b6a6968
# UVM_INFO ../10_tb/ahb_slv/ahb_slv_driver.sv(87) @ 1265000: uvm_test_top.env.ahb_agent.drv [ahb_slv_driver] [DRV][AHB][REQ] AHB_WRITE addr=0x1500 trans=AHB_TRANS_SEQ burst=AHB_BURST_WRAP4 size=8B
# UVM_INFO ../10_tb/axi4_mst/axi4_mst_driver.sv(198) @ 1265000: uvm_test_top.env.axi_agent.drv [axi4_mst_driver] [DRV][AXI][W] id=0x8 beat=2/4 data=0x71706f6e6d6c6b6a strb=0xff last=0
# UVM_INFO ../10_tb/ahb_slv/ahb_slv_driver.sv(201) @ 1275000: uvm_test_top.env.ahb_agent.drv [ahb_slv_driver] [DRV][AHB][RSP] AHB_WRITE addr=0x1500 data=0x71706f6e6d6c6b6a resp=AHB_RESP_OKAY ready_delay=0
# UVM_INFO ../10_tb/ahb_slv/ahb_slv_monitor.sv(119) @ 1275000: uvm_test_top.env.ahb_agent.mon [ahb_slv_monitor] [MON][AHB][TR] AHB AHB_WRITE addr=0x1500 trans=AHB_TRANS_SEQ burst=AHB_BURST_WRAP4 size=8B mastlock=0 resp=AHB_RESP_OKAY waits=0 | data=0x71706f6e6d6c6b6a
# UVM_INFO ../10_tb/ahb_slv/ahb_slv_driver.sv(87) @ 1285000: uvm_test_top.env.ahb_agent.drv [ahb_slv_driver] [DRV][AHB][REQ] AHB_WRITE addr=0x1508 trans=AHB_TRANS_SEQ burst=AHB_BURST_WRAP4 size=8B
# UVM_INFO ../10_tb/axi4_mst/axi4_mst_driver.sv(198) @ 1285000: uvm_test_top.env.axi_agent.drv [axi4_mst_driver] [DRV][AXI][W] id=0x8 beat=3/4 data=0x737271706f6e6d6c strb=0xff last=0
# UVM_INFO ../10_tb/ahb_slv/ahb_slv_driver.sv(201) @ 1295000: uvm_test_top.env.ahb_agent.drv [ahb_slv_driver] [DRV][AHB][RSP] AHB_WRITE addr=0x1508 data=0x737271706f6e6d6c resp=AHB_RESP_OKAY ready_delay=0
# UVM_INFO ../10_tb/ahb_slv/ahb_slv_monitor.sv(119) @ 1295000: uvm_test_top.env.ahb_agent.mon [ahb_slv_monitor] [MON][AHB][TR] AHB AHB_WRITE addr=0x1508 trans=AHB_TRANS_SEQ burst=AHB_BURST_WRAP4 size=8B mastlock=0 resp=AHB_RESP_OKAY waits=0 | data=0x737271706f6e6d6c
# UVM_INFO ../10_tb/ahb_slv/ahb_slv_driver.sv(87) @ 1305000: uvm_test_top.env.ahb_agent.drv [ahb_slv_driver] [DRV][AHB][REQ] AHB_WRITE addr=0x1510 trans=AHB_TRANS_SEQ burst=AHB_BURST_WRAP4 size=8B
# UVM_INFO ../10_tb/axi4_mst/axi4_mst_driver.sv(198) @ 1305000: uvm_test_top.env.axi_agent.drv [axi4_mst_driver] [DRV][AXI][W] id=0x8 beat=4/4 data=0x7574737271706f6e strb=0xff last=1
# UVM_INFO ../10_tb/axi4_mst/axi4_mst_monitor.sv(151) @ 1305000: uvm_test_top.env.axi_agent.mon [axi4_mst_monitor] [MON][AXI][REQ] AXI4 AXI4_WRITE id=0x8 addr=0x1518 burst=AXI4_BURST_WRAP beats=4 size=8B lock=0
# UVM_INFO ../10_tb/env/predictor.sv(75) @ 1305000: uvm_test_top.env.pred [predictor] [PRED][AXI][IN] AXI4 AXI4_WRITE id=0x8 addr=0x1518 burst=AXI4_BURST_WRAP beats=4 size=8B lock=0 | queued=1
# UVM_INFO ../10_tb/env/predictor.sv(138) @ 1305000: uvm_test_top.env.pred [predictor] [PRED][MAP] AXI4 AXI4_WRITE id=0x8 addr=0x1518 burst=AXI4_BURST_WRAP beats=4 size=8B lock=0 -> AHB burst=AHB_BURST_WRAP4 size=8B crosses_1kb=0
# UVM_INFO ../10_tb/env/predictor.sv(169) @ 1305000: uvm_test_top.env.pred [predictor] [PRED][AHB] beat=1/4 | AHB AHB_WRITE addr=0x1518 trans=AHB_TRANS_NONSEQ burst=AHB_BURST_WRAP4 size=8B mastlock=0 resp=AHB_RESP_OKAY waits=0 | wdata=0x6f6e6d6c6b6a6968
# UVM_INFO ../10_tb/env/scoreboard.sv(359) @ 1305000: uvm_test_top.env.scb [scoreboard] [SCB][AHB][PASS] AHB AHB_WRITE addr=0x1518 trans=AHB_TRANS_NONSEQ burst=AHB_BURST_WRAP4 size=8B mastlock=0 resp=AHB_RESP_OKAY waits=0 | data=0x6f6e6d6c6b6a6968 | total=31
# UVM_INFO ../10_tb/env/predictor.sv(169) @ 1305000: uvm_test_top.env.pred [predictor] [PRED][AHB] beat=2/4 | AHB AHB_WRITE addr=0x1500 trans=AHB_TRANS_SEQ burst=AHB_BURST_WRAP4 size=8B mastlock=0 resp=AHB_RESP_OKAY waits=0 | wdata=0x71706f6e6d6c6b6a
# UVM_INFO ../10_tb/env/scoreboard.sv(359) @ 1305000: uvm_test_top.env.scb [scoreboard] [SCB][AHB][PASS] AHB AHB_WRITE addr=0x1500 trans=AHB_TRANS_SEQ burst=AHB_BURST_WRAP4 size=8B mastlock=0 resp=AHB_RESP_OKAY waits=0 | data=0x71706f6e6d6c6b6a | total=32
# UVM_INFO ../10_tb/env/predictor.sv(169) @ 1305000: uvm_test_top.env.pred [predictor] [PRED][AHB] beat=3/4 | AHB AHB_WRITE addr=0x1508 trans=AHB_TRANS_SEQ burst=AHB_BURST_WRAP4 size=8B mastlock=0 resp=AHB_RESP_OKAY waits=0 | wdata=0x737271706f6e6d6c
# UVM_INFO ../10_tb/env/scoreboard.sv(359) @ 1305000: uvm_test_top.env.scb [scoreboard] [SCB][AHB][PASS] AHB AHB_WRITE addr=0x1508 trans=AHB_TRANS_SEQ burst=AHB_BURST_WRAP4 size=8B mastlock=0 resp=AHB_RESP_OKAY waits=0 | data=0x737271706f6e6d6c | total=33
# UVM_INFO ../10_tb/env/predictor.sv(169) @ 1305000: uvm_test_top.env.pred [predictor] [PRED][AHB] beat=4/4 | AHB AHB_WRITE addr=0x1510 trans=AHB_TRANS_SEQ burst=AHB_BURST_WRAP4 size=8B mastlock=0 resp=AHB_RESP_OKAY waits=0 | wdata=0x7574737271706f6e
# UVM_INFO ../10_tb/ahb_slv/ahb_slv_driver.sv(201) @ 1315000: uvm_test_top.env.ahb_agent.drv [ahb_slv_driver] [DRV][AHB][RSP] AHB_WRITE addr=0x1510 data=0x7574737271706f6e resp=AHB_RESP_OKAY ready_delay=0
# UVM_INFO ../10_tb/ahb_slv/ahb_slv_monitor.sv(119) @ 1315000: uvm_test_top.env.ahb_agent.mon [ahb_slv_monitor] [MON][AHB][TR] AHB AHB_WRITE addr=0x1510 trans=AHB_TRANS_SEQ burst=AHB_BURST_WRAP4 size=8B mastlock=0 resp=AHB_RESP_OKAY waits=0 | data=0x7574737271706f6e
# UVM_INFO ../10_tb/env/scoreboard.sv(359) @ 1315000: uvm_test_top.env.scb [scoreboard] [SCB][AHB][PASS] AHB AHB_WRITE addr=0x1510 trans=AHB_TRANS_SEQ burst=AHB_BURST_WRAP4 size=8B mastlock=0 resp=AHB_RESP_OKAY waits=0 | data=0x7574737271706f6e | total=34
# UVM_INFO ../10_tb/axi4_mst/axi4_mst_driver.sv(250) @ 1325000: uvm_test_top.env.axi_agent.drv [axi4_mst_driver] [DRV][AXI][B] id=0x8 resp=AXI4_RESP_OKAY
# UVM_INFO ../10_tb/axi4_mst/axi4_mst_monitor.sv(177) @ 1325000: uvm_test_top.env.axi_agent.mon [axi4_mst_monitor] [MON][AXI][RSP] WRITE id=0x8 resp=AXI4_RESP_OKAY
# UVM_INFO ../10_tb/env/scoreboard.sv(499) @ 1325000: uvm_test_top.env.scb [scoreboard] [SCB][AXI][PASS] AXI4 AXI4_WRITE id=0x8 addr=0x1518 burst=AXI4_BURST_WRAP beats=4 size=8B lock=0 | bresp=AXI4_RESP_OKAY | total=11
# UVM_INFO ../10_tb/axi4_mst/axi4_mst_driver.sv(105) @ 1325000: uvm_test_top.env.axi_agent.drv [axi4_mst_driver] [DRV][AXI][REQ] AXI4 AXI4_READ id=0x0 addr=0x1518 burst=AXI4_BURST_WRAP beats=4 size=8B lock=0 | outstanding=1
# UVM_INFO ../10_tb/axi4_mst/axi4_mst_driver.sv(225) @ 1355000: uvm_test_top.env.axi_agent.drv [axi4_mst_driver] [DRV][AXI][AR] id=0x0 addr=0x1518 burst=AXI4_BURST_WRAP beats=4 size=8B
# UVM_INFO ../10_tb/axi4_mst/axi4_mst_monitor.sv(211) @ 1355000: uvm_test_top.env.axi_agent.mon [axi4_mst_monitor] [MON][AXI][REQ] AXI4 AXI4_READ id=0x0 addr=0x1518 burst=AXI4_BURST_WRAP beats=4 size=8B lock=0
# UVM_INFO ../10_tb/env/predictor.sv(75) @ 1355000: uvm_test_top.env.pred [predictor] [PRED][AXI][IN] AXI4 AXI4_READ id=0x0 addr=0x1518 burst=AXI4_BURST_WRAP beats=4 size=8B lock=0 | queued=1
# UVM_INFO ../10_tb/env/predictor.sv(138) @ 1355000: uvm_test_top.env.pred [predictor] [PRED][MAP] AXI4 AXI4_READ id=0x0 addr=0x1518 burst=AXI4_BURST_WRAP beats=4 size=8B lock=0 -> AHB burst=AHB_BURST_WRAP4 size=8B crosses_1kb=0
# UVM_INFO ../10_tb/env/predictor.sv(175) @ 1355000: uvm_test_top.env.pred [predictor] [PRED][AHB] beat=1/4 | AHB AHB_READ addr=0x1518 trans=AHB_TRANS_NONSEQ burst=AHB_BURST_WRAP4 size=8B mastlock=0 resp=AHB_RESP_OKAY waits=0
# UVM_INFO ../10_tb/env/predictor.sv(175) @ 1355000: uvm_test_top.env.pred [predictor] [PRED][AHB] beat=2/4 | AHB AHB_READ addr=0x1500 trans=AHB_TRANS_SEQ burst=AHB_BURST_WRAP4 size=8B mastlock=0 resp=AHB_RESP_OKAY waits=0
# UVM_INFO ../10_tb/env/predictor.sv(175) @ 1355000: uvm_test_top.env.pred [predictor] [PRED][AHB] beat=3/4 | AHB AHB_READ addr=0x1508 trans=AHB_TRANS_SEQ burst=AHB_BURST_WRAP4 size=8B mastlock=0 resp=AHB_RESP_OKAY waits=0
# UVM_INFO ../10_tb/env/predictor.sv(175) @ 1355000: uvm_test_top.env.pred [predictor] [PRED][AHB] beat=4/4 | AHB AHB_READ addr=0x1510 trans=AHB_TRANS_SEQ burst=AHB_BURST_WRAP4 size=8B mastlock=0 resp=AHB_RESP_OKAY waits=0
# UVM_INFO ../10_tb/ahb_slv/ahb_slv_driver.sv(87) @ 1365000: uvm_test_top.env.ahb_agent.drv [ahb_slv_driver] [DRV][AHB][REQ] AHB_READ addr=0x1518 trans=AHB_TRANS_NONSEQ burst=AHB_BURST_WRAP4 size=8B
# UVM_INFO ../10_tb/ahb_slv/ahb_slv_driver.sv(201) @ 1375000: uvm_test_top.env.ahb_agent.drv [ahb_slv_driver] [DRV][AHB][RSP] AHB_READ addr=0x1518 data=0x6f6e6d6c6b6a6968 resp=AHB_RESP_OKAY ready_delay=0
# UVM_INFO ../10_tb/ahb_slv/ahb_slv_monitor.sv(119) @ 1375000: uvm_test_top.env.ahb_agent.mon [ahb_slv_monitor] [MON][AHB][TR] AHB AHB_READ addr=0x1518 trans=AHB_TRANS_NONSEQ burst=AHB_BURST_WRAP4 size=8B mastlock=0 resp=AHB_RESP_OKAY waits=0 | data=0x6f6e6d6c6b6a6968
# UVM_INFO ../10_tb/env/scoreboard.sv(359) @ 1375000: uvm_test_top.env.scb [scoreboard] [SCB][AHB][PASS] AHB AHB_READ addr=0x1518 trans=AHB_TRANS_NONSEQ burst=AHB_BURST_WRAP4 size=8B mastlock=0 resp=AHB_RESP_OKAY waits=0 | data=0x6f6e6d6c6b6a6968 | total=35
# UVM_INFO ../10_tb/ahb_slv/ahb_slv_driver.sv(87) @ 1385000: uvm_test_top.env.ahb_agent.drv [ahb_slv_driver] [DRV][AHB][REQ] AHB_READ addr=0x1500 trans=AHB_TRANS_SEQ burst=AHB_BURST_WRAP4 size=8B
# UVM_INFO ../10_tb/ahb_slv/ahb_slv_driver.sv(201) @ 1395000: uvm_test_top.env.ahb_agent.drv [ahb_slv_driver] [DRV][AHB][RSP] AHB_READ addr=0x1500 data=0x71706f6e6d6c6b6a resp=AHB_RESP_OKAY ready_delay=0
# UVM_INFO ../10_tb/ahb_slv/ahb_slv_monitor.sv(119) @ 1395000: uvm_test_top.env.ahb_agent.mon [ahb_slv_monitor] [MON][AHB][TR] AHB AHB_READ addr=0x1500 trans=AHB_TRANS_SEQ burst=AHB_BURST_WRAP4 size=8B mastlock=0 resp=AHB_RESP_OKAY waits=0 | data=0x71706f6e6d6c6b6a
# UVM_INFO ../10_tb/env/scoreboard.sv(359) @ 1395000: uvm_test_top.env.scb [scoreboard] [SCB][AHB][PASS] AHB AHB_READ addr=0x1500 trans=AHB_TRANS_SEQ burst=AHB_BURST_WRAP4 size=8B mastlock=0 resp=AHB_RESP_OKAY waits=0 | data=0x71706f6e6d6c6b6a | total=36
# UVM_INFO ../10_tb/axi4_mst/axi4_mst_driver.sv(290) @ 1395000: uvm_test_top.env.axi_agent.drv [axi4_mst_driver] [DRV][AXI][R] id=0x0 beat=1/4 data=0x6f6e6d6c6b6a6968 resp=AXI4_RESP_OKAY last=0
# UVM_INFO ../10_tb/axi4_mst/axi4_mst_monitor.sv(256) @ 1395000: uvm_test_top.env.axi_agent.mon [axi4_mst_monitor] [MON][AXI][R] id=0x0 beat=1/4 data=0x6f6e6d6c6b6a6968 resp=AXI4_RESP_OKAY last=0
# UVM_INFO ../10_tb/ahb_slv/ahb_slv_driver.sv(87) @ 1405000: uvm_test_top.env.ahb_agent.drv [ahb_slv_driver] [DRV][AHB][REQ] AHB_READ addr=0x1508 trans=AHB_TRANS_SEQ burst=AHB_BURST_WRAP4 size=8B
# UVM_INFO ../10_tb/ahb_slv/ahb_slv_driver.sv(201) @ 1415000: uvm_test_top.env.ahb_agent.drv [ahb_slv_driver] [DRV][AHB][RSP] AHB_READ addr=0x1508 data=0x737271706f6e6d6c resp=AHB_RESP_OKAY ready_delay=0
# UVM_INFO ../10_tb/ahb_slv/ahb_slv_monitor.sv(119) @ 1415000: uvm_test_top.env.ahb_agent.mon [ahb_slv_monitor] [MON][AHB][TR] AHB AHB_READ addr=0x1508 trans=AHB_TRANS_SEQ burst=AHB_BURST_WRAP4 size=8B mastlock=0 resp=AHB_RESP_OKAY waits=0 | data=0x737271706f6e6d6c
# UVM_INFO ../10_tb/env/scoreboard.sv(359) @ 1415000: uvm_test_top.env.scb [scoreboard] [SCB][AHB][PASS] AHB AHB_READ addr=0x1508 trans=AHB_TRANS_SEQ burst=AHB_BURST_WRAP4 size=8B mastlock=0 resp=AHB_RESP_OKAY waits=0 | data=0x737271706f6e6d6c | total=37
# UVM_INFO ../10_tb/axi4_mst/axi4_mst_driver.sv(290) @ 1415000: uvm_test_top.env.axi_agent.drv [axi4_mst_driver] [DRV][AXI][R] id=0x0 beat=2/4 data=0x71706f6e6d6c6b6a resp=AXI4_RESP_OKAY last=0
# UVM_INFO ../10_tb/axi4_mst/axi4_mst_monitor.sv(256) @ 1415000: uvm_test_top.env.axi_agent.mon [axi4_mst_monitor] [MON][AXI][R] id=0x0 beat=2/4 data=0x71706f6e6d6c6b6a resp=AXI4_RESP_OKAY last=0
# UVM_INFO ../10_tb/ahb_slv/ahb_slv_driver.sv(87) @ 1425000: uvm_test_top.env.ahb_agent.drv [ahb_slv_driver] [DRV][AHB][REQ] AHB_READ addr=0x1510 trans=AHB_TRANS_SEQ burst=AHB_BURST_WRAP4 size=8B
# UVM_INFO ../10_tb/ahb_slv/ahb_slv_driver.sv(201) @ 1435000: uvm_test_top.env.ahb_agent.drv [ahb_slv_driver] [DRV][AHB][RSP] AHB_READ addr=0x1510 data=0x7574737271706f6e resp=AHB_RESP_OKAY ready_delay=0
# UVM_INFO ../10_tb/ahb_slv/ahb_slv_monitor.sv(119) @ 1435000: uvm_test_top.env.ahb_agent.mon [ahb_slv_monitor] [MON][AHB][TR] AHB AHB_READ addr=0x1510 trans=AHB_TRANS_SEQ burst=AHB_BURST_WRAP4 size=8B mastlock=0 resp=AHB_RESP_OKAY waits=0 | data=0x7574737271706f6e
# UVM_INFO ../10_tb/env/scoreboard.sv(359) @ 1435000: uvm_test_top.env.scb [scoreboard] [SCB][AHB][PASS] AHB AHB_READ addr=0x1510 trans=AHB_TRANS_SEQ burst=AHB_BURST_WRAP4 size=8B mastlock=0 resp=AHB_RESP_OKAY waits=0 | data=0x7574737271706f6e | total=38
# UVM_INFO ../10_tb/axi4_mst/axi4_mst_driver.sv(290) @ 1435000: uvm_test_top.env.axi_agent.drv [axi4_mst_driver] [DRV][AXI][R] id=0x0 beat=3/4 data=0x737271706f6e6d6c resp=AXI4_RESP_OKAY last=0
# UVM_INFO ../10_tb/axi4_mst/axi4_mst_monitor.sv(256) @ 1435000: uvm_test_top.env.axi_agent.mon [axi4_mst_monitor] [MON][AXI][R] id=0x0 beat=3/4 data=0x737271706f6e6d6c resp=AXI4_RESP_OKAY last=0
# UVM_INFO ../10_tb/axi4_mst/axi4_mst_driver.sv(290) @ 1455000: uvm_test_top.env.axi_agent.drv [axi4_mst_driver] [DRV][AXI][R] id=0x0 beat=4/4 data=0x7574737271706f6e resp=AXI4_RESP_OKAY last=1
# UVM_INFO ../10_tb/axi4_mst/axi4_mst_monitor.sv(256) @ 1455000: uvm_test_top.env.axi_agent.mon [axi4_mst_monitor] [MON][AXI][R] id=0x0 beat=4/4 data=0x7574737271706f6e resp=AXI4_RESP_OKAY last=1
# UVM_INFO ../10_tb/axi4_mst/axi4_mst_monitor.sv(262) @ 1455000: uvm_test_top.env.axi_agent.mon [axi4_mst_monitor] [MON][AXI][RSP] READ id=0x0 beats=4
# UVM_INFO ../10_tb/env/scoreboard.sv(506) @ 1455000: uvm_test_top.env.scb [scoreboard] [SCB][AXI][PASS] AXI4 AXI4_READ id=0x0 addr=0x1518 burst=AXI4_BURST_WRAP beats=4 size=8B lock=0 | read beats=4 | total=12
# UVM_INFO ../10_tb/seq/axi4_mst_seq/axi4_mst_size_mapping_seq.sv(82) @ 1455000: uvm_test_top.env.axi_agent.sqr@@axi_seq [axi4_mst_size_mapping_seq] Size mapping summary: run=12 failed=0
# UVM_INFO verilog_src/uvm-1.1d/src/base/uvm_objection.svh(1268) @ 1555000: reporter [TEST_DONE] 'run' phase is ready to proceed to the 'extract' phase
# UVM_INFO ../10_tb/env/e2e_cov.sv(804) @ 1555000: uvm_test_top.env.cov [e2e_cov] E2E coverage: AXI=51.39% strobe=30.56% translation=60.65% AHB=48.11% response=52.38%
# UVM_INFO ../10_tb/env/scoreboard.sv(650) @ 1555000: uvm_test_top.env.scb [scoreboard] Scoreboard summary: AHB match/mismatch=38/0, AXI match/mismatch=12/0
# UVM_INFO ../10_tb/test/bridge_base_test.sv(70) @ 1555000: uvm_test_top [bridge_size_mapping_test] === TEST PASSED ===
# 
# --- UVM Report Summary ---
# 
# ** Report counts by severity
# UVM_INFO :  356
# UVM_WARNING :    0
# UVM_ERROR :    0
# UVM_FATAL :    0
# ** Report counts by id
# [BRIDGE_TB_TOP]     1
# [Questa UVM]     3
# [RNTST]     1
# [TEST_DONE]     1
# [UVMTOP]     1
# [ahb_slv_driver]    76
# [ahb_slv_monitor]    38
# [axi4_mst_driver]    68
# [axi4_mst_monitor]    43
# [axi4_mst_size_mapping_seq]     9
# [bridge_size_mapping_test]     1
# [e2e_cov]     1
# [predictor]    62
# [scoreboard]    51
# ** Note: $finish    : /cadtools/mentor/Questa_10.6b/questasim/linux_x86_64/../verilog_src/uvm-1.1d/src/base/uvm_root.svh(430)
#    Time: 1555 ns  Iteration: 56  Instance: /bridge_tb_top
# Saving coverage database on exit...
# End time: 09:16:43 on Sep 28,2026, Elapsed time: 0:00:01
# Errors: 0, Warnings: 0
