# vsim -c -coverage -sv_seed 83463190 "+UVM_TESTNAME=bridge_parameter_test" "+UVM_VERBOSITY=UVM_HIGH" -l report/logs/bridge_parameter_test_w64n_run_2_seed_83463190.log -wlf report/wlf/bridge_parameter_test_w64n_run_2_seed_83463190.wlf -do "coverage save -onexit report/coverage/bridge_parameter_test_w64n_run_2_seed_83463190.ucdb; run -all; quit -f" work64.opt_bridge_tb_top_w64_narrow 
# Start time: 12:45:31 on Sep 29,2026
# //  Questa Sim-64
# //  Version 10.6b linux_x86_64 May 25 2017
# //
# //  Copyright 1991-2017 Mentor Graphics Corporation
# //  All Rights Reserved.
# //
# //  QuestaSim and its associated documentation contain trade
# //  secrets and commercial or financial information that are the property of
# //  Mentor Graphics Corporation and are privileged, confidential,
# //  and exempt from disclosure under the Freedom of Information Act,
# //  5 U.S.C. Section 552. Furthermore, this information
# //  is prohibited from disclosure under the Trade Secrets Act,
# //  18 U.S.C. Section 1905.
# //
# Loading sv_std.std
# Loading work.axi4_if(fast)
# Loading work.ahb_if(fast)
# Loading mtiUvm.uvm_pkg
# Loading work.bridge_vip_pkg(fast)
# Loading work.bridge_seq_pkg(fast)
# Loading work.bridge_test_pkg(fast)
# Loading work.bridge_tb_top(fast)
# Loading work.axi4_if(fast)
# Loading work.ahb_if(fast)
# Loading work.axi_ahblite_bridge(fast)
# Loading work.ahb_skid_buf(fast)
# Loading work.axi_slv_if(fast)
# Loading work.ahb_mstr_if(fast)
# Loading work.time_out(fast)
# Loading work.axi4_sva(fast)
# Loading work.ahb_sva(fast)
# Loading mtiUvm.questa_uvm_pkg(fast)
# Loading /cadtools/mentor/Questa_10.6b/questasim/uvm-1.1d/linux_x86_64/uvm_dpi.so
# coverage save -onexit report/coverage/bridge_parameter_test_w64n_run_2_seed_83463190.ucdb
#  run -all
# ----------------------------------------------------------------
# UVM-1.1d
# (C) 2007-2013 Mentor Graphics Corporation
# (C) 2007-2013 Cadence Design Systems, Inc.
# (C) 2006-2013 Synopsys, Inc.
# (C) 2011-2013 Cypress Semiconductor Corp.
# ----------------------------------------------------------------
# 
#   ***********       IMPORTANT RELEASE NOTES         ************
# 
#   You are using a version of the UVM library that has been compiled
#   with `UVM_NO_DEPRECATED undefined.
#   See http://www.eda.org/svdb/view.php?id=3313 for more details.
# 
#   You are using a version of the UVM library that has been compiled
#   with `UVM_OBJECT_MUST_HAVE_CONSTRUCTOR undefined.
#   See http://www.eda.org/svdb/view.php?id=3770 for more details.
# 
#       (Specify +UVM_NO_RELNOTES to turn off this notice)
# 
# UVM_INFO verilog_src/questa_uvm_pkg-1.2/src/questa_uvm_pkg.sv(215) @ 0: reporter [Questa UVM] QUESTA_UVM-1.2.3
# UVM_INFO verilog_src/questa_uvm_pkg-1.2/src/questa_uvm_pkg.sv(217) @ 0: reporter [Questa UVM]  questa_uvm::init(+struct)
# UVM_INFO @ 0: reporter [RNTST] Running test bridge_parameter_test...
# UVM_INFO @ 0: reporter [UVMTOP] UVM testbench topology:
# -------------------------------------------------------------------------
# Name                       Type                               Size  Value
# -------------------------------------------------------------------------
# uvm_test_top               bridge_parameter_test              -     @490 
#   env                      vip_env                            -     @508 
#     ahb_agent              ahb_slv_agent                      -     @529 
#       ap                   uvm_analysis_port                  -     @667 
#       cov                  ahb_slv_coverage                   -     @693 
#         analysis_imp       uvm_analysis_imp                   -     @700 
#         trans_export       uvm_analysis_imp_ahb_trans         -     @841 
#       drv                  ahb_slv_driver                     -     @818 
#         rsp_port           uvm_analysis_port                  -     @833 
#         seq_item_port      uvm_seq_item_pull_port             -     @825 
#       mon                  ahb_slv_monitor                    -     @686 
#         ap                 uvm_analysis_port                  -     @850 
#         trans_ap           uvm_analysis_port                  -     @858 
#       sqr                  ahb_slv_sequencer                  -     @709 
#         rsp_export         uvm_analysis_export                -     @716 
#         seq_item_export    uvm_seq_item_pull_imp              -     @810 
#         arbitration_queue  array                              0     -    
#         lock_queue         array                              0     -    
#         num_last_reqs      integral                           32    'd1  
#         num_last_rsps      integral                           32    'd1  
#       trans_ap             uvm_analysis_port                  -     @675 
#     axi_agent              axi4_mst_agent                     -     @522 
#       ap                   uvm_analysis_port                  -     @881 
#       cov                  axi4_mst_coverage                  -     @899 
#         analysis_imp       uvm_analysis_imp                   -     @906 
#       drv                  axi4_mst_driver                    -     @1024
#         rsp_port           uvm_analysis_port                  -     @1039
#         seq_item_port      uvm_seq_item_pull_port             -     @1031
#       mon                  axi4_mst_monitor                   -     @892 
#         ap                 uvm_analysis_port                  -     @1056
#         req_ap             uvm_analysis_port                  -     @1048
#       req_ap               uvm_analysis_port                  -     @873 
#       sqr                  axi4_mst_sequencer                 -     @915 
#         rsp_export         uvm_analysis_export                -     @922 
#         seq_item_export    uvm_seq_item_pull_imp              -     @1016
#         arbitration_queue  array                              0     -    
#         lock_queue         array                              0     -    
#         num_last_reqs      integral                           32    'd1  
#         num_last_rsps      integral                           32    'd1  
#     cov                    e2e_cov                            -     @659 
#       actual_ahb_export    uvm_analysis_imp_e2e_actual_ahb    -     @1086
#       axi_req_export       uvm_analysis_imp_e2e_axi_req       -     @1070
#       axi_rsp_export       uvm_analysis_imp_e2e_axi_rsp       -     @1094
#       expected_ahb_export  uvm_analysis_imp_e2e_expected_ahb  -     @1078
#     pred                   predictor                          -     @645 
#       axi_request_export   uvm_analysis_imp_axi_request       -     @1102
#       expected_ahb_ap      uvm_analysis_port                  -     @1110
#       expected_axi_ap      uvm_analysis_port                  -     @1118
#     scb                    scoreboard                         -     @652 
#       actual_ahb_export    uvm_analysis_imp_actual_ahb        -     @1134
#       actual_axi_export    uvm_analysis_imp_actual_axi        -     @1150
#       expected_ahb_export  uvm_analysis_imp_expected_ahb      -     @1126
#       expected_axi_export  uvm_analysis_imp_expected_axi      -     @1142
#     vseqr                  virtual_sequencer                  -     @536 
#       rsp_export           uvm_analysis_export                -     @543 
#       seq_item_export      uvm_seq_item_pull_imp              -     @637 
#       arbitration_queue    array                              0     -    
#       lock_queue           array                              0     -    
#       num_last_reqs        integral                           32    'd1  
#       num_last_rsps        integral                           32    'd1  
# -------------------------------------------------------------------------
# 
# UVM_INFO verilog_src/questa_uvm_pkg-1.2/src/questa_uvm_pkg.sv(277) @ 0: reporter [Questa UVM] End Of Elaboration
# UVM_INFO ../10_tb/test/bridge_parameter_test.sv(72) @ 0: uvm_test_top [bridge_parameter_test] Built configuration: AXI data=64 addr=32 id=4, AHB data=64 addr=32, narrow=1, C_DPHASE_TIMEOUT=0
# UVM_INFO ../10_tb/bridge_tb_top.sv(47) @ 95000: reporter [BRIDGE_TB_TOP] Power-on reset released
# UVM_INFO ../10_tb/seq/axi4_mst_seq/axi4_mst_parameter_seq.sv(107) @ 95000: uvm_test_top.env.axi_agent.sqr@@axi_seq [axi4_mst_parameter_seq] Parameter profile: data=64 addr=32 id=4 narrow=1, 26 cases
# UVM_INFO ../10_tb/seq/axi4_mst_seq/axi4_mst_parameter_seq.sv(203) @ 95000: uvm_test_top.env.axi_agent.sqr@@axi_seq [axi4_mst_parameter_seq] [0] SINGLE_RD addr=0x1000 beats=1 size=8B burst=AXI4_BURST_INCR
# UVM_INFO ../10_tb/axi4_mst/axi4_mst_driver.sv(105) @ 95000: uvm_test_top.env.axi_agent.drv [axi4_mst_driver] [DRV][AXI][REQ] AXI4 AXI4_READ id=0xf addr=0x1000 burst=AXI4_BURST_INCR beats=1 size=8B lock=0 | outstanding=1
# UVM_INFO ../10_tb/axi4_mst/axi4_mst_driver.sv(225) @ 125000: uvm_test_top.env.axi_agent.drv [axi4_mst_driver] [DRV][AXI][AR] id=0xf addr=0x1000 burst=AXI4_BURST_INCR beats=1 size=8B
# UVM_INFO ../10_tb/axi4_mst/axi4_mst_monitor.sv(211) @ 125000: uvm_test_top.env.axi_agent.mon [axi4_mst_monitor] [MON][AXI][REQ] AXI4 AXI4_READ id=0xf addr=0x1000 burst=AXI4_BURST_INCR beats=1 size=8B lock=0
# UVM_INFO ../10_tb/env/predictor.sv(75) @ 125000: uvm_test_top.env.pred [predictor] [PRED][AXI][IN] AXI4 AXI4_READ id=0xf addr=0x1000 burst=AXI4_BURST_INCR beats=1 size=8B lock=0 | queued=1
# UVM_INFO ../10_tb/env/predictor.sv(138) @ 125000: uvm_test_top.env.pred [predictor] [PRED][MAP] AXI4 AXI4_READ id=0xf addr=0x1000 burst=AXI4_BURST_INCR beats=1 size=8B lock=0 -> AHB burst=AHB_BURST_SINGLE size=8B crosses_1kb=0
# UVM_INFO ../10_tb/env/predictor.sv(175) @ 125000: uvm_test_top.env.pred [predictor] [PRED][AHB] beat=1/1 | AHB AHB_READ addr=0x1000 trans=AHB_TRANS_NONSEQ burst=AHB_BURST_SINGLE size=8B mastlock=0 resp=AHB_RESP_OKAY waits=0
# UVM_INFO ../10_tb/ahb_slv/ahb_slv_driver.sv(87) @ 135000: uvm_test_top.env.ahb_agent.drv [ahb_slv_driver] [DRV][AHB][REQ] AHB_READ addr=0x1000 trans=AHB_TRANS_NONSEQ burst=AHB_BURST_SINGLE size=8B
# UVM_INFO ../10_tb/ahb_slv/ahb_slv_driver.sv(201) @ 145000: uvm_test_top.env.ahb_agent.drv [ahb_slv_driver] [DRV][AHB][RSP] AHB_READ addr=0x1000 data=0x1000ffffefff resp=AHB_RESP_OKAY ready_delay=0
# UVM_INFO ../10_tb/ahb_slv/ahb_slv_monitor.sv(119) @ 145000: uvm_test_top.env.ahb_agent.mon [ahb_slv_monitor] [MON][AHB][TR] AHB AHB_READ addr=0x1000 trans=AHB_TRANS_NONSEQ burst=AHB_BURST_SINGLE size=8B mastlock=0 resp=AHB_RESP_OKAY waits=0 | data=0x1000ffffefff
# UVM_INFO ../10_tb/env/scoreboard.sv(359) @ 145000: uvm_test_top.env.scb [scoreboard] [SCB][AHB][PASS] AHB AHB_READ addr=0x1000 trans=AHB_TRANS_NONSEQ burst=AHB_BURST_SINGLE size=8B mastlock=0 resp=AHB_RESP_OKAY waits=0 | data=0x1000ffffefff | total=1
# UVM_INFO ../10_tb/axi4_mst/axi4_mst_driver.sv(290) @ 165000: uvm_test_top.env.axi_agent.drv [axi4_mst_driver] [DRV][AXI][R] id=0xf beat=1/1 data=0x1000ffffefff resp=AXI4_RESP_OKAY last=1
# UVM_INFO ../10_tb/axi4_mst/axi4_mst_monitor.sv(256) @ 165000: uvm_test_top.env.axi_agent.mon [axi4_mst_monitor] [MON][AXI][R] id=0xf beat=1/1 data=0x1000ffffefff resp=AXI4_RESP_OKAY last=1
# UVM_INFO ../10_tb/axi4_mst/axi4_mst_monitor.sv(262) @ 165000: uvm_test_top.env.axi_agent.mon [axi4_mst_monitor] [MON][AXI][RSP] READ id=0xf beats=1
# UVM_INFO ../10_tb/env/scoreboard.sv(506) @ 165000: uvm_test_top.env.scb [scoreboard] [SCB][AXI][PASS] AXI4 AXI4_READ id=0xf addr=0x1000 burst=AXI4_BURST_INCR beats=1 size=8B lock=0 | read beats=1 | total=1
# UVM_INFO ../10_tb/seq/axi4_mst_seq/axi4_mst_parameter_seq.sv(203) @ 165000: uvm_test_top.env.axi_agent.sqr@@axi_seq [axi4_mst_parameter_seq] [1] SINGLE_WR addr=0x1100 beats=1 size=8B burst=AXI4_BURST_INCR
# UVM_INFO ../10_tb/axi4_mst/axi4_mst_driver.sv(105) @ 165000: uvm_test_top.env.axi_agent.drv [axi4_mst_driver] [DRV][AXI][REQ] AXI4 AXI4_WRITE id=0xa addr=0x1100 burst=AXI4_BURST_INCR beats=1 size=8B lock=0 | outstanding=1
# UVM_INFO ../10_tb/axi4_mst/axi4_mst_driver.sv(178) @ 205000: uvm_test_top.env.axi_agent.drv [axi4_mst_driver] [DRV][AXI][AW] id=0xa addr=0x1100 burst=AXI4_BURST_INCR beats=1 size=8B
# UVM_INFO ../10_tb/axi4_mst/axi4_mst_driver.sv(198) @ 205000: uvm_test_top.env.axi_agent.drv [axi4_mst_driver] [DRV][AXI][W] id=0xa beat=1/1 data=0x1817161514131211 strb=0xff last=1
# UVM_INFO ../10_tb/axi4_mst/axi4_mst_monitor.sv(151) @ 205000: uvm_test_top.env.axi_agent.mon [axi4_mst_monitor] [MON][AXI][REQ] AXI4 AXI4_WRITE id=0xa addr=0x1100 burst=AXI4_BURST_INCR beats=1 size=8B lock=0
# UVM_INFO ../10_tb/env/predictor.sv(75) @ 205000: uvm_test_top.env.pred [predictor] [PRED][AXI][IN] AXI4 AXI4_WRITE id=0xa addr=0x1100 burst=AXI4_BURST_INCR beats=1 size=8B lock=0 | queued=1
# UVM_INFO ../10_tb/env/predictor.sv(138) @ 205000: uvm_test_top.env.pred [predictor] [PRED][MAP] AXI4 AXI4_WRITE id=0xa addr=0x1100 burst=AXI4_BURST_INCR beats=1 size=8B lock=0 -> AHB burst=AHB_BURST_SINGLE size=8B crosses_1kb=0
# UVM_INFO ../10_tb/env/predictor.sv(169) @ 205000: uvm_test_top.env.pred [predictor] [PRED][AHB] beat=1/1 | AHB AHB_WRITE addr=0x1100 trans=AHB_TRANS_NONSEQ burst=AHB_BURST_SINGLE size=8B mastlock=0 resp=AHB_RESP_OKAY waits=0 | wdata=0x1817161514131211
# UVM_INFO ../10_tb/ahb_slv/ahb_slv_driver.sv(87) @ 215000: uvm_test_top.env.ahb_agent.drv [ahb_slv_driver] [DRV][AHB][REQ] AHB_WRITE addr=0x1100 trans=AHB_TRANS_NONSEQ burst=AHB_BURST_SINGLE size=8B
# UVM_INFO ../10_tb/ahb_slv/ahb_slv_driver.sv(201) @ 225000: uvm_test_top.env.ahb_agent.drv [ahb_slv_driver] [DRV][AHB][RSP] AHB_WRITE addr=0x1100 data=0x1817161514131211 resp=AHB_RESP_OKAY ready_delay=0
# UVM_INFO ../10_tb/ahb_slv/ahb_slv_monitor.sv(119) @ 225000: uvm_test_top.env.ahb_agent.mon [ahb_slv_monitor] [MON][AHB][TR] AHB AHB_WRITE addr=0x1100 trans=AHB_TRANS_NONSEQ burst=AHB_BURST_SINGLE size=8B mastlock=0 resp=AHB_RESP_OKAY waits=0 | data=0x1817161514131211
# UVM_INFO ../10_tb/env/scoreboard.sv(359) @ 225000: uvm_test_top.env.scb [scoreboard] [SCB][AHB][PASS] AHB AHB_WRITE addr=0x1100 trans=AHB_TRANS_NONSEQ burst=AHB_BURST_SINGLE size=8B mastlock=0 resp=AHB_RESP_OKAY waits=0 | data=0x1817161514131211 | total=2
# UVM_INFO ../10_tb/axi4_mst/axi4_mst_driver.sv(250) @ 235000: uvm_test_top.env.axi_agent.drv [axi4_mst_driver] [DRV][AXI][B] id=0xa resp=AXI4_RESP_OKAY
# UVM_INFO ../10_tb/axi4_mst/axi4_mst_monitor.sv(177) @ 235000: uvm_test_top.env.axi_agent.mon [axi4_mst_monitor] [MON][AXI][RSP] WRITE id=0xa resp=AXI4_RESP_OKAY
# UVM_INFO ../10_tb/env/scoreboard.sv(499) @ 235000: uvm_test_top.env.scb [scoreboard] [SCB][AXI][PASS] AXI4 AXI4_WRITE id=0xa addr=0x1100 burst=AXI4_BURST_INCR beats=1 size=8B lock=0 | bresp=AXI4_RESP_OKAY | total=2
# UVM_INFO ../10_tb/seq/axi4_mst_seq/axi4_mst_parameter_seq.sv(203) @ 235000: uvm_test_top.env.axi_agent.sqr@@axi_seq [axi4_mst_parameter_seq] [2] INCR4_RD addr=0x1200 beats=4 size=8B burst=AXI4_BURST_INCR
# UVM_INFO ../10_tb/axi4_mst/axi4_mst_driver.sv(105) @ 235000: uvm_test_top.env.axi_agent.drv [axi4_mst_driver] [DRV][AXI][REQ] AXI4 AXI4_READ id=0x3 addr=0x1200 burst=AXI4_BURST_INCR beats=4 size=8B lock=0 | outstanding=1
# UVM_INFO ../10_tb/axi4_mst/axi4_mst_driver.sv(225) @ 265000: uvm_test_top.env.axi_agent.drv [axi4_mst_driver] [DRV][AXI][AR] id=0x3 addr=0x1200 burst=AXI4_BURST_INCR beats=4 size=8B
# UVM_INFO ../10_tb/axi4_mst/axi4_mst_monitor.sv(211) @ 265000: uvm_test_top.env.axi_agent.mon [axi4_mst_monitor] [MON][AXI][REQ] AXI4 AXI4_READ id=0x3 addr=0x1200 burst=AXI4_BURST_INCR beats=4 size=8B lock=0
# UVM_INFO ../10_tb/env/predictor.sv(75) @ 265000: uvm_test_top.env.pred [predictor] [PRED][AXI][IN] AXI4 AXI4_READ id=0x3 addr=0x1200 burst=AXI4_BURST_INCR beats=4 size=8B lock=0 | queued=1
# UVM_INFO ../10_tb/env/predictor.sv(138) @ 265000: uvm_test_top.env.pred [predictor] [PRED][MAP] AXI4 AXI4_READ id=0x3 addr=0x1200 burst=AXI4_BURST_INCR beats=4 size=8B lock=0 -> AHB burst=AHB_BURST_INCR4 size=8B crosses_1kb=0
# UVM_INFO ../10_tb/env/predictor.sv(175) @ 265000: uvm_test_top.env.pred [predictor] [PRED][AHB] beat=1/4 | AHB AHB_READ addr=0x1200 trans=AHB_TRANS_NONSEQ burst=AHB_BURST_INCR4 size=8B mastlock=0 resp=AHB_RESP_OKAY waits=0
# UVM_INFO ../10_tb/env/predictor.sv(175) @ 265000: uvm_test_top.env.pred [predictor] [PRED][AHB] beat=2/4 | AHB AHB_READ addr=0x1208 trans=AHB_TRANS_SEQ burst=AHB_BURST_INCR4 size=8B mastlock=0 resp=AHB_RESP_OKAY waits=0
# UVM_INFO ../10_tb/env/predictor.sv(175) @ 265000: uvm_test_top.env.pred [predictor] [PRED][AHB] beat=3/4 | AHB AHB_READ addr=0x1210 trans=AHB_TRANS_SEQ burst=AHB_BURST_INCR4 size=8B mastlock=0 resp=AHB_RESP_OKAY waits=0
# UVM_INFO ../10_tb/env/predictor.sv(175) @ 265000: uvm_test_top.env.pred [predictor] [PRED][AHB] beat=4/4 | AHB AHB_READ addr=0x1218 trans=AHB_TRANS_SEQ burst=AHB_BURST_INCR4 size=8B mastlock=0 resp=AHB_RESP_OKAY waits=0
# UVM_INFO ../10_tb/ahb_slv/ahb_slv_driver.sv(87) @ 275000: uvm_test_top.env.ahb_agent.drv [ahb_slv_driver] [DRV][AHB][REQ] AHB_READ addr=0x1200 trans=AHB_TRANS_NONSEQ burst=AHB_BURST_INCR4 size=8B
# UVM_INFO ../10_tb/ahb_slv/ahb_slv_driver.sv(201) @ 285000: uvm_test_top.env.ahb_agent.drv [ahb_slv_driver] [DRV][AHB][RSP] AHB_READ addr=0x1200 data=0x1200ffffedff resp=AHB_RESP_OKAY ready_delay=0
# UVM_INFO ../10_tb/ahb_slv/ahb_slv_monitor.sv(119) @ 285000: uvm_test_top.env.ahb_agent.mon [ahb_slv_monitor] [MON][AHB][TR] AHB AHB_READ addr=0x1200 trans=AHB_TRANS_NONSEQ burst=AHB_BURST_INCR4 size=8B mastlock=0 resp=AHB_RESP_OKAY waits=0 | data=0x1200ffffedff
# UVM_INFO ../10_tb/env/scoreboard.sv(359) @ 285000: uvm_test_top.env.scb [scoreboard] [SCB][AHB][PASS] AHB AHB_READ addr=0x1200 trans=AHB_TRANS_NONSEQ burst=AHB_BURST_INCR4 size=8B mastlock=0 resp=AHB_RESP_OKAY waits=0 | data=0x1200ffffedff | total=3
# UVM_INFO ../10_tb/ahb_slv/ahb_slv_driver.sv(87) @ 295000: uvm_test_top.env.ahb_agent.drv [ahb_slv_driver] [DRV][AHB][REQ] AHB_READ addr=0x1208 trans=AHB_TRANS_SEQ burst=AHB_BURST_INCR4 size=8B
# UVM_INFO ../10_tb/ahb_slv/ahb_slv_driver.sv(201) @ 305000: uvm_test_top.env.ahb_agent.drv [ahb_slv_driver] [DRV][AHB][RSP] AHB_READ addr=0x1208 data=0x1208ffffedf7 resp=AHB_RESP_OKAY ready_delay=0
# UVM_INFO ../10_tb/ahb_slv/ahb_slv_monitor.sv(119) @ 305000: uvm_test_top.env.ahb_agent.mon [ahb_slv_monitor] [MON][AHB][TR] AHB AHB_READ addr=0x1208 trans=AHB_TRANS_SEQ burst=AHB_BURST_INCR4 size=8B mastlock=0 resp=AHB_RESP_OKAY waits=0 | data=0x1208ffffedf7
# UVM_INFO ../10_tb/env/scoreboard.sv(359) @ 305000: uvm_test_top.env.scb [scoreboard] [SCB][AHB][PASS] AHB AHB_READ addr=0x1208 trans=AHB_TRANS_SEQ burst=AHB_BURST_INCR4 size=8B mastlock=0 resp=AHB_RESP_OKAY waits=0 | data=0x1208ffffedf7 | total=4
# UVM_INFO ../10_tb/axi4_mst/axi4_mst_driver.sv(290) @ 305000: uvm_test_top.env.axi_agent.drv [axi4_mst_driver] [DRV][AXI][R] id=0x3 beat=1/4 data=0x1200ffffedff resp=AXI4_RESP_OKAY last=0
# UVM_INFO ../10_tb/axi4_mst/axi4_mst_monitor.sv(256) @ 305000: uvm_test_top.env.axi_agent.mon [axi4_mst_monitor] [MON][AXI][R] id=0x3 beat=1/4 data=0x1200ffffedff resp=AXI4_RESP_OKAY last=0
# UVM_INFO ../10_tb/ahb_slv/ahb_slv_driver.sv(87) @ 315000: uvm_test_top.env.ahb_agent.drv [ahb_slv_driver] [DRV][AHB][REQ] AHB_READ addr=0x1210 trans=AHB_TRANS_SEQ burst=AHB_BURST_INCR4 size=8B
# UVM_INFO ../10_tb/ahb_slv/ahb_slv_driver.sv(201) @ 325000: uvm_test_top.env.ahb_agent.drv [ahb_slv_driver] [DRV][AHB][RSP] AHB_READ addr=0x1210 data=0x1210ffffedef resp=AHB_RESP_OKAY ready_delay=0
# UVM_INFO ../10_tb/ahb_slv/ahb_slv_monitor.sv(119) @ 325000: uvm_test_top.env.ahb_agent.mon [ahb_slv_monitor] [MON][AHB][TR] AHB AHB_READ addr=0x1210 trans=AHB_TRANS_SEQ burst=AHB_BURST_INCR4 size=8B mastlock=0 resp=AHB_RESP_OKAY waits=0 | data=0x1210ffffedef
# UVM_INFO ../10_tb/env/scoreboard.sv(359) @ 325000: uvm_test_top.env.scb [scoreboard] [SCB][AHB][PASS] AHB AHB_READ addr=0x1210 trans=AHB_TRANS_SEQ burst=AHB_BURST_INCR4 size=8B mastlock=0 resp=AHB_RESP_OKAY waits=0 | data=0x1210ffffedef | total=5
# UVM_INFO ../10_tb/axi4_mst/axi4_mst_driver.sv(290) @ 325000: uvm_test_top.env.axi_agent.drv [axi4_mst_driver] [DRV][AXI][R] id=0x3 beat=2/4 data=0x1208ffffedf7 resp=AXI4_RESP_OKAY last=0
# UVM_INFO ../10_tb/axi4_mst/axi4_mst_monitor.sv(256) @ 325000: uvm_test_top.env.axi_agent.mon [axi4_mst_monitor] [MON][AXI][R] id=0x3 beat=2/4 data=0x1208ffffedf7 resp=AXI4_RESP_OKAY last=0
# UVM_INFO ../10_tb/ahb_slv/ahb_slv_driver.sv(87) @ 335000: uvm_test_top.env.ahb_agent.drv [ahb_slv_driver] [DRV][AHB][REQ] AHB_READ addr=0x1218 trans=AHB_TRANS_SEQ burst=AHB_BURST_INCR4 size=8B
# UVM_INFO ../10_tb/ahb_slv/ahb_slv_driver.sv(201) @ 345000: uvm_test_top.env.ahb_agent.drv [ahb_slv_driver] [DRV][AHB][RSP] AHB_READ addr=0x1218 data=0x1218ffffede7 resp=AHB_RESP_OKAY ready_delay=0
# UVM_INFO ../10_tb/ahb_slv/ahb_slv_monitor.sv(119) @ 345000: uvm_test_top.env.ahb_agent.mon [ahb_slv_monitor] [MON][AHB][TR] AHB AHB_READ addr=0x1218 trans=AHB_TRANS_SEQ burst=AHB_BURST_INCR4 size=8B mastlock=0 resp=AHB_RESP_OKAY waits=0 | data=0x1218ffffede7
# UVM_INFO ../10_tb/env/scoreboard.sv(359) @ 345000: uvm_test_top.env.scb [scoreboard] [SCB][AHB][PASS] AHB AHB_READ addr=0x1218 trans=AHB_TRANS_SEQ burst=AHB_BURST_INCR4 size=8B mastlock=0 resp=AHB_RESP_OKAY waits=0 | data=0x1218ffffede7 | total=6
# UVM_INFO ../10_tb/axi4_mst/axi4_mst_driver.sv(290) @ 345000: uvm_test_top.env.axi_agent.drv [axi4_mst_driver] [DRV][AXI][R] id=0x3 beat=3/4 data=0x1210ffffedef resp=AXI4_RESP_OKAY last=0
# UVM_INFO ../10_tb/axi4_mst/axi4_mst_monitor.sv(256) @ 345000: uvm_test_top.env.axi_agent.mon [axi4_mst_monitor] [MON][AXI][R] id=0x3 beat=3/4 data=0x1210ffffedef resp=AXI4_RESP_OKAY last=0
# UVM_INFO ../10_tb/axi4_mst/axi4_mst_driver.sv(290) @ 365000: uvm_test_top.env.axi_agent.drv [axi4_mst_driver] [DRV][AXI][R] id=0x3 beat=4/4 data=0x1218ffffede7 resp=AXI4_RESP_OKAY last=1
# UVM_INFO ../10_tb/axi4_mst/axi4_mst_monitor.sv(256) @ 365000: uvm_test_top.env.axi_agent.mon [axi4_mst_monitor] [MON][AXI][R] id=0x3 beat=4/4 data=0x1218ffffede7 resp=AXI4_RESP_OKAY last=1
# UVM_INFO ../10_tb/axi4_mst/axi4_mst_monitor.sv(262) @ 365000: uvm_test_top.env.axi_agent.mon [axi4_mst_monitor] [MON][AXI][RSP] READ id=0x3 beats=4
# UVM_INFO ../10_tb/env/scoreboard.sv(506) @ 365000: uvm_test_top.env.scb [scoreboard] [SCB][AXI][PASS] AXI4 AXI4_READ id=0x3 addr=0x1200 burst=AXI4_BURST_INCR beats=4 size=8B lock=0 | read beats=4 | total=3
# UVM_INFO ../10_tb/seq/axi4_mst_seq/axi4_mst_parameter_seq.sv(203) @ 365000: uvm_test_top.env.axi_agent.sqr@@axi_seq [axi4_mst_parameter_seq] [3] INCR4_WR addr=0x1300 beats=4 size=8B burst=AXI4_BURST_INCR
# UVM_INFO ../10_tb/axi4_mst/axi4_mst_driver.sv(105) @ 365000: uvm_test_top.env.axi_agent.drv [axi4_mst_driver] [DRV][AXI][REQ] AXI4 AXI4_WRITE id=0x2 addr=0x1300 burst=AXI4_BURST_INCR beats=4 size=8B lock=0 | outstanding=1
# UVM_INFO ../10_tb/axi4_mst/axi4_mst_driver.sv(178) @ 405000: uvm_test_top.env.axi_agent.drv [axi4_mst_driver] [DRV][AXI][AW] id=0x2 addr=0x1300 burst=AXI4_BURST_INCR beats=4 size=8B
# UVM_INFO ../10_tb/axi4_mst/axi4_mst_driver.sv(198) @ 405000: uvm_test_top.env.axi_agent.drv [axi4_mst_driver] [DRV][AXI][W] id=0x2 beat=1/4 data=0x1a19181716151413 strb=0xff last=0
# UVM_INFO ../10_tb/ahb_slv/ahb_slv_driver.sv(87) @ 415000: uvm_test_top.env.ahb_agent.drv [ahb_slv_driver] [DRV][AHB][REQ] AHB_WRITE addr=0x1300 trans=AHB_TRANS_NONSEQ burst=AHB_BURST_INCR4 size=8B
# UVM_INFO ../10_tb/ahb_slv/ahb_slv_driver.sv(201) @ 425000: uvm_test_top.env.ahb_agent.drv [ahb_slv_driver] [DRV][AHB][RSP] AHB_WRITE addr=0x1300 data=0x1a19181716151413 resp=AHB_RESP_OKAY ready_delay=0
# UVM_INFO ../10_tb/ahb_slv/ahb_slv_monitor.sv(119) @ 425000: uvm_test_top.env.ahb_agent.mon [ahb_slv_monitor] [MON][AHB][TR] AHB AHB_WRITE addr=0x1300 trans=AHB_TRANS_NONSEQ burst=AHB_BURST_INCR4 size=8B mastlock=0 resp=AHB_RESP_OKAY waits=0 | data=0x1a19181716151413
# UVM_INFO ../10_tb/ahb_slv/ahb_slv_driver.sv(87) @ 435000: uvm_test_top.env.ahb_agent.drv [ahb_slv_driver] [DRV][AHB][REQ] AHB_WRITE addr=0x1308 trans=AHB_TRANS_SEQ burst=AHB_BURST_INCR4 size=8B
# UVM_INFO ../10_tb/axi4_mst/axi4_mst_driver.sv(198) @ 435000: uvm_test_top.env.axi_agent.drv [axi4_mst_driver] [DRV][AXI][W] id=0x2 beat=2/4 data=0x1e1d1c1b1a191817 strb=0xff last=0
# UVM_INFO ../10_tb/ahb_slv/ahb_slv_driver.sv(201) @ 445000: uvm_test_top.env.ahb_agent.drv [ahb_slv_driver] [DRV][AHB][RSP] AHB_WRITE addr=0x1308 data=0x1e1d1c1b1a191817 resp=AHB_RESP_OKAY ready_delay=0
# UVM_INFO ../10_tb/ahb_slv/ahb_slv_monitor.sv(119) @ 445000: uvm_test_top.env.ahb_agent.mon [ahb_slv_monitor] [MON][AHB][TR] AHB AHB_WRITE addr=0x1308 trans=AHB_TRANS_SEQ burst=AHB_BURST_INCR4 size=8B mastlock=0 resp=AHB_RESP_OKAY waits=0 | data=0x1e1d1c1b1a191817
# UVM_INFO ../10_tb/ahb_slv/ahb_slv_driver.sv(87) @ 455000: uvm_test_top.env.ahb_agent.drv [ahb_slv_driver] [DRV][AHB][REQ] AHB_WRITE addr=0x1310 trans=AHB_TRANS_SEQ burst=AHB_BURST_INCR4 size=8B
# UVM_INFO ../10_tb/axi4_mst/axi4_mst_driver.sv(198) @ 455000: uvm_test_top.env.axi_agent.drv [axi4_mst_driver] [DRV][AXI][W] id=0x2 beat=3/4 data=0x2221201f1e1d1c1b strb=0xff last=0
# UVM_INFO ../10_tb/ahb_slv/ahb_slv_driver.sv(201) @ 465000: uvm_test_top.env.ahb_agent.drv [ahb_slv_driver] [DRV][AHB][RSP] AHB_WRITE addr=0x1310 data=0x2221201f1e1d1c1b resp=AHB_RESP_OKAY ready_delay=0
# UVM_INFO ../10_tb/ahb_slv/ahb_slv_monitor.sv(119) @ 465000: uvm_test_top.env.ahb_agent.mon [ahb_slv_monitor] [MON][AHB][TR] AHB AHB_WRITE addr=0x1310 trans=AHB_TRANS_SEQ burst=AHB_BURST_INCR4 size=8B mastlock=0 resp=AHB_RESP_OKAY waits=0 | data=0x2221201f1e1d1c1b
# UVM_INFO ../10_tb/ahb_slv/ahb_slv_driver.sv(87) @ 475000: uvm_test_top.env.ahb_agent.drv [ahb_slv_driver] [DRV][AHB][REQ] AHB_WRITE addr=0x1318 trans=AHB_TRANS_SEQ burst=AHB_BURST_INCR4 size=8B
# UVM_INFO ../10_tb/axi4_mst/axi4_mst_driver.sv(198) @ 475000: uvm_test_top.env.axi_agent.drv [axi4_mst_driver] [DRV][AXI][W] id=0x2 beat=4/4 data=0x262524232221201f strb=0xff last=1
# UVM_INFO ../10_tb/axi4_mst/axi4_mst_monitor.sv(151) @ 475000: uvm_test_top.env.axi_agent.mon [axi4_mst_monitor] [MON][AXI][REQ] AXI4 AXI4_WRITE id=0x2 addr=0x1300 burst=AXI4_BURST_INCR beats=4 size=8B lock=0
# UVM_INFO ../10_tb/env/predictor.sv(75) @ 475000: uvm_test_top.env.pred [predictor] [PRED][AXI][IN] AXI4 AXI4_WRITE id=0x2 addr=0x1300 burst=AXI4_BURST_INCR beats=4 size=8B lock=0 | queued=1
# UVM_INFO ../10_tb/env/predictor.sv(138) @ 475000: uvm_test_top.env.pred [predictor] [PRED][MAP] AXI4 AXI4_WRITE id=0x2 addr=0x1300 burst=AXI4_BURST_INCR beats=4 size=8B lock=0 -> AHB burst=AHB_BURST_INCR4 size=8B crosses_1kb=0
# UVM_INFO ../10_tb/env/predictor.sv(169) @ 475000: uvm_test_top.env.pred [predictor] [PRED][AHB] beat=1/4 | AHB AHB_WRITE addr=0x1300 trans=AHB_TRANS_NONSEQ burst=AHB_BURST_INCR4 size=8B mastlock=0 resp=AHB_RESP_OKAY waits=0 | wdata=0x1a19181716151413
# UVM_INFO ../10_tb/env/scoreboard.sv(359) @ 475000: uvm_test_top.env.scb [scoreboard] [SCB][AHB][PASS] AHB AHB_WRITE addr=0x1300 trans=AHB_TRANS_NONSEQ burst=AHB_BURST_INCR4 size=8B mastlock=0 resp=AHB_RESP_OKAY waits=0 | data=0x1a19181716151413 | total=7
# UVM_INFO ../10_tb/env/predictor.sv(169) @ 475000: uvm_test_top.env.pred [predictor] [PRED][AHB] beat=2/4 | AHB AHB_WRITE addr=0x1308 trans=AHB_TRANS_SEQ burst=AHB_BURST_INCR4 size=8B mastlock=0 resp=AHB_RESP_OKAY waits=0 | wdata=0x1e1d1c1b1a191817
# UVM_INFO ../10_tb/env/scoreboard.sv(359) @ 475000: uvm_test_top.env.scb [scoreboard] [SCB][AHB][PASS] AHB AHB_WRITE addr=0x1308 trans=AHB_TRANS_SEQ burst=AHB_BURST_INCR4 size=8B mastlock=0 resp=AHB_RESP_OKAY waits=0 | data=0x1e1d1c1b1a191817 | total=8
# UVM_INFO ../10_tb/env/predictor.sv(169) @ 475000: uvm_test_top.env.pred [predictor] [PRED][AHB] beat=3/4 | AHB AHB_WRITE addr=0x1310 trans=AHB_TRANS_SEQ burst=AHB_BURST_INCR4 size=8B mastlock=0 resp=AHB_RESP_OKAY waits=0 | wdata=0x2221201f1e1d1c1b
# UVM_INFO ../10_tb/env/scoreboard.sv(359) @ 475000: uvm_test_top.env.scb [scoreboard] [SCB][AHB][PASS] AHB AHB_WRITE addr=0x1310 trans=AHB_TRANS_SEQ burst=AHB_BURST_INCR4 size=8B mastlock=0 resp=AHB_RESP_OKAY waits=0 | data=0x2221201f1e1d1c1b | total=9
# UVM_INFO ../10_tb/env/predictor.sv(169) @ 475000: uvm_test_top.env.pred [predictor] [PRED][AHB] beat=4/4 | AHB AHB_WRITE addr=0x1318 trans=AHB_TRANS_SEQ burst=AHB_BURST_INCR4 size=8B mastlock=0 resp=AHB_RESP_OKAY waits=0 | wdata=0x262524232221201f
# UVM_INFO ../10_tb/ahb_slv/ahb_slv_driver.sv(201) @ 485000: uvm_test_top.env.ahb_agent.drv [ahb_slv_driver] [DRV][AHB][RSP] AHB_WRITE addr=0x1318 data=0x262524232221201f resp=AHB_RESP_OKAY ready_delay=0
# UVM_INFO ../10_tb/ahb_slv/ahb_slv_monitor.sv(119) @ 485000: uvm_test_top.env.ahb_agent.mon [ahb_slv_monitor] [MON][AHB][TR] AHB AHB_WRITE addr=0x1318 trans=AHB_TRANS_SEQ burst=AHB_BURST_INCR4 size=8B mastlock=0 resp=AHB_RESP_OKAY waits=0 | data=0x262524232221201f
# UVM_INFO ../10_tb/env/scoreboard.sv(359) @ 485000: uvm_test_top.env.scb [scoreboard] [SCB][AHB][PASS] AHB AHB_WRITE addr=0x1318 trans=AHB_TRANS_SEQ burst=AHB_BURST_INCR4 size=8B mastlock=0 resp=AHB_RESP_OKAY waits=0 | data=0x262524232221201f | total=10
# UVM_INFO ../10_tb/axi4_mst/axi4_mst_driver.sv(250) @ 495000: uvm_test_top.env.axi_agent.drv [axi4_mst_driver] [DRV][AXI][B] id=0x2 resp=AXI4_RESP_OKAY
# UVM_INFO ../10_tb/axi4_mst/axi4_mst_monitor.sv(177) @ 495000: uvm_test_top.env.axi_agent.mon [axi4_mst_monitor] [MON][AXI][RSP] WRITE id=0x2 resp=AXI4_RESP_OKAY
# UVM_INFO ../10_tb/env/scoreboard.sv(499) @ 495000: uvm_test_top.env.scb [scoreboard] [SCB][AXI][PASS] AXI4 AXI4_WRITE id=0x2 addr=0x1300 burst=AXI4_BURST_INCR beats=4 size=8B lock=0 | bresp=AXI4_RESP_OKAY | total=4
# UVM_INFO ../10_tb/seq/axi4_mst_seq/axi4_mst_parameter_seq.sv(203) @ 495000: uvm_test_top.env.axi_agent.sqr@@axi_seq [axi4_mst_parameter_seq] [4] INCR16_RD addr=0x1400 beats=16 size=8B burst=AXI4_BURST_INCR
# UVM_INFO ../10_tb/axi4_mst/axi4_mst_driver.sv(105) @ 495000: uvm_test_top.env.axi_agent.drv [axi4_mst_driver] [DRV][AXI][REQ] AXI4 AXI4_READ id=0x8 addr=0x1400 burst=AXI4_BURST_INCR beats=16 size=8B lock=0 | outstanding=1
# UVM_INFO ../10_tb/axi4_mst/axi4_mst_driver.sv(225) @ 525000: uvm_test_top.env.axi_agent.drv [axi4_mst_driver] [DRV][AXI][AR] id=0x8 addr=0x1400 burst=AXI4_BURST_INCR beats=16 size=8B
# UVM_INFO ../10_tb/axi4_mst/axi4_mst_monitor.sv(211) @ 525000: uvm_test_top.env.axi_agent.mon [axi4_mst_monitor] [MON][AXI][REQ] AXI4 AXI4_READ id=0x8 addr=0x1400 burst=AXI4_BURST_INCR beats=16 size=8B lock=0
# UVM_INFO ../10_tb/env/predictor.sv(75) @ 525000: uvm_test_top.env.pred [predictor] [PRED][AXI][IN] AXI4 AXI4_READ id=0x8 addr=0x1400 burst=AXI4_BURST_INCR beats=16 size=8B lock=0 | queued=1
# UVM_INFO ../10_tb/env/predictor.sv(138) @ 525000: uvm_test_top.env.pred [predictor] [PRED][MAP] AXI4 AXI4_READ id=0x8 addr=0x1400 burst=AXI4_BURST_INCR beats=16 size=8B lock=0 -> AHB burst=AHB_BURST_INCR16 size=8B crosses_1kb=0
# UVM_INFO ../10_tb/env/predictor.sv(175) @ 525000: uvm_test_top.env.pred [predictor] [PRED][AHB] beat=1/16 | AHB AHB_READ addr=0x1400 trans=AHB_TRANS_NONSEQ burst=AHB_BURST_INCR16 size=8B mastlock=0 resp=AHB_RESP_OKAY waits=0
# UVM_INFO ../10_tb/env/predictor.sv(175) @ 525000: uvm_test_top.env.pred [predictor] [PRED][AHB] beat=2/16 | AHB AHB_READ addr=0x1408 trans=AHB_TRANS_SEQ burst=AHB_BURST_INCR16 size=8B mastlock=0 resp=AHB_RESP_OKAY waits=0
# UVM_INFO ../10_tb/env/predictor.sv(175) @ 525000: uvm_test_top.env.pred [predictor] [PRED][AHB] beat=3/16 | AHB AHB_READ addr=0x1410 trans=AHB_TRANS_SEQ burst=AHB_BURST_INCR16 size=8B mastlock=0 resp=AHB_RESP_OKAY waits=0
# UVM_INFO ../10_tb/env/predictor.sv(175) @ 525000: uvm_test_top.env.pred [predictor] [PRED][AHB] beat=4/16 | AHB AHB_READ addr=0x1418 trans=AHB_TRANS_SEQ burst=AHB_BURST_INCR16 size=8B mastlock=0 resp=AHB_RESP_OKAY waits=0
# UVM_INFO ../10_tb/env/predictor.sv(175) @ 525000: uvm_test_top.env.pred [predictor] [PRED][AHB] beat=5/16 | AHB AHB_READ addr=0x1420 trans=AHB_TRANS_SEQ burst=AHB_BURST_INCR16 size=8B mastlock=0 resp=AHB_RESP_OKAY waits=0
# UVM_INFO ../10_tb/env/predictor.sv(175) @ 525000: uvm_test_top.env.pred [predictor] [PRED][AHB] beat=6/16 | AHB AHB_READ addr=0x1428 trans=AHB_TRANS_SEQ burst=AHB_BURST_INCR16 size=8B mastlock=0 resp=AHB_RESP_OKAY waits=0
# UVM_INFO ../10_tb/env/predictor.sv(175) @ 525000: uvm_test_top.env.pred [predictor] [PRED][AHB] beat=7/16 | AHB AHB_READ addr=0x1430 trans=AHB_TRANS_SEQ burst=AHB_BURST_INCR16 size=8B mastlock=0 resp=AHB_RESP_OKAY waits=0
# UVM_INFO ../10_tb/env/predictor.sv(175) @ 525000: uvm_test_top.env.pred [predictor] [PRED][AHB] beat=8/16 | AHB AHB_READ addr=0x1438 trans=AHB_TRANS_SEQ burst=AHB_BURST_INCR16 size=8B mastlock=0 resp=AHB_RESP_OKAY waits=0
# UVM_INFO ../10_tb/env/predictor.sv(175) @ 525000: uvm_test_top.env.pred [predictor] [PRED][AHB] beat=9/16 | AHB AHB_READ addr=0x1440 trans=AHB_TRANS_SEQ burst=AHB_BURST_INCR16 size=8B mastlock=0 resp=AHB_RESP_OKAY waits=0
# UVM_INFO ../10_tb/env/predictor.sv(175) @ 525000: uvm_test_top.env.pred [predictor] [PRED][AHB] beat=10/16 | AHB AHB_READ addr=0x1448 trans=AHB_TRANS_SEQ burst=AHB_BURST_INCR16 size=8B mastlock=0 resp=AHB_RESP_OKAY waits=0
# UVM_INFO ../10_tb/env/predictor.sv(175) @ 525000: uvm_test_top.env.pred [predictor] [PRED][AHB] beat=11/16 | AHB AHB_READ addr=0x1450 trans=AHB_TRANS_SEQ burst=AHB_BURST_INCR16 size=8B mastlock=0 resp=AHB_RESP_OKAY waits=0
# UVM_INFO ../10_tb/env/predictor.sv(175) @ 525000: uvm_test_top.env.pred [predictor] [PRED][AHB] beat=12/16 | AHB AHB_READ addr=0x1458 trans=AHB_TRANS_SEQ burst=AHB_BURST_INCR16 size=8B mastlock=0 resp=AHB_RESP_OKAY waits=0
# UVM_INFO ../10_tb/env/predictor.sv(175) @ 525000: uvm_test_top.env.pred [predictor] [PRED][AHB] beat=13/16 | AHB AHB_READ addr=0x1460 trans=AHB_TRANS_SEQ burst=AHB_BURST_INCR16 size=8B mastlock=0 resp=AHB_RESP_OKAY waits=0
# UVM_INFO ../10_tb/env/predictor.sv(175) @ 525000: uvm_test_top.env.pred [predictor] [PRED][AHB] beat=14/16 | AHB AHB_READ addr=0x1468 trans=AHB_TRANS_SEQ burst=AHB_BURST_INCR16 size=8B mastlock=0 resp=AHB_RESP_OKAY waits=0
# UVM_INFO ../10_tb/env/predictor.sv(175) @ 525000: uvm_test_top.env.pred [predictor] [PRED][AHB] beat=15/16 | AHB AHB_READ addr=0x1470 trans=AHB_TRANS_SEQ burst=AHB_BURST_INCR16 size=8B mastlock=0 resp=AHB_RESP_OKAY waits=0
# UVM_INFO ../10_tb/env/predictor.sv(175) @ 525000: uvm_test_top.env.pred [predictor] [PRED][AHB] beat=16/16 | AHB AHB_READ addr=0x1478 trans=AHB_TRANS_SEQ burst=AHB_BURST_INCR16 size=8B mastlock=0 resp=AHB_RESP_OKAY waits=0
# UVM_INFO ../10_tb/ahb_slv/ahb_slv_driver.sv(87) @ 535000: uvm_test_top.env.ahb_agent.drv [ahb_slv_driver] [DRV][AHB][REQ] AHB_READ addr=0x1400 trans=AHB_TRANS_NONSEQ burst=AHB_BURST_INCR16 size=8B
# UVM_INFO ../10_tb/ahb_slv/ahb_slv_driver.sv(201) @ 545000: uvm_test_top.env.ahb_agent.drv [ahb_slv_driver] [DRV][AHB][RSP] AHB_READ addr=0x1400 data=0x1400ffffebff resp=AHB_RESP_OKAY ready_delay=0
# UVM_INFO ../10_tb/ahb_slv/ahb_slv_monitor.sv(119) @ 545000: uvm_test_top.env.ahb_agent.mon [ahb_slv_monitor] [MON][AHB][TR] AHB AHB_READ addr=0x1400 trans=AHB_TRANS_NONSEQ burst=AHB_BURST_INCR16 size=8B mastlock=0 resp=AHB_RESP_OKAY waits=0 | data=0x1400ffffebff
# UVM_INFO ../10_tb/env/scoreboard.sv(359) @ 545000: uvm_test_top.env.scb [scoreboard] [SCB][AHB][PASS] AHB AHB_READ addr=0x1400 trans=AHB_TRANS_NONSEQ burst=AHB_BURST_INCR16 size=8B mastlock=0 resp=AHB_RESP_OKAY waits=0 | data=0x1400ffffebff | total=11
# UVM_INFO ../10_tb/ahb_slv/ahb_slv_driver.sv(87) @ 555000: uvm_test_top.env.ahb_agent.drv [ahb_slv_driver] [DRV][AHB][REQ] AHB_READ addr=0x1408 trans=AHB_TRANS_SEQ burst=AHB_BURST_INCR16 size=8B
# UVM_INFO ../10_tb/ahb_slv/ahb_slv_driver.sv(201) @ 565000: uvm_test_top.env.ahb_agent.drv [ahb_slv_driver] [DRV][AHB][RSP] AHB_READ addr=0x1408 data=0x1408ffffebf7 resp=AHB_RESP_OKAY ready_delay=0
# UVM_INFO ../10_tb/ahb_slv/ahb_slv_monitor.sv(119) @ 565000: uvm_test_top.env.ahb_agent.mon [ahb_slv_monitor] [MON][AHB][TR] AHB AHB_READ addr=0x1408 trans=AHB_TRANS_SEQ burst=AHB_BURST_INCR16 size=8B mastlock=0 resp=AHB_RESP_OKAY waits=0 | data=0x1408ffffebf7
# UVM_INFO ../10_tb/env/scoreboard.sv(359) @ 565000: uvm_test_top.env.scb [scoreboard] [SCB][AHB][PASS] AHB AHB_READ addr=0x1408 trans=AHB_TRANS_SEQ burst=AHB_BURST_INCR16 size=8B mastlock=0 resp=AHB_RESP_OKAY waits=0 | data=0x1408ffffebf7 | total=12
# UVM_INFO ../10_tb/axi4_mst/axi4_mst_driver.sv(290) @ 565000: uvm_test_top.env.axi_agent.drv [axi4_mst_driver] [DRV][AXI][R] id=0x8 beat=1/16 data=0x1400ffffebff resp=AXI4_RESP_OKAY last=0
# UVM_INFO ../10_tb/axi4_mst/axi4_mst_monitor.sv(256) @ 565000: uvm_test_top.env.axi_agent.mon [axi4_mst_monitor] [MON][AXI][R] id=0x8 beat=1/16 data=0x1400ffffebff resp=AXI4_RESP_OKAY last=0
# UVM_INFO ../10_tb/ahb_slv/ahb_slv_driver.sv(87) @ 575000: uvm_test_top.env.ahb_agent.drv [ahb_slv_driver] [DRV][AHB][REQ] AHB_READ addr=0x1410 trans=AHB_TRANS_SEQ burst=AHB_BURST_INCR16 size=8B
# UVM_INFO ../10_tb/ahb_slv/ahb_slv_driver.sv(201) @ 585000: uvm_test_top.env.ahb_agent.drv [ahb_slv_driver] [DRV][AHB][RSP] AHB_READ addr=0x1410 data=0x1410ffffebef resp=AHB_RESP_OKAY ready_delay=0
# UVM_INFO ../10_tb/ahb_slv/ahb_slv_monitor.sv(119) @ 585000: uvm_test_top.env.ahb_agent.mon [ahb_slv_monitor] [MON][AHB][TR] AHB AHB_READ addr=0x1410 trans=AHB_TRANS_SEQ burst=AHB_BURST_INCR16 size=8B mastlock=0 resp=AHB_RESP_OKAY waits=0 | data=0x1410ffffebef
# UVM_INFO ../10_tb/env/scoreboard.sv(359) @ 585000: uvm_test_top.env.scb [scoreboard] [SCB][AHB][PASS] AHB AHB_READ addr=0x1410 trans=AHB_TRANS_SEQ burst=AHB_BURST_INCR16 size=8B mastlock=0 resp=AHB_RESP_OKAY waits=0 | data=0x1410ffffebef | total=13
# UVM_INFO ../10_tb/axi4_mst/axi4_mst_driver.sv(290) @ 585000: uvm_test_top.env.axi_agent.drv [axi4_mst_driver] [DRV][AXI][R] id=0x8 beat=2/16 data=0x1408ffffebf7 resp=AXI4_RESP_OKAY last=0
# UVM_INFO ../10_tb/axi4_mst/axi4_mst_monitor.sv(256) @ 585000: uvm_test_top.env.axi_agent.mon [axi4_mst_monitor] [MON][AXI][R] id=0x8 beat=2/16 data=0x1408ffffebf7 resp=AXI4_RESP_OKAY last=0
# UVM_INFO ../10_tb/ahb_slv/ahb_slv_driver.sv(87) @ 595000: uvm_test_top.env.ahb_agent.drv [ahb_slv_driver] [DRV][AHB][REQ] AHB_READ addr=0x1418 trans=AHB_TRANS_SEQ burst=AHB_BURST_INCR16 size=8B
# UVM_INFO ../10_tb/ahb_slv/ahb_slv_driver.sv(201) @ 605000: uvm_test_top.env.ahb_agent.drv [ahb_slv_driver] [DRV][AHB][RSP] AHB_READ addr=0x1418 data=0x1418ffffebe7 resp=AHB_RESP_OKAY ready_delay=0
# UVM_INFO ../10_tb/ahb_slv/ahb_slv_monitor.sv(119) @ 605000: uvm_test_top.env.ahb_agent.mon [ahb_slv_monitor] [MON][AHB][TR] AHB AHB_READ addr=0x1418 trans=AHB_TRANS_SEQ burst=AHB_BURST_INCR16 size=8B mastlock=0 resp=AHB_RESP_OKAY waits=0 | data=0x1418ffffebe7
# UVM_INFO ../10_tb/env/scoreboard.sv(359) @ 605000: uvm_test_top.env.scb [scoreboard] [SCB][AHB][PASS] AHB AHB_READ addr=0x1418 trans=AHB_TRANS_SEQ burst=AHB_BURST_INCR16 size=8B mastlock=0 resp=AHB_RESP_OKAY waits=0 | data=0x1418ffffebe7 | total=14
# UVM_INFO ../10_tb/axi4_mst/axi4_mst_driver.sv(290) @ 605000: uvm_test_top.env.axi_agent.drv [axi4_mst_driver] [DRV][AXI][R] id=0x8 beat=3/16 data=0x1410ffffebef resp=AXI4_RESP_OKAY last=0
# UVM_INFO ../10_tb/axi4_mst/axi4_mst_monitor.sv(256) @ 605000: uvm_test_top.env.axi_agent.mon [axi4_mst_monitor] [MON][AXI][R] id=0x8 beat=3/16 data=0x1410ffffebef resp=AXI4_RESP_OKAY last=0
# UVM_INFO ../10_tb/ahb_slv/ahb_slv_driver.sv(87) @ 615000: uvm_test_top.env.ahb_agent.drv [ahb_slv_driver] [DRV][AHB][REQ] AHB_READ addr=0x1420 trans=AHB_TRANS_SEQ burst=AHB_BURST_INCR16 size=8B
# UVM_INFO ../10_tb/ahb_slv/ahb_slv_driver.sv(201) @ 625000: uvm_test_top.env.ahb_agent.drv [ahb_slv_driver] [DRV][AHB][RSP] AHB_READ addr=0x1420 data=0x1420ffffebdf resp=AHB_RESP_OKAY ready_delay=0
# UVM_INFO ../10_tb/ahb_slv/ahb_slv_monitor.sv(119) @ 625000: uvm_test_top.env.ahb_agent.mon [ahb_slv_monitor] [MON][AHB][TR] AHB AHB_READ addr=0x1420 trans=AHB_TRANS_SEQ burst=AHB_BURST_INCR16 size=8B mastlock=0 resp=AHB_RESP_OKAY waits=0 | data=0x1420ffffebdf
# UVM_INFO ../10_tb/env/scoreboard.sv(359) @ 625000: uvm_test_top.env.scb [scoreboard] [SCB][AHB][PASS] AHB AHB_READ addr=0x1420 trans=AHB_TRANS_SEQ burst=AHB_BURST_INCR16 size=8B mastlock=0 resp=AHB_RESP_OKAY waits=0 | data=0x1420ffffebdf | total=15
# UVM_INFO ../10_tb/axi4_mst/axi4_mst_driver.sv(290) @ 625000: uvm_test_top.env.axi_agent.drv [axi4_mst_driver] [DRV][AXI][R] id=0x8 beat=4/16 data=0x1418ffffebe7 resp=AXI4_RESP_OKAY last=0
# UVM_INFO ../10_tb/axi4_mst/axi4_mst_monitor.sv(256) @ 625000: uvm_test_top.env.axi_agent.mon [axi4_mst_monitor] [MON][AXI][R] id=0x8 beat=4/16 data=0x1418ffffebe7 resp=AXI4_RESP_OKAY last=0
# UVM_INFO ../10_tb/ahb_slv/ahb_slv_driver.sv(87) @ 635000: uvm_test_top.env.ahb_agent.drv [ahb_slv_driver] [DRV][AHB][REQ] AHB_READ addr=0x1428 trans=AHB_TRANS_SEQ burst=AHB_BURST_INCR16 size=8B
# UVM_INFO ../10_tb/ahb_slv/ahb_slv_driver.sv(201) @ 645000: uvm_test_top.env.ahb_agent.drv [ahb_slv_driver] [DRV][AHB][RSP] AHB_READ addr=0x1428 data=0x1428ffffebd7 resp=AHB_RESP_OKAY ready_delay=0
# UVM_INFO ../10_tb/ahb_slv/ahb_slv_monitor.sv(119) @ 645000: uvm_test_top.env.ahb_agent.mon [ahb_slv_monitor] [MON][AHB][TR] AHB AHB_READ addr=0x1428 trans=AHB_TRANS_SEQ burst=AHB_BURST_INCR16 size=8B mastlock=0 resp=AHB_RESP_OKAY waits=0 | data=0x1428ffffebd7
# UVM_INFO ../10_tb/env/scoreboard.sv(359) @ 645000: uvm_test_top.env.scb [scoreboard] [SCB][AHB][PASS] AHB AHB_READ addr=0x1428 trans=AHB_TRANS_SEQ burst=AHB_BURST_INCR16 size=8B mastlock=0 resp=AHB_RESP_OKAY waits=0 | data=0x1428ffffebd7 | total=16
# UVM_INFO ../10_tb/axi4_mst/axi4_mst_driver.sv(290) @ 645000: uvm_test_top.env.axi_agent.drv [axi4_mst_driver] [DRV][AXI][R] id=0x8 beat=5/16 data=0x1420ffffebdf resp=AXI4_RESP_OKAY last=0
# UVM_INFO ../10_tb/axi4_mst/axi4_mst_monitor.sv(256) @ 645000: uvm_test_top.env.axi_agent.mon [axi4_mst_monitor] [MON][AXI][R] id=0x8 beat=5/16 data=0x1420ffffebdf resp=AXI4_RESP_OKAY last=0
# UVM_INFO ../10_tb/ahb_slv/ahb_slv_driver.sv(87) @ 655000: uvm_test_top.env.ahb_agent.drv [ahb_slv_driver] [DRV][AHB][REQ] AHB_READ addr=0x1430 trans=AHB_TRANS_SEQ burst=AHB_BURST_INCR16 size=8B
# UVM_INFO ../10_tb/ahb_slv/ahb_slv_driver.sv(201) @ 665000: uvm_test_top.env.ahb_agent.drv [ahb_slv_driver] [DRV][AHB][RSP] AHB_READ addr=0x1430 data=0x1430ffffebcf resp=AHB_RESP_OKAY ready_delay=0
# UVM_INFO ../10_tb/ahb_slv/ahb_slv_monitor.sv(119) @ 665000: uvm_test_top.env.ahb_agent.mon [ahb_slv_monitor] [MON][AHB][TR] AHB AHB_READ addr=0x1430 trans=AHB_TRANS_SEQ burst=AHB_BURST_INCR16 size=8B mastlock=0 resp=AHB_RESP_OKAY waits=0 | data=0x1430ffffebcf
# UVM_INFO ../10_tb/env/scoreboard.sv(359) @ 665000: uvm_test_top.env.scb [scoreboard] [SCB][AHB][PASS] AHB AHB_READ addr=0x1430 trans=AHB_TRANS_SEQ burst=AHB_BURST_INCR16 size=8B mastlock=0 resp=AHB_RESP_OKAY waits=0 | data=0x1430ffffebcf | total=17
# UVM_INFO ../10_tb/axi4_mst/axi4_mst_driver.sv(290) @ 665000: uvm_test_top.env.axi_agent.drv [axi4_mst_driver] [DRV][AXI][R] id=0x8 beat=6/16 data=0x1428ffffebd7 resp=AXI4_RESP_OKAY last=0
# UVM_INFO ../10_tb/axi4_mst/axi4_mst_monitor.sv(256) @ 665000: uvm_test_top.env.axi_agent.mon [axi4_mst_monitor] [MON][AXI][R] id=0x8 beat=6/16 data=0x1428ffffebd7 resp=AXI4_RESP_OKAY last=0
# UVM_INFO ../10_tb/ahb_slv/ahb_slv_driver.sv(87) @ 675000: uvm_test_top.env.ahb_agent.drv [ahb_slv_driver] [DRV][AHB][REQ] AHB_READ addr=0x1438 trans=AHB_TRANS_SEQ burst=AHB_BURST_INCR16 size=8B
# UVM_INFO ../10_tb/ahb_slv/ahb_slv_driver.sv(201) @ 685000: uvm_test_top.env.ahb_agent.drv [ahb_slv_driver] [DRV][AHB][RSP] AHB_READ addr=0x1438 data=0x1438ffffebc7 resp=AHB_RESP_OKAY ready_delay=0
# UVM_INFO ../10_tb/ahb_slv/ahb_slv_monitor.sv(119) @ 685000: uvm_test_top.env.ahb_agent.mon [ahb_slv_monitor] [MON][AHB][TR] AHB AHB_READ addr=0x1438 trans=AHB_TRANS_SEQ burst=AHB_BURST_INCR16 size=8B mastlock=0 resp=AHB_RESP_OKAY waits=0 | data=0x1438ffffebc7
# UVM_INFO ../10_tb/env/scoreboard.sv(359) @ 685000: uvm_test_top.env.scb [scoreboard] [SCB][AHB][PASS] AHB AHB_READ addr=0x1438 trans=AHB_TRANS_SEQ burst=AHB_BURST_INCR16 size=8B mastlock=0 resp=AHB_RESP_OKAY waits=0 | data=0x1438ffffebc7 | total=18
# UVM_INFO ../10_tb/axi4_mst/axi4_mst_driver.sv(290) @ 685000: uvm_test_top.env.axi_agent.drv [axi4_mst_driver] [DRV][AXI][R] id=0x8 beat=7/16 data=0x1430ffffebcf resp=AXI4_RESP_OKAY last=0
# UVM_INFO ../10_tb/axi4_mst/axi4_mst_monitor.sv(256) @ 685000: uvm_test_top.env.axi_agent.mon [axi4_mst_monitor] [MON][AXI][R] id=0x8 beat=7/16 data=0x1430ffffebcf resp=AXI4_RESP_OKAY last=0
# UVM_INFO ../10_tb/ahb_slv/ahb_slv_driver.sv(87) @ 695000: uvm_test_top.env.ahb_agent.drv [ahb_slv_driver] [DRV][AHB][REQ] AHB_READ addr=0x1440 trans=AHB_TRANS_SEQ burst=AHB_BURST_INCR16 size=8B
# UVM_INFO ../10_tb/ahb_slv/ahb_slv_driver.sv(201) @ 705000: uvm_test_top.env.ahb_agent.drv [ahb_slv_driver] [DRV][AHB][RSP] AHB_READ addr=0x1440 data=0x1440ffffebbf resp=AHB_RESP_OKAY ready_delay=0
# UVM_INFO ../10_tb/ahb_slv/ahb_slv_monitor.sv(119) @ 705000: uvm_test_top.env.ahb_agent.mon [ahb_slv_monitor] [MON][AHB][TR] AHB AHB_READ addr=0x1440 trans=AHB_TRANS_SEQ burst=AHB_BURST_INCR16 size=8B mastlock=0 resp=AHB_RESP_OKAY waits=0 | data=0x1440ffffebbf
# UVM_INFO ../10_tb/env/scoreboard.sv(359) @ 705000: uvm_test_top.env.scb [scoreboard] [SCB][AHB][PASS] AHB AHB_READ addr=0x1440 trans=AHB_TRANS_SEQ burst=AHB_BURST_INCR16 size=8B mastlock=0 resp=AHB_RESP_OKAY waits=0 | data=0x1440ffffebbf | total=19
# UVM_INFO ../10_tb/axi4_mst/axi4_mst_driver.sv(290) @ 705000: uvm_test_top.env.axi_agent.drv [axi4_mst_driver] [DRV][AXI][R] id=0x8 beat=8/16 data=0x1438ffffebc7 resp=AXI4_RESP_OKAY last=0
# UVM_INFO ../10_tb/axi4_mst/axi4_mst_monitor.sv(256) @ 705000: uvm_test_top.env.axi_agent.mon [axi4_mst_monitor] [MON][AXI][R] id=0x8 beat=8/16 data=0x1438ffffebc7 resp=AXI4_RESP_OKAY last=0
# UVM_INFO ../10_tb/ahb_slv/ahb_slv_driver.sv(87) @ 715000: uvm_test_top.env.ahb_agent.drv [ahb_slv_driver] [DRV][AHB][REQ] AHB_READ addr=0x1448 trans=AHB_TRANS_SEQ burst=AHB_BURST_INCR16 size=8B
# UVM_INFO ../10_tb/ahb_slv/ahb_slv_driver.sv(201) @ 725000: uvm_test_top.env.ahb_agent.drv [ahb_slv_driver] [DRV][AHB][RSP] AHB_READ addr=0x1448 data=0x1448ffffebb7 resp=AHB_RESP_OKAY ready_delay=0
# UVM_INFO ../10_tb/ahb_slv/ahb_slv_monitor.sv(119) @ 725000: uvm_test_top.env.ahb_agent.mon [ahb_slv_monitor] [MON][AHB][TR] AHB AHB_READ addr=0x1448 trans=AHB_TRANS_SEQ burst=AHB_BURST_INCR16 size=8B mastlock=0 resp=AHB_RESP_OKAY waits=0 | data=0x1448ffffebb7
# UVM_INFO ../10_tb/env/scoreboard.sv(359) @ 725000: uvm_test_top.env.scb [scoreboard] [SCB][AHB][PASS] AHB AHB_READ addr=0x1448 trans=AHB_TRANS_SEQ burst=AHB_BURST_INCR16 size=8B mastlock=0 resp=AHB_RESP_OKAY waits=0 | data=0x1448ffffebb7 | total=20
# UVM_INFO ../10_tb/axi4_mst/axi4_mst_driver.sv(290) @ 725000: uvm_test_top.env.axi_agent.drv [axi4_mst_driver] [DRV][AXI][R] id=0x8 beat=9/16 data=0x1440ffffebbf resp=AXI4_RESP_OKAY last=0
# UVM_INFO ../10_tb/axi4_mst/axi4_mst_monitor.sv(256) @ 725000: uvm_test_top.env.axi_agent.mon [axi4_mst_monitor] [MON][AXI][R] id=0x8 beat=9/16 data=0x1440ffffebbf resp=AXI4_RESP_OKAY last=0
# UVM_INFO ../10_tb/ahb_slv/ahb_slv_driver.sv(87) @ 735000: uvm_test_top.env.ahb_agent.drv [ahb_slv_driver] [DRV][AHB][REQ] AHB_READ addr=0x1450 trans=AHB_TRANS_SEQ burst=AHB_BURST_INCR16 size=8B
# UVM_INFO ../10_tb/ahb_slv/ahb_slv_driver.sv(201) @ 745000: uvm_test_top.env.ahb_agent.drv [ahb_slv_driver] [DRV][AHB][RSP] AHB_READ addr=0x1450 data=0x1450ffffebaf resp=AHB_RESP_OKAY ready_delay=0
# UVM_INFO ../10_tb/ahb_slv/ahb_slv_monitor.sv(119) @ 745000: uvm_test_top.env.ahb_agent.mon [ahb_slv_monitor] [MON][AHB][TR] AHB AHB_READ addr=0x1450 trans=AHB_TRANS_SEQ burst=AHB_BURST_INCR16 size=8B mastlock=0 resp=AHB_RESP_OKAY waits=0 | data=0x1450ffffebaf
# UVM_INFO ../10_tb/env/scoreboard.sv(359) @ 745000: uvm_test_top.env.scb [scoreboard] [SCB][AHB][PASS] AHB AHB_READ addr=0x1450 trans=AHB_TRANS_SEQ burst=AHB_BURST_INCR16 size=8B mastlock=0 resp=AHB_RESP_OKAY waits=0 | data=0x1450ffffebaf | total=21
# UVM_INFO ../10_tb/axi4_mst/axi4_mst_driver.sv(290) @ 745000: uvm_test_top.env.axi_agent.drv [axi4_mst_driver] [DRV][AXI][R] id=0x8 beat=10/16 data=0x1448ffffebb7 resp=AXI4_RESP_OKAY last=0
# UVM_INFO ../10_tb/axi4_mst/axi4_mst_monitor.sv(256) @ 745000: uvm_test_top.env.axi_agent.mon [axi4_mst_monitor] [MON][AXI][R] id=0x8 beat=10/16 data=0x1448ffffebb7 resp=AXI4_RESP_OKAY last=0
# UVM_INFO ../10_tb/ahb_slv/ahb_slv_driver.sv(87) @ 755000: uvm_test_top.env.ahb_agent.drv [ahb_slv_driver] [DRV][AHB][REQ] AHB_READ addr=0x1458 trans=AHB_TRANS_SEQ burst=AHB_BURST_INCR16 size=8B
# UVM_INFO ../10_tb/ahb_slv/ahb_slv_driver.sv(201) @ 765000: uvm_test_top.env.ahb_agent.drv [ahb_slv_driver] [DRV][AHB][RSP] AHB_READ addr=0x1458 data=0x1458ffffeba7 resp=AHB_RESP_OKAY ready_delay=0
# UVM_INFO ../10_tb/ahb_slv/ahb_slv_monitor.sv(119) @ 765000: uvm_test_top.env.ahb_agent.mon [ahb_slv_monitor] [MON][AHB][TR] AHB AHB_READ addr=0x1458 trans=AHB_TRANS_SEQ burst=AHB_BURST_INCR16 size=8B mastlock=0 resp=AHB_RESP_OKAY waits=0 | data=0x1458ffffeba7
# UVM_INFO ../10_tb/env/scoreboard.sv(359) @ 765000: uvm_test_top.env.scb [scoreboard] [SCB][AHB][PASS] AHB AHB_READ addr=0x1458 trans=AHB_TRANS_SEQ burst=AHB_BURST_INCR16 size=8B mastlock=0 resp=AHB_RESP_OKAY waits=0 | data=0x1458ffffeba7 | total=22
# UVM_INFO ../10_tb/axi4_mst/axi4_mst_driver.sv(290) @ 765000: uvm_test_top.env.axi_agent.drv [axi4_mst_driver] [DRV][AXI][R] id=0x8 beat=11/16 data=0x1450ffffebaf resp=AXI4_RESP_OKAY last=0
# UVM_INFO ../10_tb/axi4_mst/axi4_mst_monitor.sv(256) @ 765000: uvm_test_top.env.axi_agent.mon [axi4_mst_monitor] [MON][AXI][R] id=0x8 beat=11/16 data=0x1450ffffebaf resp=AXI4_RESP_OKAY last=0
# UVM_INFO ../10_tb/ahb_slv/ahb_slv_driver.sv(87) @ 775000: uvm_test_top.env.ahb_agent.drv [ahb_slv_driver] [DRV][AHB][REQ] AHB_READ addr=0x1460 trans=AHB_TRANS_SEQ burst=AHB_BURST_INCR16 size=8B
# UVM_INFO ../10_tb/ahb_slv/ahb_slv_driver.sv(201) @ 785000: uvm_test_top.env.ahb_agent.drv [ahb_slv_driver] [DRV][AHB][RSP] AHB_READ addr=0x1460 data=0x1460ffffeb9f resp=AHB_RESP_OKAY ready_delay=0
# UVM_INFO ../10_tb/ahb_slv/ahb_slv_monitor.sv(119) @ 785000: uvm_test_top.env.ahb_agent.mon [ahb_slv_monitor] [MON][AHB][TR] AHB AHB_READ addr=0x1460 trans=AHB_TRANS_SEQ burst=AHB_BURST_INCR16 size=8B mastlock=0 resp=AHB_RESP_OKAY waits=0 | data=0x1460ffffeb9f
# UVM_INFO ../10_tb/env/scoreboard.sv(359) @ 785000: uvm_test_top.env.scb [scoreboard] [SCB][AHB][PASS] AHB AHB_READ addr=0x1460 trans=AHB_TRANS_SEQ burst=AHB_BURST_INCR16 size=8B mastlock=0 resp=AHB_RESP_OKAY waits=0 | data=0x1460ffffeb9f | total=23
# UVM_INFO ../10_tb/axi4_mst/axi4_mst_driver.sv(290) @ 785000: uvm_test_top.env.axi_agent.drv [axi4_mst_driver] [DRV][AXI][R] id=0x8 beat=12/16 data=0x1458ffffeba7 resp=AXI4_RESP_OKAY last=0
# UVM_INFO ../10_tb/axi4_mst/axi4_mst_monitor.sv(256) @ 785000: uvm_test_top.env.axi_agent.mon [axi4_mst_monitor] [MON][AXI][R] id=0x8 beat=12/16 data=0x1458ffffeba7 resp=AXI4_RESP_OKAY last=0
# UVM_INFO ../10_tb/ahb_slv/ahb_slv_driver.sv(87) @ 795000: uvm_test_top.env.ahb_agent.drv [ahb_slv_driver] [DRV][AHB][REQ] AHB_READ addr=0x1468 trans=AHB_TRANS_SEQ burst=AHB_BURST_INCR16 size=8B
# UVM_INFO ../10_tb/ahb_slv/ahb_slv_driver.sv(201) @ 805000: uvm_test_top.env.ahb_agent.drv [ahb_slv_driver] [DRV][AHB][RSP] AHB_READ addr=0x1468 data=0x1468ffffeb97 resp=AHB_RESP_OKAY ready_delay=0
# UVM_INFO ../10_tb/ahb_slv/ahb_slv_monitor.sv(119) @ 805000: uvm_test_top.env.ahb_agent.mon [ahb_slv_monitor] [MON][AHB][TR] AHB AHB_READ addr=0x1468 trans=AHB_TRANS_SEQ burst=AHB_BURST_INCR16 size=8B mastlock=0 resp=AHB_RESP_OKAY waits=0 | data=0x1468ffffeb97
# UVM_INFO ../10_tb/env/scoreboard.sv(359) @ 805000: uvm_test_top.env.scb [scoreboard] [SCB][AHB][PASS] AHB AHB_READ addr=0x1468 trans=AHB_TRANS_SEQ burst=AHB_BURST_INCR16 size=8B mastlock=0 resp=AHB_RESP_OKAY waits=0 | data=0x1468ffffeb97 | total=24
# UVM_INFO ../10_tb/axi4_mst/axi4_mst_driver.sv(290) @ 805000: uvm_test_top.env.axi_agent.drv [axi4_mst_driver] [DRV][AXI][R] id=0x8 beat=13/16 data=0x1460ffffeb9f resp=AXI4_RESP_OKAY last=0
# UVM_INFO ../10_tb/axi4_mst/axi4_mst_monitor.sv(256) @ 805000: uvm_test_top.env.axi_agent.mon [axi4_mst_monitor] [MON][AXI][R] id=0x8 beat=13/16 data=0x1460ffffeb9f resp=AXI4_RESP_OKAY last=0
# UVM_INFO ../10_tb/ahb_slv/ahb_slv_driver.sv(87) @ 815000: uvm_test_top.env.ahb_agent.drv [ahb_slv_driver] [DRV][AHB][REQ] AHB_READ addr=0x1470 trans=AHB_TRANS_SEQ burst=AHB_BURST_INCR16 size=8B
# UVM_INFO ../10_tb/ahb_slv/ahb_slv_driver.sv(201) @ 825000: uvm_test_top.env.ahb_agent.drv [ahb_slv_driver] [DRV][AHB][RSP] AHB_READ addr=0x1470 data=0x1470ffffeb8f resp=AHB_RESP_OKAY ready_delay=0
# UVM_INFO ../10_tb/ahb_slv/ahb_slv_monitor.sv(119) @ 825000: uvm_test_top.env.ahb_agent.mon [ahb_slv_monitor] [MON][AHB][TR] AHB AHB_READ addr=0x1470 trans=AHB_TRANS_SEQ burst=AHB_BURST_INCR16 size=8B mastlock=0 resp=AHB_RESP_OKAY waits=0 | data=0x1470ffffeb8f
# UVM_INFO ../10_tb/env/scoreboard.sv(359) @ 825000: uvm_test_top.env.scb [scoreboard] [SCB][AHB][PASS] AHB AHB_READ addr=0x1470 trans=AHB_TRANS_SEQ burst=AHB_BURST_INCR16 size=8B mastlock=0 resp=AHB_RESP_OKAY waits=0 | data=0x1470ffffeb8f | total=25
# UVM_INFO ../10_tb/axi4_mst/axi4_mst_driver.sv(290) @ 825000: uvm_test_top.env.axi_agent.drv [axi4_mst_driver] [DRV][AXI][R] id=0x8 beat=14/16 data=0x1468ffffeb97 resp=AXI4_RESP_OKAY last=0
# UVM_INFO ../10_tb/axi4_mst/axi4_mst_monitor.sv(256) @ 825000: uvm_test_top.env.axi_agent.mon [axi4_mst_monitor] [MON][AXI][R] id=0x8 beat=14/16 data=0x1468ffffeb97 resp=AXI4_RESP_OKAY last=0
# UVM_INFO ../10_tb/ahb_slv/ahb_slv_driver.sv(87) @ 835000: uvm_test_top.env.ahb_agent.drv [ahb_slv_driver] [DRV][AHB][REQ] AHB_READ addr=0x1478 trans=AHB_TRANS_SEQ burst=AHB_BURST_INCR16 size=8B
# UVM_INFO ../10_tb/ahb_slv/ahb_slv_driver.sv(201) @ 845000: uvm_test_top.env.ahb_agent.drv [ahb_slv_driver] [DRV][AHB][RSP] AHB_READ addr=0x1478 data=0x1478ffffeb87 resp=AHB_RESP_OKAY ready_delay=0
# UVM_INFO ../10_tb/ahb_slv/ahb_slv_monitor.sv(119) @ 845000: uvm_test_top.env.ahb_agent.mon [ahb_slv_monitor] [MON][AHB][TR] AHB AHB_READ addr=0x1478 trans=AHB_TRANS_SEQ burst=AHB_BURST_INCR16 size=8B mastlock=0 resp=AHB_RESP_OKAY waits=0 | data=0x1478ffffeb87
# UVM_INFO ../10_tb/env/scoreboard.sv(359) @ 845000: uvm_test_top.env.scb [scoreboard] [SCB][AHB][PASS] AHB AHB_READ addr=0x1478 trans=AHB_TRANS_SEQ burst=AHB_BURST_INCR16 size=8B mastlock=0 resp=AHB_RESP_OKAY waits=0 | data=0x1478ffffeb87 | total=26
# UVM_INFO ../10_tb/axi4_mst/axi4_mst_driver.sv(290) @ 845000: uvm_test_top.env.axi_agent.drv [axi4_mst_driver] [DRV][AXI][R] id=0x8 beat=15/16 data=0x1470ffffeb8f resp=AXI4_RESP_OKAY last=0
# UVM_INFO ../10_tb/axi4_mst/axi4_mst_monitor.sv(256) @ 845000: uvm_test_top.env.axi_agent.mon [axi4_mst_monitor] [MON][AXI][R] id=0x8 beat=15/16 data=0x1470ffffeb8f resp=AXI4_RESP_OKAY last=0
# UVM_INFO ../10_tb/axi4_mst/axi4_mst_driver.sv(290) @ 865000: uvm_test_top.env.axi_agent.drv [axi4_mst_driver] [DRV][AXI][R] id=0x8 beat=16/16 data=0x1478ffffeb87 resp=AXI4_RESP_OKAY last=1
# UVM_INFO ../10_tb/axi4_mst/axi4_mst_monitor.sv(256) @ 865000: uvm_test_top.env.axi_agent.mon [axi4_mst_monitor] [MON][AXI][R] id=0x8 beat=16/16 data=0x1478ffffeb87 resp=AXI4_RESP_OKAY last=1
# UVM_INFO ../10_tb/axi4_mst/axi4_mst_monitor.sv(262) @ 865000: uvm_test_top.env.axi_agent.mon [axi4_mst_monitor] [MON][AXI][RSP] READ id=0x8 beats=16
# UVM_INFO ../10_tb/env/scoreboard.sv(506) @ 865000: uvm_test_top.env.scb [scoreboard] [SCB][AXI][PASS] AXI4 AXI4_READ id=0x8 addr=0x1400 burst=AXI4_BURST_INCR beats=16 size=8B lock=0 | read beats=16 | total=5
# UVM_INFO ../10_tb/seq/axi4_mst_seq/axi4_mst_parameter_seq.sv(203) @ 865000: uvm_test_top.env.axi_agent.sqr@@axi_seq [axi4_mst_parameter_seq] [5] INCR16_WR addr=0x1500 beats=16 size=8B burst=AXI4_BURST_INCR
# UVM_INFO ../10_tb/axi4_mst/axi4_mst_driver.sv(105) @ 865000: uvm_test_top.env.axi_agent.drv [axi4_mst_driver] [DRV][AXI][REQ] AXI4 AXI4_WRITE id=0x4 addr=0x1500 burst=AXI4_BURST_INCR beats=16 size=8B lock=0 | outstanding=1
# UVM_INFO ../10_tb/axi4_mst/axi4_mst_driver.sv(178) @ 905000: uvm_test_top.env.axi_agent.drv [axi4_mst_driver] [DRV][AXI][AW] id=0x4 addr=0x1500 burst=AXI4_BURST_INCR beats=16 size=8B
# UVM_INFO ../10_tb/axi4_mst/axi4_mst_driver.sv(198) @ 905000: uvm_test_top.env.axi_agent.drv [axi4_mst_driver] [DRV][AXI][W] id=0x4 beat=1/16 data=0x1c1b1a1918171615 strb=0xff last=0
# UVM_INFO ../10_tb/ahb_slv/ahb_slv_driver.sv(87) @ 915000: uvm_test_top.env.ahb_agent.drv [ahb_slv_driver] [DRV][AHB][REQ] AHB_WRITE addr=0x1500 trans=AHB_TRANS_NONSEQ burst=AHB_BURST_INCR16 size=8B
# UVM_INFO ../10_tb/ahb_slv/ahb_slv_driver.sv(201) @ 925000: uvm_test_top.env.ahb_agent.drv [ahb_slv_driver] [DRV][AHB][RSP] AHB_WRITE addr=0x1500 data=0x1c1b1a1918171615 resp=AHB_RESP_OKAY ready_delay=0
# UVM_INFO ../10_tb/ahb_slv/ahb_slv_monitor.sv(119) @ 925000: uvm_test_top.env.ahb_agent.mon [ahb_slv_monitor] [MON][AHB][TR] AHB AHB_WRITE addr=0x1500 trans=AHB_TRANS_NONSEQ burst=AHB_BURST_INCR16 size=8B mastlock=0 resp=AHB_RESP_OKAY waits=0 | data=0x1c1b1a1918171615
# UVM_INFO ../10_tb/ahb_slv/ahb_slv_driver.sv(87) @ 935000: uvm_test_top.env.ahb_agent.drv [ahb_slv_driver] [DRV][AHB][REQ] AHB_WRITE addr=0x1508 trans=AHB_TRANS_SEQ burst=AHB_BURST_INCR16 size=8B
# UVM_INFO ../10_tb/axi4_mst/axi4_mst_driver.sv(198) @ 935000: uvm_test_top.env.axi_agent.drv [axi4_mst_driver] [DRV][AXI][W] id=0x4 beat=2/16 data=0x201f1e1d1c1b1a19 strb=0xff last=0
# UVM_INFO ../10_tb/ahb_slv/ahb_slv_driver.sv(201) @ 945000: uvm_test_top.env.ahb_agent.drv [ahb_slv_driver] [DRV][AHB][RSP] AHB_WRITE addr=0x1508 data=0x201f1e1d1c1b1a19 resp=AHB_RESP_OKAY ready_delay=0
# UVM_INFO ../10_tb/ahb_slv/ahb_slv_monitor.sv(119) @ 945000: uvm_test_top.env.ahb_agent.mon [ahb_slv_monitor] [MON][AHB][TR] AHB AHB_WRITE addr=0x1508 trans=AHB_TRANS_SEQ burst=AHB_BURST_INCR16 size=8B mastlock=0 resp=AHB_RESP_OKAY waits=0 | data=0x201f1e1d1c1b1a19
# UVM_INFO ../10_tb/ahb_slv/ahb_slv_driver.sv(87) @ 955000: uvm_test_top.env.ahb_agent.drv [ahb_slv_driver] [DRV][AHB][REQ] AHB_WRITE addr=0x1510 trans=AHB_TRANS_SEQ burst=AHB_BURST_INCR16 size=8B
# UVM_INFO ../10_tb/axi4_mst/axi4_mst_driver.sv(198) @ 955000: uvm_test_top.env.axi_agent.drv [axi4_mst_driver] [DRV][AXI][W] id=0x4 beat=3/16 data=0x24232221201f1e1d strb=0xff last=0
# UVM_INFO ../10_tb/ahb_slv/ahb_slv_driver.sv(201) @ 965000: uvm_test_top.env.ahb_agent.drv [ahb_slv_driver] [DRV][AHB][RSP] AHB_WRITE addr=0x1510 data=0x24232221201f1e1d resp=AHB_RESP_OKAY ready_delay=0
# UVM_INFO ../10_tb/ahb_slv/ahb_slv_monitor.sv(119) @ 965000: uvm_test_top.env.ahb_agent.mon [ahb_slv_monitor] [MON][AHB][TR] AHB AHB_WRITE addr=0x1510 trans=AHB_TRANS_SEQ burst=AHB_BURST_INCR16 size=8B mastlock=0 resp=AHB_RESP_OKAY waits=0 | data=0x24232221201f1e1d
# UVM_INFO ../10_tb/ahb_slv/ahb_slv_driver.sv(87) @ 975000: uvm_test_top.env.ahb_agent.drv [ahb_slv_driver] [DRV][AHB][REQ] AHB_WRITE addr=0x1518 trans=AHB_TRANS_SEQ burst=AHB_BURST_INCR16 size=8B
# UVM_INFO ../10_tb/axi4_mst/axi4_mst_driver.sv(198) @ 975000: uvm_test_top.env.axi_agent.drv [axi4_mst_driver] [DRV][AXI][W] id=0x4 beat=4/16 data=0x2827262524232221 strb=0xff last=0
# UVM_INFO ../10_tb/ahb_slv/ahb_slv_driver.sv(201) @ 985000: uvm_test_top.env.ahb_agent.drv [ahb_slv_driver] [DRV][AHB][RSP] AHB_WRITE addr=0x1518 data=0x2827262524232221 resp=AHB_RESP_OKAY ready_delay=0
# UVM_INFO ../10_tb/ahb_slv/ahb_slv_monitor.sv(119) @ 985000: uvm_test_top.env.ahb_agent.mon [ahb_slv_monitor] [MON][AHB][TR] AHB AHB_WRITE addr=0x1518 trans=AHB_TRANS_SEQ burst=AHB_BURST_INCR16 size=8B mastlock=0 resp=AHB_RESP_OKAY waits=0 | data=0x2827262524232221
# UVM_INFO ../10_tb/ahb_slv/ahb_slv_driver.sv(87) @ 995000: uvm_test_top.env.ahb_agent.drv [ahb_slv_driver] [DRV][AHB][REQ] AHB_WRITE addr=0x1520 trans=AHB_TRANS_SEQ burst=AHB_BURST_INCR16 size=8B
# UVM_INFO ../10_tb/axi4_mst/axi4_mst_driver.sv(198) @ 995000: uvm_test_top.env.axi_agent.drv [axi4_mst_driver] [DRV][AXI][W] id=0x4 beat=5/16 data=0x2c2b2a2928272625 strb=0xff last=0
# UVM_INFO ../10_tb/ahb_slv/ahb_slv_driver.sv(201) @ 1005000: uvm_test_top.env.ahb_agent.drv [ahb_slv_driver] [DRV][AHB][RSP] AHB_WRITE addr=0x1520 data=0x2c2b2a2928272625 resp=AHB_RESP_OKAY ready_delay=0
# UVM_INFO ../10_tb/ahb_slv/ahb_slv_monitor.sv(119) @ 1005000: uvm_test_top.env.ahb_agent.mon [ahb_slv_monitor] [MON][AHB][TR] AHB AHB_WRITE addr=0x1520 trans=AHB_TRANS_SEQ burst=AHB_BURST_INCR16 size=8B mastlock=0 resp=AHB_RESP_OKAY waits=0 | data=0x2c2b2a2928272625
# UVM_INFO ../10_tb/ahb_slv/ahb_slv_driver.sv(87) @ 1015000: uvm_test_top.env.ahb_agent.drv [ahb_slv_driver] [DRV][AHB][REQ] AHB_WRITE addr=0x1528 trans=AHB_TRANS_SEQ burst=AHB_BURST_INCR16 size=8B
# UVM_INFO ../10_tb/axi4_mst/axi4_mst_driver.sv(198) @ 1015000: uvm_test_top.env.axi_agent.drv [axi4_mst_driver] [DRV][AXI][W] id=0x4 beat=6/16 data=0x302f2e2d2c2b2a29 strb=0xff last=0
# UVM_INFO ../10_tb/ahb_slv/ahb_slv_driver.sv(201) @ 1025000: uvm_test_top.env.ahb_agent.drv [ahb_slv_driver] [DRV][AHB][RSP] AHB_WRITE addr=0x1528 data=0x302f2e2d2c2b2a29 resp=AHB_RESP_OKAY ready_delay=0
# UVM_INFO ../10_tb/ahb_slv/ahb_slv_monitor.sv(119) @ 1025000: uvm_test_top.env.ahb_agent.mon [ahb_slv_monitor] [MON][AHB][TR] AHB AHB_WRITE addr=0x1528 trans=AHB_TRANS_SEQ burst=AHB_BURST_INCR16 size=8B mastlock=0 resp=AHB_RESP_OKAY waits=0 | data=0x302f2e2d2c2b2a29
# UVM_INFO ../10_tb/ahb_slv/ahb_slv_driver.sv(87) @ 1035000: uvm_test_top.env.ahb_agent.drv [ahb_slv_driver] [DRV][AHB][REQ] AHB_WRITE addr=0x1530 trans=AHB_TRANS_SEQ burst=AHB_BURST_INCR16 size=8B
# UVM_INFO ../10_tb/axi4_mst/axi4_mst_driver.sv(198) @ 1035000: uvm_test_top.env.axi_agent.drv [axi4_mst_driver] [DRV][AXI][W] id=0x4 beat=7/16 data=0x34333231302f2e2d strb=0xff last=0
# UVM_INFO ../10_tb/ahb_slv/ahb_slv_driver.sv(201) @ 1045000: uvm_test_top.env.ahb_agent.drv [ahb_slv_driver] [DRV][AHB][RSP] AHB_WRITE addr=0x1530 data=0x34333231302f2e2d resp=AHB_RESP_OKAY ready_delay=0
# UVM_INFO ../10_tb/ahb_slv/ahb_slv_monitor.sv(119) @ 1045000: uvm_test_top.env.ahb_agent.mon [ahb_slv_monitor] [MON][AHB][TR] AHB AHB_WRITE addr=0x1530 trans=AHB_TRANS_SEQ burst=AHB_BURST_INCR16 size=8B mastlock=0 resp=AHB_RESP_OKAY waits=0 | data=0x34333231302f2e2d
# UVM_INFO ../10_tb/ahb_slv/ahb_slv_driver.sv(87) @ 1055000: uvm_test_top.env.ahb_agent.drv [ahb_slv_driver] [DRV][AHB][REQ] AHB_WRITE addr=0x1538 trans=AHB_TRANS_SEQ burst=AHB_BURST_INCR16 size=8B
# UVM_INFO ../10_tb/axi4_mst/axi4_mst_driver.sv(198) @ 1055000: uvm_test_top.env.axi_agent.drv [axi4_mst_driver] [DRV][AXI][W] id=0x4 beat=8/16 data=0x3837363534333231 strb=0xff last=0
# UVM_INFO ../10_tb/ahb_slv/ahb_slv_driver.sv(201) @ 1065000: uvm_test_top.env.ahb_agent.drv [ahb_slv_driver] [DRV][AHB][RSP] AHB_WRITE addr=0x1538 data=0x3837363534333231 resp=AHB_RESP_OKAY ready_delay=0
# UVM_INFO ../10_tb/ahb_slv/ahb_slv_monitor.sv(119) @ 1065000: uvm_test_top.env.ahb_agent.mon [ahb_slv_monitor] [MON][AHB][TR] AHB AHB_WRITE addr=0x1538 trans=AHB_TRANS_SEQ burst=AHB_BURST_INCR16 size=8B mastlock=0 resp=AHB_RESP_OKAY waits=0 | data=0x3837363534333231
# UVM_INFO ../10_tb/ahb_slv/ahb_slv_driver.sv(87) @ 1075000: uvm_test_top.env.ahb_agent.drv [ahb_slv_driver] [DRV][AHB][REQ] AHB_WRITE addr=0x1540 trans=AHB_TRANS_SEQ burst=AHB_BURST_INCR16 size=8B
# UVM_INFO ../10_tb/axi4_mst/axi4_mst_driver.sv(198) @ 1075000: uvm_test_top.env.axi_agent.drv [axi4_mst_driver] [DRV][AXI][W] id=0x4 beat=9/16 data=0x3c3b3a3938373635 strb=0xff last=0
# UVM_INFO ../10_tb/ahb_slv/ahb_slv_driver.sv(201) @ 1085000: uvm_test_top.env.ahb_agent.drv [ahb_slv_driver] [DRV][AHB][RSP] AHB_WRITE addr=0x1540 data=0x3c3b3a3938373635 resp=AHB_RESP_OKAY ready_delay=0
# UVM_INFO ../10_tb/ahb_slv/ahb_slv_monitor.sv(119) @ 1085000: uvm_test_top.env.ahb_agent.mon [ahb_slv_monitor] [MON][AHB][TR] AHB AHB_WRITE addr=0x1540 trans=AHB_TRANS_SEQ burst=AHB_BURST_INCR16 size=8B mastlock=0 resp=AHB_RESP_OKAY waits=0 | data=0x3c3b3a3938373635
# UVM_INFO ../10_tb/ahb_slv/ahb_slv_driver.sv(87) @ 1095000: uvm_test_top.env.ahb_agent.drv [ahb_slv_driver] [DRV][AHB][REQ] AHB_WRITE addr=0x1548 trans=AHB_TRANS_SEQ burst=AHB_BURST_INCR16 size=8B
# UVM_INFO ../10_tb/axi4_mst/axi4_mst_driver.sv(198) @ 1095000: uvm_test_top.env.axi_agent.drv [axi4_mst_driver] [DRV][AXI][W] id=0x4 beat=10/16 data=0x403f3e3d3c3b3a39 strb=0xff last=0
# UVM_INFO ../10_tb/ahb_slv/ahb_slv_driver.sv(201) @ 1105000: uvm_test_top.env.ahb_agent.drv [ahb_slv_driver] [DRV][AHB][RSP] AHB_WRITE addr=0x1548 data=0x403f3e3d3c3b3a39 resp=AHB_RESP_OKAY ready_delay=0
# UVM_INFO ../10_tb/ahb_slv/ahb_slv_monitor.sv(119) @ 1105000: uvm_test_top.env.ahb_agent.mon [ahb_slv_monitor] [MON][AHB][TR] AHB AHB_WRITE addr=0x1548 trans=AHB_TRANS_SEQ burst=AHB_BURST_INCR16 size=8B mastlock=0 resp=AHB_RESP_OKAY waits=0 | data=0x403f3e3d3c3b3a39
# UVM_INFO ../10_tb/ahb_slv/ahb_slv_driver.sv(87) @ 1115000: uvm_test_top.env.ahb_agent.drv [ahb_slv_driver] [DRV][AHB][REQ] AHB_WRITE addr=0x1550 trans=AHB_TRANS_SEQ burst=AHB_BURST_INCR16 size=8B
# UVM_INFO ../10_tb/axi4_mst/axi4_mst_driver.sv(198) @ 1115000: uvm_test_top.env.axi_agent.drv [axi4_mst_driver] [DRV][AXI][W] id=0x4 beat=11/16 data=0x44434241403f3e3d strb=0xff last=0
# UVM_INFO ../10_tb/ahb_slv/ahb_slv_driver.sv(201) @ 1125000: uvm_test_top.env.ahb_agent.drv [ahb_slv_driver] [DRV][AHB][RSP] AHB_WRITE addr=0x1550 data=0x44434241403f3e3d resp=AHB_RESP_OKAY ready_delay=0
# UVM_INFO ../10_tb/ahb_slv/ahb_slv_monitor.sv(119) @ 1125000: uvm_test_top.env.ahb_agent.mon [ahb_slv_monitor] [MON][AHB][TR] AHB AHB_WRITE addr=0x1550 trans=AHB_TRANS_SEQ burst=AHB_BURST_INCR16 size=8B mastlock=0 resp=AHB_RESP_OKAY waits=0 | data=0x44434241403f3e3d
# UVM_INFO ../10_tb/ahb_slv/ahb_slv_driver.sv(87) @ 1135000: uvm_test_top.env.ahb_agent.drv [ahb_slv_driver] [DRV][AHB][REQ] AHB_WRITE addr=0x1558 trans=AHB_TRANS_SEQ burst=AHB_BURST_INCR16 size=8B
# UVM_INFO ../10_tb/axi4_mst/axi4_mst_driver.sv(198) @ 1135000: uvm_test_top.env.axi_agent.drv [axi4_mst_driver] [DRV][AXI][W] id=0x4 beat=12/16 data=0x4847464544434241 strb=0xff last=0
# UVM_INFO ../10_tb/ahb_slv/ahb_slv_driver.sv(201) @ 1145000: uvm_test_top.env.ahb_agent.drv [ahb_slv_driver] [DRV][AHB][RSP] AHB_WRITE addr=0x1558 data=0x4847464544434241 resp=AHB_RESP_OKAY ready_delay=0
# UVM_INFO ../10_tb/ahb_slv/ahb_slv_monitor.sv(119) @ 1145000: uvm_test_top.env.ahb_agent.mon [ahb_slv_monitor] [MON][AHB][TR] AHB AHB_WRITE addr=0x1558 trans=AHB_TRANS_SEQ burst=AHB_BURST_INCR16 size=8B mastlock=0 resp=AHB_RESP_OKAY waits=0 | data=0x4847464544434241
# UVM_INFO ../10_tb/ahb_slv/ahb_slv_driver.sv(87) @ 1155000: uvm_test_top.env.ahb_agent.drv [ahb_slv_driver] [DRV][AHB][REQ] AHB_WRITE addr=0x1560 trans=AHB_TRANS_SEQ burst=AHB_BURST_INCR16 size=8B
# UVM_INFO ../10_tb/axi4_mst/axi4_mst_driver.sv(198) @ 1155000: uvm_test_top.env.axi_agent.drv [axi4_mst_driver] [DRV][AXI][W] id=0x4 beat=13/16 data=0x4c4b4a4948474645 strb=0xff last=0
# UVM_INFO ../10_tb/ahb_slv/ahb_slv_driver.sv(201) @ 1165000: uvm_test_top.env.ahb_agent.drv [ahb_slv_driver] [DRV][AHB][RSP] AHB_WRITE addr=0x1560 data=0x4c4b4a4948474645 resp=AHB_RESP_OKAY ready_delay=0
# UVM_INFO ../10_tb/ahb_slv/ahb_slv_monitor.sv(119) @ 1165000: uvm_test_top.env.ahb_agent.mon [ahb_slv_monitor] [MON][AHB][TR] AHB AHB_WRITE addr=0x1560 trans=AHB_TRANS_SEQ burst=AHB_BURST_INCR16 size=8B mastlock=0 resp=AHB_RESP_OKAY waits=0 | data=0x4c4b4a4948474645
# UVM_INFO ../10_tb/ahb_slv/ahb_slv_driver.sv(87) @ 1175000: uvm_test_top.env.ahb_agent.drv [ahb_slv_driver] [DRV][AHB][REQ] AHB_WRITE addr=0x1568 trans=AHB_TRANS_SEQ burst=AHB_BURST_INCR16 size=8B
# UVM_INFO ../10_tb/axi4_mst/axi4_mst_driver.sv(198) @ 1175000: uvm_test_top.env.axi_agent.drv [axi4_mst_driver] [DRV][AXI][W] id=0x4 beat=14/16 data=0x504f4e4d4c4b4a49 strb=0xff last=0
# UVM_INFO ../10_tb/ahb_slv/ahb_slv_driver.sv(201) @ 1185000: uvm_test_top.env.ahb_agent.drv [ahb_slv_driver] [DRV][AHB][RSP] AHB_WRITE addr=0x1568 data=0x504f4e4d4c4b4a49 resp=AHB_RESP_OKAY ready_delay=0
# UVM_INFO ../10_tb/ahb_slv/ahb_slv_monitor.sv(119) @ 1185000: uvm_test_top.env.ahb_agent.mon [ahb_slv_monitor] [MON][AHB][TR] AHB AHB_WRITE addr=0x1568 trans=AHB_TRANS_SEQ burst=AHB_BURST_INCR16 size=8B mastlock=0 resp=AHB_RESP_OKAY waits=0 | data=0x504f4e4d4c4b4a49
# UVM_INFO ../10_tb/ahb_slv/ahb_slv_driver.sv(87) @ 1195000: uvm_test_top.env.ahb_agent.drv [ahb_slv_driver] [DRV][AHB][REQ] AHB_WRITE addr=0x1570 trans=AHB_TRANS_SEQ burst=AHB_BURST_INCR16 size=8B
# UVM_INFO ../10_tb/axi4_mst/axi4_mst_driver.sv(198) @ 1195000: uvm_test_top.env.axi_agent.drv [axi4_mst_driver] [DRV][AXI][W] id=0x4 beat=15/16 data=0x54535251504f4e4d strb=0xff last=0
# UVM_INFO ../10_tb/ahb_slv/ahb_slv_driver.sv(201) @ 1205000: uvm_test_top.env.ahb_agent.drv [ahb_slv_driver] [DRV][AHB][RSP] AHB_WRITE addr=0x1570 data=0x54535251504f4e4d resp=AHB_RESP_OKAY ready_delay=0
# UVM_INFO ../10_tb/ahb_slv/ahb_slv_monitor.sv(119) @ 1205000: uvm_test_top.env.ahb_agent.mon [ahb_slv_monitor] [MON][AHB][TR] AHB AHB_WRITE addr=0x1570 trans=AHB_TRANS_SEQ burst=AHB_BURST_INCR16 size=8B mastlock=0 resp=AHB_RESP_OKAY waits=0 | data=0x54535251504f4e4d
# UVM_INFO ../10_tb/ahb_slv/ahb_slv_driver.sv(87) @ 1215000: uvm_test_top.env.ahb_agent.drv [ahb_slv_driver] [DRV][AHB][REQ] AHB_WRITE addr=0x1578 trans=AHB_TRANS_SEQ burst=AHB_BURST_INCR16 size=8B
# UVM_INFO ../10_tb/axi4_mst/axi4_mst_driver.sv(198) @ 1215000: uvm_test_top.env.axi_agent.drv [axi4_mst_driver] [DRV][AXI][W] id=0x4 beat=16/16 data=0x5857565554535251 strb=0xff last=1
# UVM_INFO ../10_tb/axi4_mst/axi4_mst_monitor.sv(151) @ 1215000: uvm_test_top.env.axi_agent.mon [axi4_mst_monitor] [MON][AXI][REQ] AXI4 AXI4_WRITE id=0x4 addr=0x1500 burst=AXI4_BURST_INCR beats=16 size=8B lock=0
# UVM_INFO ../10_tb/env/predictor.sv(75) @ 1215000: uvm_test_top.env.pred [predictor] [PRED][AXI][IN] AXI4 AXI4_WRITE id=0x4 addr=0x1500 burst=AXI4_BURST_INCR beats=16 size=8B lock=0 | queued=1
# UVM_INFO ../10_tb/env/predictor.sv(138) @ 1215000: uvm_test_top.env.pred [predictor] [PRED][MAP] AXI4 AXI4_WRITE id=0x4 addr=0x1500 burst=AXI4_BURST_INCR beats=16 size=8B lock=0 -> AHB burst=AHB_BURST_INCR16 size=8B crosses_1kb=0
# UVM_INFO ../10_tb/env/predictor.sv(169) @ 1215000: uvm_test_top.env.pred [predictor] [PRED][AHB] beat=1/16 | AHB AHB_WRITE addr=0x1500 trans=AHB_TRANS_NONSEQ burst=AHB_BURST_INCR16 size=8B mastlock=0 resp=AHB_RESP_OKAY waits=0 | wdata=0x1c1b1a1918171615
# UVM_INFO ../10_tb/env/scoreboard.sv(359) @ 1215000: uvm_test_top.env.scb [scoreboard] [SCB][AHB][PASS] AHB AHB_WRITE addr=0x1500 trans=AHB_TRANS_NONSEQ burst=AHB_BURST_INCR16 size=8B mastlock=0 resp=AHB_RESP_OKAY waits=0 | data=0x1c1b1a1918171615 | total=27
# UVM_INFO ../10_tb/env/predictor.sv(169) @ 1215000: uvm_test_top.env.pred [predictor] [PRED][AHB] beat=2/16 | AHB AHB_WRITE addr=0x1508 trans=AHB_TRANS_SEQ burst=AHB_BURST_INCR16 size=8B mastlock=0 resp=AHB_RESP_OKAY waits=0 | wdata=0x201f1e1d1c1b1a19
# UVM_INFO ../10_tb/env/scoreboard.sv(359) @ 1215000: uvm_test_top.env.scb [scoreboard] [SCB][AHB][PASS] AHB AHB_WRITE addr=0x1508 trans=AHB_TRANS_SEQ burst=AHB_BURST_INCR16 size=8B mastlock=0 resp=AHB_RESP_OKAY waits=0 | data=0x201f1e1d1c1b1a19 | total=28
# UVM_INFO ../10_tb/env/predictor.sv(169) @ 1215000: uvm_test_top.env.pred [predictor] [PRED][AHB] beat=3/16 | AHB AHB_WRITE addr=0x1510 trans=AHB_TRANS_SEQ burst=AHB_BURST_INCR16 size=8B mastlock=0 resp=AHB_RESP_OKAY waits=0 | wdata=0x24232221201f1e1d
# UVM_INFO ../10_tb/env/scoreboard.sv(359) @ 1215000: uvm_test_top.env.scb [scoreboard] [SCB][AHB][PASS] AHB AHB_WRITE addr=0x1510 trans=AHB_TRANS_SEQ burst=AHB_BURST_INCR16 size=8B mastlock=0 resp=AHB_RESP_OKAY waits=0 | data=0x24232221201f1e1d | total=29
# UVM_INFO ../10_tb/env/predictor.sv(169) @ 1215000: uvm_test_top.env.pred [predictor] [PRED][AHB] beat=4/16 | AHB AHB_WRITE addr=0x1518 trans=AHB_TRANS_SEQ burst=AHB_BURST_INCR16 size=8B mastlock=0 resp=AHB_RESP_OKAY waits=0 | wdata=0x2827262524232221
# UVM_INFO ../10_tb/env/scoreboard.sv(359) @ 1215000: uvm_test_top.env.scb [scoreboard] [SCB][AHB][PASS] AHB AHB_WRITE addr=0x1518 trans=AHB_TRANS_SEQ burst=AHB_BURST_INCR16 size=8B mastlock=0 resp=AHB_RESP_OKAY waits=0 | data=0x2827262524232221 | total=30
# UVM_INFO ../10_tb/env/predictor.sv(169) @ 1215000: uvm_test_top.env.pred [predictor] [PRED][AHB] beat=5/16 | AHB AHB_WRITE addr=0x1520 trans=AHB_TRANS_SEQ burst=AHB_BURST_INCR16 size=8B mastlock=0 resp=AHB_RESP_OKAY waits=0 | wdata=0x2c2b2a2928272625
# UVM_INFO ../10_tb/env/scoreboard.sv(359) @ 1215000: uvm_test_top.env.scb [scoreboard] [SCB][AHB][PASS] AHB AHB_WRITE addr=0x1520 trans=AHB_TRANS_SEQ burst=AHB_BURST_INCR16 size=8B mastlock=0 resp=AHB_RESP_OKAY waits=0 | data=0x2c2b2a2928272625 | total=31
# UVM_INFO ../10_tb/env/predictor.sv(169) @ 1215000: uvm_test_top.env.pred [predictor] [PRED][AHB] beat=6/16 | AHB AHB_WRITE addr=0x1528 trans=AHB_TRANS_SEQ burst=AHB_BURST_INCR16 size=8B mastlock=0 resp=AHB_RESP_OKAY waits=0 | wdata=0x302f2e2d2c2b2a29
# UVM_INFO ../10_tb/env/scoreboard.sv(359) @ 1215000: uvm_test_top.env.scb [scoreboard] [SCB][AHB][PASS] AHB AHB_WRITE addr=0x1528 trans=AHB_TRANS_SEQ burst=AHB_BURST_INCR16 size=8B mastlock=0 resp=AHB_RESP_OKAY waits=0 | data=0x302f2e2d2c2b2a29 | total=32
# UVM_INFO ../10_tb/env/predictor.sv(169) @ 1215000: uvm_test_top.env.pred [predictor] [PRED][AHB] beat=7/16 | AHB AHB_WRITE addr=0x1530 trans=AHB_TRANS_SEQ burst=AHB_BURST_INCR16 size=8B mastlock=0 resp=AHB_RESP_OKAY waits=0 | wdata=0x34333231302f2e2d
# UVM_INFO ../10_tb/env/scoreboard.sv(359) @ 1215000: uvm_test_top.env.scb [scoreboard] [SCB][AHB][PASS] AHB AHB_WRITE addr=0x1530 trans=AHB_TRANS_SEQ burst=AHB_BURST_INCR16 size=8B mastlock=0 resp=AHB_RESP_OKAY waits=0 | data=0x34333231302f2e2d | total=33
# UVM_INFO ../10_tb/env/predictor.sv(169) @ 1215000: uvm_test_top.env.pred [predictor] [PRED][AHB] beat=8/16 | AHB AHB_WRITE addr=0x1538 trans=AHB_TRANS_SEQ burst=AHB_BURST_INCR16 size=8B mastlock=0 resp=AHB_RESP_OKAY waits=0 | wdata=0x3837363534333231
# UVM_INFO ../10_tb/env/scoreboard.sv(359) @ 1215000: uvm_test_top.env.scb [scoreboard] [SCB][AHB][PASS] AHB AHB_WRITE addr=0x1538 trans=AHB_TRANS_SEQ burst=AHB_BURST_INCR16 size=8B mastlock=0 resp=AHB_RESP_OKAY waits=0 | data=0x3837363534333231 | total=34
# UVM_INFO ../10_tb/env/predictor.sv(169) @ 1215000: uvm_test_top.env.pred [predictor] [PRED][AHB] beat=9/16 | AHB AHB_WRITE addr=0x1540 trans=AHB_TRANS_SEQ burst=AHB_BURST_INCR16 size=8B mastlock=0 resp=AHB_RESP_OKAY waits=0 | wdata=0x3c3b3a3938373635
# UVM_INFO ../10_tb/env/scoreboard.sv(359) @ 1215000: uvm_test_top.env.scb [scoreboard] [SCB][AHB][PASS] AHB AHB_WRITE addr=0x1540 trans=AHB_TRANS_SEQ burst=AHB_BURST_INCR16 size=8B mastlock=0 resp=AHB_RESP_OKAY waits=0 | data=0x3c3b3a3938373635 | total=35
# UVM_INFO ../10_tb/env/predictor.sv(169) @ 1215000: uvm_test_top.env.pred [predictor] [PRED][AHB] beat=10/16 | AHB AHB_WRITE addr=0x1548 trans=AHB_TRANS_SEQ burst=AHB_BURST_INCR16 size=8B mastlock=0 resp=AHB_RESP_OKAY waits=0 | wdata=0x403f3e3d3c3b3a39
# UVM_INFO ../10_tb/env/scoreboard.sv(359) @ 1215000: uvm_test_top.env.scb [scoreboard] [SCB][AHB][PASS] AHB AHB_WRITE addr=0x1548 trans=AHB_TRANS_SEQ burst=AHB_BURST_INCR16 size=8B mastlock=0 resp=AHB_RESP_OKAY waits=0 | data=0x403f3e3d3c3b3a39 | total=36
# UVM_INFO ../10_tb/env/predictor.sv(169) @ 1215000: uvm_test_top.env.pred [predictor] [PRED][AHB] beat=11/16 | AHB AHB_WRITE addr=0x1550 trans=AHB_TRANS_SEQ burst=AHB_BURST_INCR16 size=8B mastlock=0 resp=AHB_RESP_OKAY waits=0 | wdata=0x44434241403f3e3d
# UVM_INFO ../10_tb/env/scoreboard.sv(359) @ 1215000: uvm_test_top.env.scb [scoreboard] [SCB][AHB][PASS] AHB AHB_WRITE addr=0x1550 trans=AHB_TRANS_SEQ burst=AHB_BURST_INCR16 size=8B mastlock=0 resp=AHB_RESP_OKAY waits=0 | data=0x44434241403f3e3d | total=37
# UVM_INFO ../10_tb/env/predictor.sv(169) @ 1215000: uvm_test_top.env.pred [predictor] [PRED][AHB] beat=12/16 | AHB AHB_WRITE addr=0x1558 trans=AHB_TRANS_SEQ burst=AHB_BURST_INCR16 size=8B mastlock=0 resp=AHB_RESP_OKAY waits=0 | wdata=0x4847464544434241
# UVM_INFO ../10_tb/env/scoreboard.sv(359) @ 1215000: uvm_test_top.env.scb [scoreboard] [SCB][AHB][PASS] AHB AHB_WRITE addr=0x1558 trans=AHB_TRANS_SEQ burst=AHB_BURST_INCR16 size=8B mastlock=0 resp=AHB_RESP_OKAY waits=0 | data=0x4847464544434241 | total=38
# UVM_INFO ../10_tb/env/predictor.sv(169) @ 1215000: uvm_test_top.env.pred [predictor] [PRED][AHB] beat=13/16 | AHB AHB_WRITE addr=0x1560 trans=AHB_TRANS_SEQ burst=AHB_BURST_INCR16 size=8B mastlock=0 resp=AHB_RESP_OKAY waits=0 | wdata=0x4c4b4a4948474645
# UVM_INFO ../10_tb/env/scoreboard.sv(359) @ 1215000: uvm_test_top.env.scb [scoreboard] [SCB][AHB][PASS] AHB AHB_WRITE addr=0x1560 trans=AHB_TRANS_SEQ burst=AHB_BURST_INCR16 size=8B mastlock=0 resp=AHB_RESP_OKAY waits=0 | data=0x4c4b4a4948474645 | total=39
# UVM_INFO ../10_tb/env/predictor.sv(169) @ 1215000: uvm_test_top.env.pred [predictor] [PRED][AHB] beat=14/16 | AHB AHB_WRITE addr=0x1568 trans=AHB_TRANS_SEQ burst=AHB_BURST_INCR16 size=8B mastlock=0 resp=AHB_RESP_OKAY waits=0 | wdata=0x504f4e4d4c4b4a49
# UVM_INFO ../10_tb/env/scoreboard.sv(359) @ 1215000: uvm_test_top.env.scb [scoreboard] [SCB][AHB][PASS] AHB AHB_WRITE addr=0x1568 trans=AHB_TRANS_SEQ burst=AHB_BURST_INCR16 size=8B mastlock=0 resp=AHB_RESP_OKAY waits=0 | data=0x504f4e4d4c4b4a49 | total=40
# UVM_INFO ../10_tb/env/predictor.sv(169) @ 1215000: uvm_test_top.env.pred [predictor] [PRED][AHB] beat=15/16 | AHB AHB_WRITE addr=0x1570 trans=AHB_TRANS_SEQ burst=AHB_BURST_INCR16 size=8B mastlock=0 resp=AHB_RESP_OKAY waits=0 | wdata=0x54535251504f4e4d
# UVM_INFO ../10_tb/env/scoreboard.sv(359) @ 1215000: uvm_test_top.env.scb [scoreboard] [SCB][AHB][PASS] AHB AHB_WRITE addr=0x1570 trans=AHB_TRANS_SEQ burst=AHB_BURST_INCR16 size=8B mastlock=0 resp=AHB_RESP_OKAY waits=0 | data=0x54535251504f4e4d | total=41
# UVM_INFO ../10_tb/env/predictor.sv(169) @ 1215000: uvm_test_top.env.pred [predictor] [PRED][AHB] beat=16/16 | AHB AHB_WRITE addr=0x1578 trans=AHB_TRANS_SEQ burst=AHB_BURST_INCR16 size=8B mastlock=0 resp=AHB_RESP_OKAY waits=0 | wdata=0x5857565554535251
# UVM_INFO ../10_tb/ahb_slv/ahb_slv_driver.sv(201) @ 1225000: uvm_test_top.env.ahb_agent.drv [ahb_slv_driver] [DRV][AHB][RSP] AHB_WRITE addr=0x1578 data=0x5857565554535251 resp=AHB_RESP_OKAY ready_delay=0
# UVM_INFO ../10_tb/ahb_slv/ahb_slv_monitor.sv(119) @ 1225000: uvm_test_top.env.ahb_agent.mon [ahb_slv_monitor] [MON][AHB][TR] AHB AHB_WRITE addr=0x1578 trans=AHB_TRANS_SEQ burst=AHB_BURST_INCR16 size=8B mastlock=0 resp=AHB_RESP_OKAY waits=0 | data=0x5857565554535251
# UVM_INFO ../10_tb/env/scoreboard.sv(359) @ 1225000: uvm_test_top.env.scb [scoreboard] [SCB][AHB][PASS] AHB AHB_WRITE addr=0x1578 trans=AHB_TRANS_SEQ burst=AHB_BURST_INCR16 size=8B mastlock=0 resp=AHB_RESP_OKAY waits=0 | data=0x5857565554535251 | total=42
# UVM_INFO ../10_tb/axi4_mst/axi4_mst_driver.sv(250) @ 1235000: uvm_test_top.env.axi_agent.drv [axi4_mst_driver] [DRV][AXI][B] id=0x4 resp=AXI4_RESP_OKAY
# UVM_INFO ../10_tb/axi4_mst/axi4_mst_monitor.sv(177) @ 1235000: uvm_test_top.env.axi_agent.mon [axi4_mst_monitor] [MON][AXI][RSP] WRITE id=0x4 resp=AXI4_RESP_OKAY
# UVM_INFO ../10_tb/env/scoreboard.sv(499) @ 1235000: uvm_test_top.env.scb [scoreboard] [SCB][AXI][PASS] AXI4 AXI4_WRITE id=0x4 addr=0x1500 burst=AXI4_BURST_INCR beats=16 size=8B lock=0 | bresp=AXI4_RESP_OKAY | total=6
# UVM_INFO ../10_tb/seq/axi4_mst_seq/axi4_mst_parameter_seq.sv(203) @ 1235000: uvm_test_top.env.axi_agent.sqr@@axi_seq [axi4_mst_parameter_seq] [6] INCR5_RD addr=0x1600 beats=5 size=8B burst=AXI4_BURST_INCR
# UVM_INFO ../10_tb/axi4_mst/axi4_mst_driver.sv(105) @ 1235000: uvm_test_top.env.axi_agent.drv [axi4_mst_driver] [DRV][AXI][REQ] AXI4 AXI4_READ id=0xb addr=0x1600 burst=AXI4_BURST_INCR beats=5 size=8B lock=0 | outstanding=1
# UVM_INFO ../10_tb/axi4_mst/axi4_mst_driver.sv(225) @ 1265000: uvm_test_top.env.axi_agent.drv [axi4_mst_driver] [DRV][AXI][AR] id=0xb addr=0x1600 burst=AXI4_BURST_INCR beats=5 size=8B
# UVM_INFO ../10_tb/axi4_mst/axi4_mst_monitor.sv(211) @ 1265000: uvm_test_top.env.axi_agent.mon [axi4_mst_monitor] [MON][AXI][REQ] AXI4 AXI4_READ id=0xb addr=0x1600 burst=AXI4_BURST_INCR beats=5 size=8B lock=0
# UVM_INFO ../10_tb/env/predictor.sv(75) @ 1265000: uvm_test_top.env.pred [predictor] [PRED][AXI][IN] AXI4 AXI4_READ id=0xb addr=0x1600 burst=AXI4_BURST_INCR beats=5 size=8B lock=0 | queued=1
# UVM_INFO ../10_tb/env/predictor.sv(138) @ 1265000: uvm_test_top.env.pred [predictor] [PRED][MAP] AXI4 AXI4_READ id=0xb addr=0x1600 burst=AXI4_BURST_INCR beats=5 size=8B lock=0 -> AHB burst=AHB_BURST_INCR size=8B crosses_1kb=0
# UVM_INFO ../10_tb/env/predictor.sv(175) @ 1265000: uvm_test_top.env.pred [predictor] [PRED][AHB] beat=1/5 | AHB AHB_READ addr=0x1600 trans=AHB_TRANS_NONSEQ burst=AHB_BURST_INCR size=8B mastlock=0 resp=AHB_RESP_OKAY waits=0
# UVM_INFO ../10_tb/env/predictor.sv(175) @ 1265000: uvm_test_top.env.pred [predictor] [PRED][AHB] beat=2/5 | AHB AHB_READ addr=0x1608 trans=AHB_TRANS_SEQ burst=AHB_BURST_INCR size=8B mastlock=0 resp=AHB_RESP_OKAY waits=0
# UVM_INFO ../10_tb/env/predictor.sv(175) @ 1265000: uvm_test_top.env.pred [predictor] [PRED][AHB] beat=3/5 | AHB AHB_READ addr=0x1610 trans=AHB_TRANS_SEQ burst=AHB_BURST_INCR size=8B mastlock=0 resp=AHB_RESP_OKAY waits=0
# UVM_INFO ../10_tb/env/predictor.sv(175) @ 1265000: uvm_test_top.env.pred [predictor] [PRED][AHB] beat=4/5 | AHB AHB_READ addr=0x1618 trans=AHB_TRANS_SEQ burst=AHB_BURST_INCR size=8B mastlock=0 resp=AHB_RESP_OKAY waits=0
# UVM_INFO ../10_tb/env/predictor.sv(175) @ 1265000: uvm_test_top.env.pred [predictor] [PRED][AHB] beat=5/5 | AHB AHB_READ addr=0x1620 trans=AHB_TRANS_SEQ burst=AHB_BURST_INCR size=8B mastlock=0 resp=AHB_RESP_OKAY waits=0
# UVM_INFO ../10_tb/ahb_slv/ahb_slv_driver.sv(87) @ 1275000: uvm_test_top.env.ahb_agent.drv [ahb_slv_driver] [DRV][AHB][REQ] AHB_READ addr=0x1600 trans=AHB_TRANS_NONSEQ burst=AHB_BURST_INCR size=8B
# UVM_INFO ../10_tb/ahb_slv/ahb_slv_driver.sv(201) @ 1285000: uvm_test_top.env.ahb_agent.drv [ahb_slv_driver] [DRV][AHB][RSP] AHB_READ addr=0x1600 data=0x1600ffffe9ff resp=AHB_RESP_OKAY ready_delay=0
# UVM_INFO ../10_tb/ahb_slv/ahb_slv_monitor.sv(119) @ 1285000: uvm_test_top.env.ahb_agent.mon [ahb_slv_monitor] [MON][AHB][TR] AHB AHB_READ addr=0x1600 trans=AHB_TRANS_NONSEQ burst=AHB_BURST_INCR size=8B mastlock=0 resp=AHB_RESP_OKAY waits=0 | data=0x1600ffffe9ff
# UVM_INFO ../10_tb/env/scoreboard.sv(359) @ 1285000: uvm_test_top.env.scb [scoreboard] [SCB][AHB][PASS] AHB AHB_READ addr=0x1600 trans=AHB_TRANS_NONSEQ burst=AHB_BURST_INCR size=8B mastlock=0 resp=AHB_RESP_OKAY waits=0 | data=0x1600ffffe9ff | total=43
# UVM_INFO ../10_tb/ahb_slv/ahb_slv_driver.sv(87) @ 1295000: uvm_test_top.env.ahb_agent.drv [ahb_slv_driver] [DRV][AHB][REQ] AHB_READ addr=0x1608 trans=AHB_TRANS_SEQ burst=AHB_BURST_INCR size=8B
# UVM_INFO ../10_tb/ahb_slv/ahb_slv_driver.sv(201) @ 1305000: uvm_test_top.env.ahb_agent.drv [ahb_slv_driver] [DRV][AHB][RSP] AHB_READ addr=0x1608 data=0x1608ffffe9f7 resp=AHB_RESP_OKAY ready_delay=0
# UVM_INFO ../10_tb/ahb_slv/ahb_slv_monitor.sv(119) @ 1305000: uvm_test_top.env.ahb_agent.mon [ahb_slv_monitor] [MON][AHB][TR] AHB AHB_READ addr=0x1608 trans=AHB_TRANS_SEQ burst=AHB_BURST_INCR size=8B mastlock=0 resp=AHB_RESP_OKAY waits=0 | data=0x1608ffffe9f7
# UVM_INFO ../10_tb/env/scoreboard.sv(359) @ 1305000: uvm_test_top.env.scb [scoreboard] [SCB][AHB][PASS] AHB AHB_READ addr=0x1608 trans=AHB_TRANS_SEQ burst=AHB_BURST_INCR size=8B mastlock=0 resp=AHB_RESP_OKAY waits=0 | data=0x1608ffffe9f7 | total=44
# UVM_INFO ../10_tb/axi4_mst/axi4_mst_driver.sv(290) @ 1305000: uvm_test_top.env.axi_agent.drv [axi4_mst_driver] [DRV][AXI][R] id=0xb beat=1/5 data=0x1600ffffe9ff resp=AXI4_RESP_OKAY last=0
# UVM_INFO ../10_tb/axi4_mst/axi4_mst_monitor.sv(256) @ 1305000: uvm_test_top.env.axi_agent.mon [axi4_mst_monitor] [MON][AXI][R] id=0xb beat=1/5 data=0x1600ffffe9ff resp=AXI4_RESP_OKAY last=0
# UVM_INFO ../10_tb/ahb_slv/ahb_slv_driver.sv(87) @ 1315000: uvm_test_top.env.ahb_agent.drv [ahb_slv_driver] [DRV][AHB][REQ] AHB_READ addr=0x1610 trans=AHB_TRANS_SEQ burst=AHB_BURST_INCR size=8B
# UVM_INFO ../10_tb/ahb_slv/ahb_slv_driver.sv(201) @ 1325000: uvm_test_top.env.ahb_agent.drv [ahb_slv_driver] [DRV][AHB][RSP] AHB_READ addr=0x1610 data=0x1610ffffe9ef resp=AHB_RESP_OKAY ready_delay=0
# UVM_INFO ../10_tb/ahb_slv/ahb_slv_monitor.sv(119) @ 1325000: uvm_test_top.env.ahb_agent.mon [ahb_slv_monitor] [MON][AHB][TR] AHB AHB_READ addr=0x1610 trans=AHB_TRANS_SEQ burst=AHB_BURST_INCR size=8B mastlock=0 resp=AHB_RESP_OKAY waits=0 | data=0x1610ffffe9ef
# UVM_INFO ../10_tb/env/scoreboard.sv(359) @ 1325000: uvm_test_top.env.scb [scoreboard] [SCB][AHB][PASS] AHB AHB_READ addr=0x1610 trans=AHB_TRANS_SEQ burst=AHB_BURST_INCR size=8B mastlock=0 resp=AHB_RESP_OKAY waits=0 | data=0x1610ffffe9ef | total=45
# UVM_INFO ../10_tb/axi4_mst/axi4_mst_driver.sv(290) @ 1325000: uvm_test_top.env.axi_agent.drv [axi4_mst_driver] [DRV][AXI][R] id=0xb beat=2/5 data=0x1608ffffe9f7 resp=AXI4_RESP_OKAY last=0
# UVM_INFO ../10_tb/axi4_mst/axi4_mst_monitor.sv(256) @ 1325000: uvm_test_top.env.axi_agent.mon [axi4_mst_monitor] [MON][AXI][R] id=0xb beat=2/5 data=0x1608ffffe9f7 resp=AXI4_RESP_OKAY last=0
# UVM_INFO ../10_tb/ahb_slv/ahb_slv_driver.sv(87) @ 1335000: uvm_test_top.env.ahb_agent.drv [ahb_slv_driver] [DRV][AHB][REQ] AHB_READ addr=0x1618 trans=AHB_TRANS_SEQ burst=AHB_BURST_INCR size=8B
# UVM_INFO ../10_tb/ahb_slv/ahb_slv_driver.sv(201) @ 1345000: uvm_test_top.env.ahb_agent.drv [ahb_slv_driver] [DRV][AHB][RSP] AHB_READ addr=0x1618 data=0x1618ffffe9e7 resp=AHB_RESP_OKAY ready_delay=0
# UVM_INFO ../10_tb/ahb_slv/ahb_slv_monitor.sv(119) @ 1345000: uvm_test_top.env.ahb_agent.mon [ahb_slv_monitor] [MON][AHB][TR] AHB AHB_READ addr=0x1618 trans=AHB_TRANS_SEQ burst=AHB_BURST_INCR size=8B mastlock=0 resp=AHB_RESP_OKAY waits=0 | data=0x1618ffffe9e7
# UVM_INFO ../10_tb/env/scoreboard.sv(359) @ 1345000: uvm_test_top.env.scb [scoreboard] [SCB][AHB][PASS] AHB AHB_READ addr=0x1618 trans=AHB_TRANS_SEQ burst=AHB_BURST_INCR size=8B mastlock=0 resp=AHB_RESP_OKAY waits=0 | data=0x1618ffffe9e7 | total=46
# UVM_INFO ../10_tb/axi4_mst/axi4_mst_driver.sv(290) @ 1345000: uvm_test_top.env.axi_agent.drv [axi4_mst_driver] [DRV][AXI][R] id=0xb beat=3/5 data=0x1610ffffe9ef resp=AXI4_RESP_OKAY last=0
# UVM_INFO ../10_tb/axi4_mst/axi4_mst_monitor.sv(256) @ 1345000: uvm_test_top.env.axi_agent.mon [axi4_mst_monitor] [MON][AXI][R] id=0xb beat=3/5 data=0x1610ffffe9ef resp=AXI4_RESP_OKAY last=0
# UVM_INFO ../10_tb/ahb_slv/ahb_slv_driver.sv(87) @ 1355000: uvm_test_top.env.ahb_agent.drv [ahb_slv_driver] [DRV][AHB][REQ] AHB_READ addr=0x1620 trans=AHB_TRANS_SEQ burst=AHB_BURST_INCR size=8B
# UVM_INFO ../10_tb/ahb_slv/ahb_slv_driver.sv(201) @ 1365000: uvm_test_top.env.ahb_agent.drv [ahb_slv_driver] [DRV][AHB][RSP] AHB_READ addr=0x1620 data=0x1620ffffe9df resp=AHB_RESP_OKAY ready_delay=0
# UVM_INFO ../10_tb/ahb_slv/ahb_slv_monitor.sv(119) @ 1365000: uvm_test_top.env.ahb_agent.mon [ahb_slv_monitor] [MON][AHB][TR] AHB AHB_READ addr=0x1620 trans=AHB_TRANS_SEQ burst=AHB_BURST_INCR size=8B mastlock=0 resp=AHB_RESP_OKAY waits=0 | data=0x1620ffffe9df
# UVM_INFO ../10_tb/env/scoreboard.sv(359) @ 1365000: uvm_test_top.env.scb [scoreboard] [SCB][AHB][PASS] AHB AHB_READ addr=0x1620 trans=AHB_TRANS_SEQ burst=AHB_BURST_INCR size=8B mastlock=0 resp=AHB_RESP_OKAY waits=0 | data=0x1620ffffe9df | total=47
# UVM_INFO ../10_tb/axi4_mst/axi4_mst_driver.sv(290) @ 1365000: uvm_test_top.env.axi_agent.drv [axi4_mst_driver] [DRV][AXI][R] id=0xb beat=4/5 data=0x1618ffffe9e7 resp=AXI4_RESP_OKAY last=0
# UVM_INFO ../10_tb/axi4_mst/axi4_mst_monitor.sv(256) @ 1365000: uvm_test_top.env.axi_agent.mon [axi4_mst_monitor] [MON][AXI][R] id=0xb beat=4/5 data=0x1618ffffe9e7 resp=AXI4_RESP_OKAY last=0
# UVM_INFO ../10_tb/axi4_mst/axi4_mst_driver.sv(290) @ 1385000: uvm_test_top.env.axi_agent.drv [axi4_mst_driver] [DRV][AXI][R] id=0xb beat=5/5 data=0x1620ffffe9df resp=AXI4_RESP_OKAY last=1
# UVM_INFO ../10_tb/axi4_mst/axi4_mst_monitor.sv(256) @ 1385000: uvm_test_top.env.axi_agent.mon [axi4_mst_monitor] [MON][AXI][R] id=0xb beat=5/5 data=0x1620ffffe9df resp=AXI4_RESP_OKAY last=1
# UVM_INFO ../10_tb/axi4_mst/axi4_mst_monitor.sv(262) @ 1385000: uvm_test_top.env.axi_agent.mon [axi4_mst_monitor] [MON][AXI][RSP] READ id=0xb beats=5
# UVM_INFO ../10_tb/env/scoreboard.sv(506) @ 1385000: uvm_test_top.env.scb [scoreboard] [SCB][AXI][PASS] AXI4 AXI4_READ id=0xb addr=0x1600 burst=AXI4_BURST_INCR beats=5 size=8B lock=0 | read beats=5 | total=7
# UVM_INFO ../10_tb/seq/axi4_mst_seq/axi4_mst_parameter_seq.sv(203) @ 1385000: uvm_test_top.env.axi_agent.sqr@@axi_seq [axi4_mst_parameter_seq] [7] INCR5_WR addr=0x1700 beats=5 size=8B burst=AXI4_BURST_INCR
# UVM_INFO ../10_tb/axi4_mst/axi4_mst_driver.sv(105) @ 1385000: uvm_test_top.env.axi_agent.drv [axi4_mst_driver] [DRV][AXI][REQ] AXI4 AXI4_WRITE id=0xe addr=0x1700 burst=AXI4_BURST_INCR beats=5 size=8B lock=0 | outstanding=1
# UVM_INFO ../10_tb/axi4_mst/axi4_mst_driver.sv(178) @ 1425000: uvm_test_top.env.axi_agent.drv [axi4_mst_driver] [DRV][AXI][AW] id=0xe addr=0x1700 burst=AXI4_BURST_INCR beats=5 size=8B
# UVM_INFO ../10_tb/axi4_mst/axi4_mst_driver.sv(198) @ 1425000: uvm_test_top.env.axi_agent.drv [axi4_mst_driver] [DRV][AXI][W] id=0xe beat=1/5 data=0x1e1d1c1b1a191817 strb=0xff last=0
# UVM_INFO ../10_tb/ahb_slv/ahb_slv_driver.sv(87) @ 1435000: uvm_test_top.env.ahb_agent.drv [ahb_slv_driver] [DRV][AHB][REQ] AHB_WRITE addr=0x1700 trans=AHB_TRANS_NONSEQ burst=AHB_BURST_INCR size=8B
# UVM_INFO ../10_tb/ahb_slv/ahb_slv_driver.sv(201) @ 1445000: uvm_test_top.env.ahb_agent.drv [ahb_slv_driver] [DRV][AHB][RSP] AHB_WRITE addr=0x1700 data=0x1e1d1c1b1a191817 resp=AHB_RESP_OKAY ready_delay=0
# UVM_INFO ../10_tb/ahb_slv/ahb_slv_monitor.sv(119) @ 1445000: uvm_test_top.env.ahb_agent.mon [ahb_slv_monitor] [MON][AHB][TR] AHB AHB_WRITE addr=0x1700 trans=AHB_TRANS_NONSEQ burst=AHB_BURST_INCR size=8B mastlock=0 resp=AHB_RESP_OKAY waits=0 | data=0x1e1d1c1b1a191817
# UVM_INFO ../10_tb/ahb_slv/ahb_slv_driver.sv(87) @ 1455000: uvm_test_top.env.ahb_agent.drv [ahb_slv_driver] [DRV][AHB][REQ] AHB_WRITE addr=0x1708 trans=AHB_TRANS_SEQ burst=AHB_BURST_INCR size=8B
# UVM_INFO ../10_tb/axi4_mst/axi4_mst_driver.sv(198) @ 1455000: uvm_test_top.env.axi_agent.drv [axi4_mst_driver] [DRV][AXI][W] id=0xe beat=2/5 data=0x2221201f1e1d1c1b strb=0xff last=0
# UVM_INFO ../10_tb/ahb_slv/ahb_slv_driver.sv(201) @ 1465000: uvm_test_top.env.ahb_agent.drv [ahb_slv_driver] [DRV][AHB][RSP] AHB_WRITE addr=0x1708 data=0x2221201f1e1d1c1b resp=AHB_RESP_OKAY ready_delay=0
# UVM_INFO ../10_tb/ahb_slv/ahb_slv_monitor.sv(119) @ 1465000: uvm_test_top.env.ahb_agent.mon [ahb_slv_monitor] [MON][AHB][TR] AHB AHB_WRITE addr=0x1708 trans=AHB_TRANS_SEQ burst=AHB_BURST_INCR size=8B mastlock=0 resp=AHB_RESP_OKAY waits=0 | data=0x2221201f1e1d1c1b
# UVM_INFO ../10_tb/ahb_slv/ahb_slv_driver.sv(87) @ 1475000: uvm_test_top.env.ahb_agent.drv [ahb_slv_driver] [DRV][AHB][REQ] AHB_WRITE addr=0x1710 trans=AHB_TRANS_SEQ burst=AHB_BURST_INCR size=8B
# UVM_INFO ../10_tb/axi4_mst/axi4_mst_driver.sv(198) @ 1475000: uvm_test_top.env.axi_agent.drv [axi4_mst_driver] [DRV][AXI][W] id=0xe beat=3/5 data=0x262524232221201f strb=0xff last=0
# UVM_INFO ../10_tb/ahb_slv/ahb_slv_driver.sv(201) @ 1485000: uvm_test_top.env.ahb_agent.drv [ahb_slv_driver] [DRV][AHB][RSP] AHB_WRITE addr=0x1710 data=0x262524232221201f resp=AHB_RESP_OKAY ready_delay=0
# UVM_INFO ../10_tb/ahb_slv/ahb_slv_monitor.sv(119) @ 1485000: uvm_test_top.env.ahb_agent.mon [ahb_slv_monitor] [MON][AHB][TR] AHB AHB_WRITE addr=0x1710 trans=AHB_TRANS_SEQ burst=AHB_BURST_INCR size=8B mastlock=0 resp=AHB_RESP_OKAY waits=0 | data=0x262524232221201f
# UVM_INFO ../10_tb/ahb_slv/ahb_slv_driver.sv(87) @ 1495000: uvm_test_top.env.ahb_agent.drv [ahb_slv_driver] [DRV][AHB][REQ] AHB_WRITE addr=0x1718 trans=AHB_TRANS_SEQ burst=AHB_BURST_INCR size=8B
# UVM_INFO ../10_tb/axi4_mst/axi4_mst_driver.sv(198) @ 1495000: uvm_test_top.env.axi_agent.drv [axi4_mst_driver] [DRV][AXI][W] id=0xe beat=4/5 data=0x2a29282726252423 strb=0xff last=0
# UVM_INFO ../10_tb/ahb_slv/ahb_slv_driver.sv(201) @ 1505000: uvm_test_top.env.ahb_agent.drv [ahb_slv_driver] [DRV][AHB][RSP] AHB_WRITE addr=0x1718 data=0x2a29282726252423 resp=AHB_RESP_OKAY ready_delay=0
# UVM_INFO ../10_tb/ahb_slv/ahb_slv_monitor.sv(119) @ 1505000: uvm_test_top.env.ahb_agent.mon [ahb_slv_monitor] [MON][AHB][TR] AHB AHB_WRITE addr=0x1718 trans=AHB_TRANS_SEQ burst=AHB_BURST_INCR size=8B mastlock=0 resp=AHB_RESP_OKAY waits=0 | data=0x2a29282726252423
# UVM_INFO ../10_tb/ahb_slv/ahb_slv_driver.sv(87) @ 1515000: uvm_test_top.env.ahb_agent.drv [ahb_slv_driver] [DRV][AHB][REQ] AHB_WRITE addr=0x1720 trans=AHB_TRANS_SEQ burst=AHB_BURST_INCR size=8B
# UVM_INFO ../10_tb/axi4_mst/axi4_mst_driver.sv(198) @ 1515000: uvm_test_top.env.axi_agent.drv [axi4_mst_driver] [DRV][AXI][W] id=0xe beat=5/5 data=0x2e2d2c2b2a292827 strb=0xff last=1
# UVM_INFO ../10_tb/axi4_mst/axi4_mst_monitor.sv(151) @ 1515000: uvm_test_top.env.axi_agent.mon [axi4_mst_monitor] [MON][AXI][REQ] AXI4 AXI4_WRITE id=0xe addr=0x1700 burst=AXI4_BURST_INCR beats=5 size=8B lock=0
# UVM_INFO ../10_tb/env/predictor.sv(75) @ 1515000: uvm_test_top.env.pred [predictor] [PRED][AXI][IN] AXI4 AXI4_WRITE id=0xe addr=0x1700 burst=AXI4_BURST_INCR beats=5 size=8B lock=0 | queued=1
# UVM_INFO ../10_tb/env/predictor.sv(138) @ 1515000: uvm_test_top.env.pred [predictor] [PRED][MAP] AXI4 AXI4_WRITE id=0xe addr=0x1700 burst=AXI4_BURST_INCR beats=5 size=8B lock=0 -> AHB burst=AHB_BURST_INCR size=8B crosses_1kb=0
# UVM_INFO ../10_tb/env/predictor.sv(169) @ 1515000: uvm_test_top.env.pred [predictor] [PRED][AHB] beat=1/5 | AHB AHB_WRITE addr=0x1700 trans=AHB_TRANS_NONSEQ burst=AHB_BURST_INCR size=8B mastlock=0 resp=AHB_RESP_OKAY waits=0 | wdata=0x1e1d1c1b1a191817
# UVM_INFO ../10_tb/env/scoreboard.sv(359) @ 1515000: uvm_test_top.env.scb [scoreboard] [SCB][AHB][PASS] AHB AHB_WRITE addr=0x1700 trans=AHB_TRANS_NONSEQ burst=AHB_BURST_INCR size=8B mastlock=0 resp=AHB_RESP_OKAY waits=0 | data=0x1e1d1c1b1a191817 | total=48
# UVM_INFO ../10_tb/env/predictor.sv(169) @ 1515000: uvm_test_top.env.pred [predictor] [PRED][AHB] beat=2/5 | AHB AHB_WRITE addr=0x1708 trans=AHB_TRANS_SEQ burst=AHB_BURST_INCR size=8B mastlock=0 resp=AHB_RESP_OKAY waits=0 | wdata=0x2221201f1e1d1c1b
# UVM_INFO ../10_tb/env/scoreboard.sv(359) @ 1515000: uvm_test_top.env.scb [scoreboard] [SCB][AHB][PASS] AHB AHB_WRITE addr=0x1708 trans=AHB_TRANS_SEQ burst=AHB_BURST_INCR size=8B mastlock=0 resp=AHB_RESP_OKAY waits=0 | data=0x2221201f1e1d1c1b | total=49
# UVM_INFO ../10_tb/env/predictor.sv(169) @ 1515000: uvm_test_top.env.pred [predictor] [PRED][AHB] beat=3/5 | AHB AHB_WRITE addr=0x1710 trans=AHB_TRANS_SEQ burst=AHB_BURST_INCR size=8B mastlock=0 resp=AHB_RESP_OKAY waits=0 | wdata=0x262524232221201f
# UVM_INFO ../10_tb/env/scoreboard.sv(359) @ 1515000: uvm_test_top.env.scb [scoreboard] [SCB][AHB][PASS] AHB AHB_WRITE addr=0x1710 trans=AHB_TRANS_SEQ burst=AHB_BURST_INCR size=8B mastlock=0 resp=AHB_RESP_OKAY waits=0 | data=0x262524232221201f | total=50
# UVM_INFO ../10_tb/env/predictor.sv(169) @ 1515000: uvm_test_top.env.pred [predictor] [PRED][AHB] beat=4/5 | AHB AHB_WRITE addr=0x1718 trans=AHB_TRANS_SEQ burst=AHB_BURST_INCR size=8B mastlock=0 resp=AHB_RESP_OKAY waits=0 | wdata=0x2a29282726252423
# UVM_INFO ../10_tb/env/scoreboard.sv(359) @ 1515000: uvm_test_top.env.scb [scoreboard] [SCB][AHB][PASS] AHB AHB_WRITE addr=0x1718 trans=AHB_TRANS_SEQ burst=AHB_BURST_INCR size=8B mastlock=0 resp=AHB_RESP_OKAY waits=0 | data=0x2a29282726252423 | total=51
# UVM_INFO ../10_tb/env/predictor.sv(169) @ 1515000: uvm_test_top.env.pred [predictor] [PRED][AHB] beat=5/5 | AHB AHB_WRITE addr=0x1720 trans=AHB_TRANS_SEQ burst=AHB_BURST_INCR size=8B mastlock=0 resp=AHB_RESP_OKAY waits=0 | wdata=0x2e2d2c2b2a292827
# UVM_INFO ../10_tb/ahb_slv/ahb_slv_driver.sv(201) @ 1525000: uvm_test_top.env.ahb_agent.drv [ahb_slv_driver] [DRV][AHB][RSP] AHB_WRITE addr=0x1720 data=0x2e2d2c2b2a292827 resp=AHB_RESP_OKAY ready_delay=0
# UVM_INFO ../10_tb/ahb_slv/ahb_slv_monitor.sv(119) @ 1525000: uvm_test_top.env.ahb_agent.mon [ahb_slv_monitor] [MON][AHB][TR] AHB AHB_WRITE addr=0x1720 trans=AHB_TRANS_SEQ burst=AHB_BURST_INCR size=8B mastlock=0 resp=AHB_RESP_OKAY waits=0 | data=0x2e2d2c2b2a292827
# UVM_INFO ../10_tb/env/scoreboard.sv(359) @ 1525000: uvm_test_top.env.scb [scoreboard] [SCB][AHB][PASS] AHB AHB_WRITE addr=0x1720 trans=AHB_TRANS_SEQ burst=AHB_BURST_INCR size=8B mastlock=0 resp=AHB_RESP_OKAY waits=0 | data=0x2e2d2c2b2a292827 | total=52
# UVM_INFO ../10_tb/axi4_mst/axi4_mst_driver.sv(250) @ 1535000: uvm_test_top.env.axi_agent.drv [axi4_mst_driver] [DRV][AXI][B] id=0xe resp=AXI4_RESP_OKAY
# UVM_INFO ../10_tb/axi4_mst/axi4_mst_monitor.sv(177) @ 1535000: uvm_test_top.env.axi_agent.mon [axi4_mst_monitor] [MON][AXI][RSP] WRITE id=0xe resp=AXI4_RESP_OKAY
# UVM_INFO ../10_tb/env/scoreboard.sv(499) @ 1535000: uvm_test_top.env.scb [scoreboard] [SCB][AXI][PASS] AXI4 AXI4_WRITE id=0xe addr=0x1700 burst=AXI4_BURST_INCR beats=5 size=8B lock=0 | bresp=AXI4_RESP_OKAY | total=8
# UVM_INFO ../10_tb/seq/axi4_mst_seq/axi4_mst_parameter_seq.sv(203) @ 1535000: uvm_test_top.env.axi_agent.sqr@@axi_seq [axi4_mst_parameter_seq] [8] WRAP4_RD addr=0x1810 beats=4 size=8B burst=AXI4_BURST_WRAP
# UVM_INFO ../10_tb/axi4_mst/axi4_mst_driver.sv(105) @ 1535000: uvm_test_top.env.axi_agent.drv [axi4_mst_driver] [DRV][AXI][REQ] AXI4 AXI4_READ id=0xd addr=0x1810 burst=AXI4_BURST_WRAP beats=4 size=8B lock=0 | outstanding=1
# UVM_INFO ../10_tb/axi4_mst/axi4_mst_driver.sv(225) @ 1565000: uvm_test_top.env.axi_agent.drv [axi4_mst_driver] [DRV][AXI][AR] id=0xd addr=0x1810 burst=AXI4_BURST_WRAP beats=4 size=8B
# UVM_INFO ../10_tb/axi4_mst/axi4_mst_monitor.sv(211) @ 1565000: uvm_test_top.env.axi_agent.mon [axi4_mst_monitor] [MON][AXI][REQ] AXI4 AXI4_READ id=0xd addr=0x1810 burst=AXI4_BURST_WRAP beats=4 size=8B lock=0
# UVM_INFO ../10_tb/env/predictor.sv(75) @ 1565000: uvm_test_top.env.pred [predictor] [PRED][AXI][IN] AXI4 AXI4_READ id=0xd addr=0x1810 burst=AXI4_BURST_WRAP beats=4 size=8B lock=0 | queued=1
# UVM_INFO ../10_tb/env/predictor.sv(138) @ 1565000: uvm_test_top.env.pred [predictor] [PRED][MAP] AXI4 AXI4_READ id=0xd addr=0x1810 burst=AXI4_BURST_WRAP beats=4 size=8B lock=0 -> AHB burst=AHB_BURST_WRAP4 size=8B crosses_1kb=0
# UVM_INFO ../10_tb/env/predictor.sv(175) @ 1565000: uvm_test_top.env.pred [predictor] [PRED][AHB] beat=1/4 | AHB AHB_READ addr=0x1810 trans=AHB_TRANS_NONSEQ burst=AHB_BURST_WRAP4 size=8B mastlock=0 resp=AHB_RESP_OKAY waits=0
# UVM_INFO ../10_tb/env/predictor.sv(175) @ 1565000: uvm_test_top.env.pred [predictor] [PRED][AHB] beat=2/4 | AHB AHB_READ addr=0x1818 trans=AHB_TRANS_SEQ burst=AHB_BURST_WRAP4 size=8B mastlock=0 resp=AHB_RESP_OKAY waits=0
# UVM_INFO ../10_tb/env/predictor.sv(175) @ 1565000: uvm_test_top.env.pred [predictor] [PRED][AHB] beat=3/4 | AHB AHB_READ addr=0x1800 trans=AHB_TRANS_SEQ burst=AHB_BURST_WRAP4 size=8B mastlock=0 resp=AHB_RESP_OKAY waits=0
# UVM_INFO ../10_tb/env/predictor.sv(175) @ 1565000: uvm_test_top.env.pred [predictor] [PRED][AHB] beat=4/4 | AHB AHB_READ addr=0x1808 trans=AHB_TRANS_SEQ burst=AHB_BURST_WRAP4 size=8B mastlock=0 resp=AHB_RESP_OKAY waits=0
# UVM_INFO ../10_tb/ahb_slv/ahb_slv_driver.sv(87) @ 1575000: uvm_test_top.env.ahb_agent.drv [ahb_slv_driver] [DRV][AHB][REQ] AHB_READ addr=0x1810 trans=AHB_TRANS_NONSEQ burst=AHB_BURST_WRAP4 size=8B
# UVM_INFO ../10_tb/ahb_slv/ahb_slv_driver.sv(201) @ 1585000: uvm_test_top.env.ahb_agent.drv [ahb_slv_driver] [DRV][AHB][RSP] AHB_READ addr=0x1810 data=0x1810ffffe7ef resp=AHB_RESP_OKAY ready_delay=0
# UVM_INFO ../10_tb/ahb_slv/ahb_slv_monitor.sv(119) @ 1585000: uvm_test_top.env.ahb_agent.mon [ahb_slv_monitor] [MON][AHB][TR] AHB AHB_READ addr=0x1810 trans=AHB_TRANS_NONSEQ burst=AHB_BURST_WRAP4 size=8B mastlock=0 resp=AHB_RESP_OKAY waits=0 | data=0x1810ffffe7ef
# UVM_INFO ../10_tb/env/scoreboard.sv(359) @ 1585000: uvm_test_top.env.scb [scoreboard] [SCB][AHB][PASS] AHB AHB_READ addr=0x1810 trans=AHB_TRANS_NONSEQ burst=AHB_BURST_WRAP4 size=8B mastlock=0 resp=AHB_RESP_OKAY waits=0 | data=0x1810ffffe7ef | total=53
