# vsim -c -coverage -sv_seed 58512931 "+UVM_TESTNAME=bridge_data_integrity_test" "+UVM_VERBOSITY=UVM_HIGH" -l report/logs/bridge_data_integrity_test_run_3_seed_58512931.log -wlf report/wlf/bridge_data_integrity_test_run_3_seed_58512931.wlf -do "coverage save -onexit report/coverage/bridge_data_integrity_test_run_3_seed_58512931.ucdb; run -all; quit -f" work.opt_bridge_tb_top 
# Start time: 09:40:46 on Sep 18,2026
# //  Questa Sim-64
# //  Version 10.6b linux_x86_64 May 25 2017
# //
# //  Copyright 1991-2017 Mentor Graphics Corporation
# //  All Rights Reserved.
# //
# //  QuestaSim and its associated documentation contain trade
# //  secrets and commercial or financial information that are the property of
# //  Mentor Graphics Corporation and are privileged, confidential,
# //  and exempt from disclosure under the Freedom of Information Act,
# //  5 U.S.C. Section 552. Furthermore, this information
# //  is prohibited from disclosure under the Trade Secrets Act,
# //  18 U.S.C. Section 1905.
# //
# Loading sv_std.std
# Loading work.axi4_if(fast)
# Loading work.ahb_if(fast)
# Loading mtiUvm.uvm_pkg
# Loading work.bridge_vip_pkg(fast)
# Loading work.bridge_seq_pkg(fast)
# Loading work.bridge_test_pkg(fast)
# Loading work.bridge_tb_top(fast)
# Loading work.axi4_if(fast)
# Loading work.ahb_if(fast)
# Loading work.axi_ahblite_bridge(fast)
# Loading work.ahb_skid_buf(fast)
# Loading work.axi_slv_if(fast)
# Loading work.ahb_mstr_if(fast)
# Loading work.time_out(fast)
# Loading work.axi4_sva(fast)
# Loading work.ahb_sva(fast)
# Loading mtiUvm.questa_uvm_pkg(fast)
# Loading /cadtools/mentor/Questa_10.6b/questasim/uvm-1.1d/linux_x86_64/uvm_dpi.so
# coverage save -onexit report/coverage/bridge_data_integrity_test_run_3_seed_58512931.ucdb
#  run -all
# ----------------------------------------------------------------
# UVM-1.1d
# (C) 2007-2013 Mentor Graphics Corporation
# (C) 2007-2013 Cadence Design Systems, Inc.
# (C) 2006-2013 Synopsys, Inc.
# (C) 2011-2013 Cypress Semiconductor Corp.
# ----------------------------------------------------------------
# 
#   ***********       IMPORTANT RELEASE NOTES         ************
# 
#   You are using a version of the UVM library that has been compiled
#   with `UVM_NO_DEPRECATED undefined.
#   See http://www.eda.org/svdb/view.php?id=3313 for more details.
# 
#   You are using a version of the UVM library that has been compiled
#   with `UVM_OBJECT_MUST_HAVE_CONSTRUCTOR undefined.
#   See http://www.eda.org/svdb/view.php?id=3770 for more details.
# 
#       (Specify +UVM_NO_RELNOTES to turn off this notice)
# 
# UVM_INFO verilog_src/questa_uvm_pkg-1.2/src/questa_uvm_pkg.sv(215) @ 0: reporter [Questa UVM] QUESTA_UVM-1.2.3
# UVM_INFO verilog_src/questa_uvm_pkg-1.2/src/questa_uvm_pkg.sv(217) @ 0: reporter [Questa UVM]  questa_uvm::init(+struct)
# UVM_INFO @ 0: reporter [RNTST] Running test bridge_data_integrity_test...
# UVM_INFO @ 0: reporter [UVMTOP] UVM testbench topology:
# -------------------------------------------------------------------------
# Name                       Type                               Size  Value
# -------------------------------------------------------------------------
# uvm_test_top               bridge_data_integrity_test         -     @490 
#   env                      vip_env                            -     @508 
#     ahb_agent              ahb_slv_agent                      -     @529 
#       ap                   uvm_analysis_port                  -     @667 
#       cov                  ahb_slv_coverage                   -     @693 
#         analysis_imp       uvm_analysis_imp                   -     @700 
#         trans_export       uvm_analysis_imp_ahb_trans         -     @841 
#       drv                  ahb_slv_driver                     -     @818 
#         rsp_port           uvm_analysis_port                  -     @833 
#         seq_item_port      uvm_seq_item_pull_port             -     @825 
#       mon                  ahb_slv_monitor                    -     @686 
#         ap                 uvm_analysis_port                  -     @850 
#         trans_ap           uvm_analysis_port                  -     @858 
#       sqr                  ahb_slv_sequencer                  -     @709 
#         rsp_export         uvm_analysis_export                -     @716 
#         seq_item_export    uvm_seq_item_pull_imp              -     @810 
#         arbitration_queue  array                              0     -    
#         lock_queue         array                              0     -    
#         num_last_reqs      integral                           32    'd1  
#         num_last_rsps      integral                           32    'd1  
#       trans_ap             uvm_analysis_port                  -     @675 
#     axi_agent              axi4_mst_agent                     -     @522 
#       ap                   uvm_analysis_port                  -     @881 
#       cov                  axi4_mst_coverage                  -     @899 
#         analysis_imp       uvm_analysis_imp                   -     @906 
#       drv                  axi4_mst_driver                    -     @1024
#         rsp_port           uvm_analysis_port                  -     @1039
#         seq_item_port      uvm_seq_item_pull_port             -     @1031
#       mon                  axi4_mst_monitor                   -     @892 
#         ap                 uvm_analysis_port                  -     @1056
#         req_ap             uvm_analysis_port                  -     @1048
#       req_ap               uvm_analysis_port                  -     @873 
#       sqr                  axi4_mst_sequencer                 -     @915 
#         rsp_export         uvm_analysis_export                -     @922 
#         seq_item_export    uvm_seq_item_pull_imp              -     @1016
#         arbitration_queue  array                              0     -    
#         lock_queue         array                              0     -    
#         num_last_reqs      integral                           32    'd1  
#         num_last_rsps      integral                           32    'd1  
#     cov                    e2e_cov                            -     @659 
#       actual_ahb_export    uvm_analysis_imp_e2e_actual_ahb    -     @1086
#       axi_req_export       uvm_analysis_imp_e2e_axi_req       -     @1070
#       axi_rsp_export       uvm_analysis_imp_e2e_axi_rsp       -     @1094
#       expected_ahb_export  uvm_analysis_imp_e2e_expected_ahb  -     @1078
#     pred                   predictor                          -     @645 
#       axi_request_export   uvm_analysis_imp_axi_request       -     @1102
#       expected_ahb_ap      uvm_analysis_port                  -     @1110
#       expected_axi_ap      uvm_analysis_port                  -     @1118
#     scb                    scoreboard                         -     @652 
#       actual_ahb_export    uvm_analysis_imp_actual_ahb        -     @1134
#       actual_axi_export    uvm_analysis_imp_actual_axi        -     @1150
#       expected_ahb_export  uvm_analysis_imp_expected_ahb      -     @1126
#       expected_axi_export  uvm_analysis_imp_expected_axi      -     @1142
#     vseqr                  virtual_sequencer                  -     @536 
#       rsp_export           uvm_analysis_export                -     @543 
#       seq_item_export      uvm_seq_item_pull_imp              -     @637 
#       arbitration_queue    array                              0     -    
#       lock_queue           array                              0     -    
#       num_last_reqs        integral                           32    'd1  
#       num_last_rsps        integral                           32    'd1  
# -------------------------------------------------------------------------
# 
# UVM_INFO verilog_src/questa_uvm_pkg-1.2/src/questa_uvm_pkg.sv(277) @ 0: reporter [Questa UVM] End Of Elaboration
# UVM_INFO ../10_tb/bridge_tb_top.sv(47) @ 95000: reporter [BRIDGE_TB_TOP] Power-on reset released
# UVM_INFO ../10_tb/axi4_mst/axi4_mst_driver.sv(105) @ 95000: uvm_test_top.env.axi_agent.drv [axi4_mst_driver] [DRV][AXI][REQ] AXI4 AXI4_WRITE id=0xd addr=0x1000 burst=AXI4_BURST_INCR beats=1 size=4B lock=0 | outstanding=1
# UVM_INFO ../10_tb/axi4_mst/axi4_mst_driver.sv(178) @ 135000: uvm_test_top.env.axi_agent.drv [axi4_mst_driver] [DRV][AXI][AW] id=0xd addr=0x1000 burst=AXI4_BURST_INCR beats=1 size=4B
# UVM_INFO ../10_tb/axi4_mst/axi4_mst_driver.sv(198) @ 135000: uvm_test_top.env.axi_agent.drv [axi4_mst_driver] [DRV][AXI][W] id=0xd beat=1/1 data=0x23222120 strb=0xf last=1
# UVM_INFO ../10_tb/axi4_mst/axi4_mst_monitor.sv(151) @ 135000: uvm_test_top.env.axi_agent.mon [axi4_mst_monitor] [MON][AXI][REQ] AXI4 AXI4_WRITE id=0xd addr=0x1000 burst=AXI4_BURST_INCR beats=1 size=4B lock=0
# UVM_INFO ../10_tb/env/predictor.sv(75) @ 135000: uvm_test_top.env.pred [predictor] [PRED][AXI][IN] AXI4 AXI4_WRITE id=0xd addr=0x1000 burst=AXI4_BURST_INCR beats=1 size=4B lock=0 | queued=1
# UVM_INFO ../10_tb/env/predictor.sv(138) @ 135000: uvm_test_top.env.pred [predictor] [PRED][MAP] AXI4 AXI4_WRITE id=0xd addr=0x1000 burst=AXI4_BURST_INCR beats=1 size=4B lock=0 -> AHB burst=AHB_BURST_SINGLE size=4B crosses_1kb=0
# UVM_INFO ../10_tb/env/predictor.sv(169) @ 135000: uvm_test_top.env.pred [predictor] [PRED][AHB] beat=1/1 | AHB AHB_WRITE addr=0x1000 trans=AHB_TRANS_NONSEQ burst=AHB_BURST_SINGLE size=4B mastlock=0 resp=AHB_RESP_OKAY waits=0 | wdata=0x23222120
# UVM_INFO ../10_tb/ahb_slv/ahb_slv_driver.sv(87) @ 145000: uvm_test_top.env.ahb_agent.drv [ahb_slv_driver] [DRV][AHB][REQ] AHB_WRITE addr=0x1000 trans=AHB_TRANS_NONSEQ burst=AHB_BURST_SINGLE size=4B
# UVM_INFO ../10_tb/ahb_slv/ahb_slv_driver.sv(201) @ 155000: uvm_test_top.env.ahb_agent.drv [ahb_slv_driver] [DRV][AHB][RSP] AHB_WRITE addr=0x1000 data=0x23222120 resp=AHB_RESP_OKAY ready_delay=0
# UVM_INFO ../10_tb/ahb_slv/ahb_slv_monitor.sv(119) @ 155000: uvm_test_top.env.ahb_agent.mon [ahb_slv_monitor] [MON][AHB][TR] AHB AHB_WRITE addr=0x1000 trans=AHB_TRANS_NONSEQ burst=AHB_BURST_SINGLE size=4B mastlock=0 resp=AHB_RESP_OKAY waits=0 | data=0x23222120
# UVM_INFO ../10_tb/env/scoreboard.sv(154) @ 155000: uvm_test_top.env.scb [scoreboard] [SCB][AHB][PASS] AHB AHB_WRITE addr=0x1000 trans=AHB_TRANS_NONSEQ burst=AHB_BURST_SINGLE size=4B mastlock=0 resp=AHB_RESP_OKAY waits=0 | data=0x23222120 | total=1
# UVM_INFO ../10_tb/axi4_mst/axi4_mst_driver.sv(250) @ 165000: uvm_test_top.env.axi_agent.drv [axi4_mst_driver] [DRV][AXI][B] id=0xd resp=AXI4_RESP_OKAY
# UVM_INFO ../10_tb/axi4_mst/axi4_mst_monitor.sv(177) @ 165000: uvm_test_top.env.axi_agent.mon [axi4_mst_monitor] [MON][AXI][RSP] WRITE id=0xd resp=AXI4_RESP_OKAY
# UVM_INFO ../10_tb/env/scoreboard.sv(291) @ 165000: uvm_test_top.env.scb [scoreboard] [SCB][AXI][PASS] AXI4 AXI4_WRITE id=0xd addr=0x1000 burst=AXI4_BURST_INCR beats=1 size=4B lock=0 | bresp=AXI4_RESP_OKAY | total=1
# UVM_INFO ../10_tb/axi4_mst/axi4_mst_driver.sv(105) @ 165000: uvm_test_top.env.axi_agent.drv [axi4_mst_driver] [DRV][AXI][REQ] AXI4 AXI4_READ id=0x6 addr=0x1000 burst=AXI4_BURST_INCR beats=1 size=4B lock=0 | outstanding=1
# UVM_INFO ../10_tb/axi4_mst/axi4_mst_driver.sv(225) @ 195000: uvm_test_top.env.axi_agent.drv [axi4_mst_driver] [DRV][AXI][AR] id=0x6 addr=0x1000 burst=AXI4_BURST_INCR beats=1 size=4B
# UVM_INFO ../10_tb/axi4_mst/axi4_mst_monitor.sv(211) @ 195000: uvm_test_top.env.axi_agent.mon [axi4_mst_monitor] [MON][AXI][REQ] AXI4 AXI4_READ id=0x6 addr=0x1000 burst=AXI4_BURST_INCR beats=1 size=4B lock=0
# UVM_INFO ../10_tb/env/predictor.sv(75) @ 195000: uvm_test_top.env.pred [predictor] [PRED][AXI][IN] AXI4 AXI4_READ id=0x6 addr=0x1000 burst=AXI4_BURST_INCR beats=1 size=4B lock=0 | queued=1
# UVM_INFO ../10_tb/env/predictor.sv(138) @ 195000: uvm_test_top.env.pred [predictor] [PRED][MAP] AXI4 AXI4_READ id=0x6 addr=0x1000 burst=AXI4_BURST_INCR beats=1 size=4B lock=0 -> AHB burst=AHB_BURST_SINGLE size=4B crosses_1kb=0
# UVM_INFO ../10_tb/env/predictor.sv(175) @ 195000: uvm_test_top.env.pred [predictor] [PRED][AHB] beat=1/1 | AHB AHB_READ addr=0x1000 trans=AHB_TRANS_NONSEQ burst=AHB_BURST_SINGLE size=4B mastlock=0 resp=AHB_RESP_OKAY waits=0
# UVM_INFO ../10_tb/ahb_slv/ahb_slv_driver.sv(87) @ 205000: uvm_test_top.env.ahb_agent.drv [ahb_slv_driver] [DRV][AHB][REQ] AHB_READ addr=0x1000 trans=AHB_TRANS_NONSEQ burst=AHB_BURST_SINGLE size=4B
# UVM_INFO ../10_tb/ahb_slv/ahb_slv_driver.sv(201) @ 215000: uvm_test_top.env.ahb_agent.drv [ahb_slv_driver] [DRV][AHB][RSP] AHB_READ addr=0x1000 data=0x23222120 resp=AHB_RESP_OKAY ready_delay=0
# UVM_INFO ../10_tb/ahb_slv/ahb_slv_monitor.sv(119) @ 215000: uvm_test_top.env.ahb_agent.mon [ahb_slv_monitor] [MON][AHB][TR] AHB AHB_READ addr=0x1000 trans=AHB_TRANS_NONSEQ burst=AHB_BURST_SINGLE size=4B mastlock=0 resp=AHB_RESP_OKAY waits=0 | data=0x23222120
# UVM_INFO ../10_tb/env/scoreboard.sv(154) @ 215000: uvm_test_top.env.scb [scoreboard] [SCB][AHB][PASS] AHB AHB_READ addr=0x1000 trans=AHB_TRANS_NONSEQ burst=AHB_BURST_SINGLE size=4B mastlock=0 resp=AHB_RESP_OKAY waits=0 | data=0x23222120 | total=2
# UVM_INFO ../10_tb/axi4_mst/axi4_mst_driver.sv(290) @ 235000: uvm_test_top.env.axi_agent.drv [axi4_mst_driver] [DRV][AXI][R] id=0x6 beat=1/1 data=0x23222120 resp=AXI4_RESP_OKAY last=1
# UVM_INFO ../10_tb/axi4_mst/axi4_mst_monitor.sv(256) @ 235000: uvm_test_top.env.axi_agent.mon [axi4_mst_monitor] [MON][AXI][R] id=0x6 beat=1/1 data=0x23222120 resp=AXI4_RESP_OKAY last=1
# UVM_INFO ../10_tb/axi4_mst/axi4_mst_monitor.sv(262) @ 235000: uvm_test_top.env.axi_agent.mon [axi4_mst_monitor] [MON][AXI][RSP] READ id=0x6 beats=1
# UVM_INFO ../10_tb/env/scoreboard.sv(298) @ 235000: uvm_test_top.env.scb [scoreboard] [SCB][AXI][PASS] AXI4 AXI4_READ id=0x6 addr=0x1000 burst=AXI4_BURST_INCR beats=1 size=4B lock=0 | read beats=1 | total=2
# UVM_INFO ../10_tb/axi4_mst/axi4_mst_driver.sv(105) @ 235000: uvm_test_top.env.axi_agent.drv [axi4_mst_driver] [DRV][AXI][REQ] AXI4 AXI4_WRITE id=0xe addr=0x1100 burst=AXI4_BURST_INCR beats=4 size=4B lock=0 | outstanding=1
# UVM_INFO ../10_tb/axi4_mst/axi4_mst_driver.sv(178) @ 275000: uvm_test_top.env.axi_agent.drv [axi4_mst_driver] [DRV][AXI][AW] id=0xe addr=0x1100 burst=AXI4_BURST_INCR beats=4 size=4B
# UVM_INFO ../10_tb/axi4_mst/axi4_mst_driver.sv(198) @ 275000: uvm_test_top.env.axi_agent.drv [axi4_mst_driver] [DRV][AXI][W] id=0xe beat=1/4 data=0x2b2a2928 strb=0xf last=0
# UVM_INFO ../10_tb/ahb_slv/ahb_slv_driver.sv(87) @ 285000: uvm_test_top.env.ahb_agent.drv [ahb_slv_driver] [DRV][AHB][REQ] AHB_WRITE addr=0x1100 trans=AHB_TRANS_NONSEQ burst=AHB_BURST_INCR4 size=4B
# UVM_INFO ../10_tb/ahb_slv/ahb_slv_driver.sv(201) @ 295000: uvm_test_top.env.ahb_agent.drv [ahb_slv_driver] [DRV][AHB][RSP] AHB_WRITE addr=0x1100 data=0x2b2a2928 resp=AHB_RESP_OKAY ready_delay=0
# UVM_INFO ../10_tb/ahb_slv/ahb_slv_monitor.sv(119) @ 295000: uvm_test_top.env.ahb_agent.mon [ahb_slv_monitor] [MON][AHB][TR] AHB AHB_WRITE addr=0x1100 trans=AHB_TRANS_NONSEQ burst=AHB_BURST_INCR4 size=4B mastlock=0 resp=AHB_RESP_OKAY waits=0 | data=0x2b2a2928
# UVM_INFO ../10_tb/ahb_slv/ahb_slv_driver.sv(87) @ 305000: uvm_test_top.env.ahb_agent.drv [ahb_slv_driver] [DRV][AHB][REQ] AHB_WRITE addr=0x1104 trans=AHB_TRANS_SEQ burst=AHB_BURST_INCR4 size=4B
# UVM_INFO ../10_tb/axi4_mst/axi4_mst_driver.sv(198) @ 305000: uvm_test_top.env.axi_agent.drv [axi4_mst_driver] [DRV][AXI][W] id=0xe beat=2/4 data=0x2f2e2d2c strb=0xf last=0
# UVM_INFO ../10_tb/ahb_slv/ahb_slv_driver.sv(201) @ 315000: uvm_test_top.env.ahb_agent.drv [ahb_slv_driver] [DRV][AHB][RSP] AHB_WRITE addr=0x1104 data=0x2f2e2d2c resp=AHB_RESP_OKAY ready_delay=0
# UVM_INFO ../10_tb/ahb_slv/ahb_slv_monitor.sv(119) @ 315000: uvm_test_top.env.ahb_agent.mon [ahb_slv_monitor] [MON][AHB][TR] AHB AHB_WRITE addr=0x1104 trans=AHB_TRANS_SEQ burst=AHB_BURST_INCR4 size=4B mastlock=0 resp=AHB_RESP_OKAY waits=0 | data=0x2f2e2d2c
# UVM_INFO ../10_tb/ahb_slv/ahb_slv_driver.sv(87) @ 325000: uvm_test_top.env.ahb_agent.drv [ahb_slv_driver] [DRV][AHB][REQ] AHB_WRITE addr=0x1108 trans=AHB_TRANS_SEQ burst=AHB_BURST_INCR4 size=4B
# UVM_INFO ../10_tb/axi4_mst/axi4_mst_driver.sv(198) @ 325000: uvm_test_top.env.axi_agent.drv [axi4_mst_driver] [DRV][AXI][W] id=0xe beat=3/4 data=0x33323130 strb=0xf last=0
# UVM_INFO ../10_tb/ahb_slv/ahb_slv_driver.sv(201) @ 335000: uvm_test_top.env.ahb_agent.drv [ahb_slv_driver] [DRV][AHB][RSP] AHB_WRITE addr=0x1108 data=0x33323130 resp=AHB_RESP_OKAY ready_delay=0
# UVM_INFO ../10_tb/ahb_slv/ahb_slv_monitor.sv(119) @ 335000: uvm_test_top.env.ahb_agent.mon [ahb_slv_monitor] [MON][AHB][TR] AHB AHB_WRITE addr=0x1108 trans=AHB_TRANS_SEQ burst=AHB_BURST_INCR4 size=4B mastlock=0 resp=AHB_RESP_OKAY waits=0 | data=0x33323130
# UVM_INFO ../10_tb/ahb_slv/ahb_slv_driver.sv(87) @ 345000: uvm_test_top.env.ahb_agent.drv [ahb_slv_driver] [DRV][AHB][REQ] AHB_WRITE addr=0x110c trans=AHB_TRANS_SEQ burst=AHB_BURST_INCR4 size=4B
# UVM_INFO ../10_tb/axi4_mst/axi4_mst_driver.sv(198) @ 345000: uvm_test_top.env.axi_agent.drv [axi4_mst_driver] [DRV][AXI][W] id=0xe beat=4/4 data=0x37363534 strb=0xf last=1
# UVM_INFO ../10_tb/axi4_mst/axi4_mst_monitor.sv(151) @ 345000: uvm_test_top.env.axi_agent.mon [axi4_mst_monitor] [MON][AXI][REQ] AXI4 AXI4_WRITE id=0xe addr=0x1100 burst=AXI4_BURST_INCR beats=4 size=4B lock=0
# UVM_INFO ../10_tb/env/predictor.sv(75) @ 345000: uvm_test_top.env.pred [predictor] [PRED][AXI][IN] AXI4 AXI4_WRITE id=0xe addr=0x1100 burst=AXI4_BURST_INCR beats=4 size=4B lock=0 | queued=1
# UVM_INFO ../10_tb/env/predictor.sv(138) @ 345000: uvm_test_top.env.pred [predictor] [PRED][MAP] AXI4 AXI4_WRITE id=0xe addr=0x1100 burst=AXI4_BURST_INCR beats=4 size=4B lock=0 -> AHB burst=AHB_BURST_INCR4 size=4B crosses_1kb=0
# UVM_INFO ../10_tb/env/predictor.sv(169) @ 345000: uvm_test_top.env.pred [predictor] [PRED][AHB] beat=1/4 | AHB AHB_WRITE addr=0x1100 trans=AHB_TRANS_NONSEQ burst=AHB_BURST_INCR4 size=4B mastlock=0 resp=AHB_RESP_OKAY waits=0 | wdata=0x2b2a2928
# UVM_INFO ../10_tb/env/scoreboard.sv(154) @ 345000: uvm_test_top.env.scb [scoreboard] [SCB][AHB][PASS] AHB AHB_WRITE addr=0x1100 trans=AHB_TRANS_NONSEQ burst=AHB_BURST_INCR4 size=4B mastlock=0 resp=AHB_RESP_OKAY waits=0 | data=0x2b2a2928 | total=3
# UVM_INFO ../10_tb/env/predictor.sv(169) @ 345000: uvm_test_top.env.pred [predictor] [PRED][AHB] beat=2/4 | AHB AHB_WRITE addr=0x1104 trans=AHB_TRANS_SEQ burst=AHB_BURST_INCR4 size=4B mastlock=0 resp=AHB_RESP_OKAY waits=0 | wdata=0x2f2e2d2c
# UVM_INFO ../10_tb/env/scoreboard.sv(154) @ 345000: uvm_test_top.env.scb [scoreboard] [SCB][AHB][PASS] AHB AHB_WRITE addr=0x1104 trans=AHB_TRANS_SEQ burst=AHB_BURST_INCR4 size=4B mastlock=0 resp=AHB_RESP_OKAY waits=0 | data=0x2f2e2d2c | total=4
# UVM_INFO ../10_tb/env/predictor.sv(169) @ 345000: uvm_test_top.env.pred [predictor] [PRED][AHB] beat=3/4 | AHB AHB_WRITE addr=0x1108 trans=AHB_TRANS_SEQ burst=AHB_BURST_INCR4 size=4B mastlock=0 resp=AHB_RESP_OKAY waits=0 | wdata=0x33323130
# UVM_INFO ../10_tb/env/scoreboard.sv(154) @ 345000: uvm_test_top.env.scb [scoreboard] [SCB][AHB][PASS] AHB AHB_WRITE addr=0x1108 trans=AHB_TRANS_SEQ burst=AHB_BURST_INCR4 size=4B mastlock=0 resp=AHB_RESP_OKAY waits=0 | data=0x33323130 | total=5
# UVM_INFO ../10_tb/env/predictor.sv(169) @ 345000: uvm_test_top.env.pred [predictor] [PRED][AHB] beat=4/4 | AHB AHB_WRITE addr=0x110c trans=AHB_TRANS_SEQ burst=AHB_BURST_INCR4 size=4B mastlock=0 resp=AHB_RESP_OKAY waits=0 | wdata=0x37363534
# UVM_INFO ../10_tb/ahb_slv/ahb_slv_driver.sv(201) @ 355000: uvm_test_top.env.ahb_agent.drv [ahb_slv_driver] [DRV][AHB][RSP] AHB_WRITE addr=0x110c data=0x37363534 resp=AHB_RESP_OKAY ready_delay=0
# UVM_INFO ../10_tb/ahb_slv/ahb_slv_monitor.sv(119) @ 355000: uvm_test_top.env.ahb_agent.mon [ahb_slv_monitor] [MON][AHB][TR] AHB AHB_WRITE addr=0x110c trans=AHB_TRANS_SEQ burst=AHB_BURST_INCR4 size=4B mastlock=0 resp=AHB_RESP_OKAY waits=0 | data=0x37363534
# UVM_INFO ../10_tb/env/scoreboard.sv(154) @ 355000: uvm_test_top.env.scb [scoreboard] [SCB][AHB][PASS] AHB AHB_WRITE addr=0x110c trans=AHB_TRANS_SEQ burst=AHB_BURST_INCR4 size=4B mastlock=0 resp=AHB_RESP_OKAY waits=0 | data=0x37363534 | total=6
# UVM_INFO ../10_tb/axi4_mst/axi4_mst_driver.sv(250) @ 365000: uvm_test_top.env.axi_agent.drv [axi4_mst_driver] [DRV][AXI][B] id=0xe resp=AXI4_RESP_OKAY
# UVM_INFO ../10_tb/axi4_mst/axi4_mst_monitor.sv(177) @ 365000: uvm_test_top.env.axi_agent.mon [axi4_mst_monitor] [MON][AXI][RSP] WRITE id=0xe resp=AXI4_RESP_OKAY
# UVM_INFO ../10_tb/env/scoreboard.sv(291) @ 365000: uvm_test_top.env.scb [scoreboard] [SCB][AXI][PASS] AXI4 AXI4_WRITE id=0xe addr=0x1100 burst=AXI4_BURST_INCR beats=4 size=4B lock=0 | bresp=AXI4_RESP_OKAY | total=3
# UVM_INFO ../10_tb/axi4_mst/axi4_mst_driver.sv(105) @ 365000: uvm_test_top.env.axi_agent.drv [axi4_mst_driver] [DRV][AXI][REQ] AXI4 AXI4_READ id=0x2 addr=0x1100 burst=AXI4_BURST_INCR beats=4 size=4B lock=0 | outstanding=1
# UVM_INFO ../10_tb/axi4_mst/axi4_mst_driver.sv(225) @ 395000: uvm_test_top.env.axi_agent.drv [axi4_mst_driver] [DRV][AXI][AR] id=0x2 addr=0x1100 burst=AXI4_BURST_INCR beats=4 size=4B
# UVM_INFO ../10_tb/axi4_mst/axi4_mst_monitor.sv(211) @ 395000: uvm_test_top.env.axi_agent.mon [axi4_mst_monitor] [MON][AXI][REQ] AXI4 AXI4_READ id=0x2 addr=0x1100 burst=AXI4_BURST_INCR beats=4 size=4B lock=0
# UVM_INFO ../10_tb/env/predictor.sv(75) @ 395000: uvm_test_top.env.pred [predictor] [PRED][AXI][IN] AXI4 AXI4_READ id=0x2 addr=0x1100 burst=AXI4_BURST_INCR beats=4 size=4B lock=0 | queued=1
# UVM_INFO ../10_tb/env/predictor.sv(138) @ 395000: uvm_test_top.env.pred [predictor] [PRED][MAP] AXI4 AXI4_READ id=0x2 addr=0x1100 burst=AXI4_BURST_INCR beats=4 size=4B lock=0 -> AHB burst=AHB_BURST_INCR4 size=4B crosses_1kb=0
# UVM_INFO ../10_tb/env/predictor.sv(175) @ 395000: uvm_test_top.env.pred [predictor] [PRED][AHB] beat=1/4 | AHB AHB_READ addr=0x1100 trans=AHB_TRANS_NONSEQ burst=AHB_BURST_INCR4 size=4B mastlock=0 resp=AHB_RESP_OKAY waits=0
# UVM_INFO ../10_tb/env/predictor.sv(175) @ 395000: uvm_test_top.env.pred [predictor] [PRED][AHB] beat=2/4 | AHB AHB_READ addr=0x1104 trans=AHB_TRANS_SEQ burst=AHB_BURST_INCR4 size=4B mastlock=0 resp=AHB_RESP_OKAY waits=0
# UVM_INFO ../10_tb/env/predictor.sv(175) @ 395000: uvm_test_top.env.pred [predictor] [PRED][AHB] beat=3/4 | AHB AHB_READ addr=0x1108 trans=AHB_TRANS_SEQ burst=AHB_BURST_INCR4 size=4B mastlock=0 resp=AHB_RESP_OKAY waits=0
# UVM_INFO ../10_tb/env/predictor.sv(175) @ 395000: uvm_test_top.env.pred [predictor] [PRED][AHB] beat=4/4 | AHB AHB_READ addr=0x110c trans=AHB_TRANS_SEQ burst=AHB_BURST_INCR4 size=4B mastlock=0 resp=AHB_RESP_OKAY waits=0
# UVM_INFO ../10_tb/ahb_slv/ahb_slv_driver.sv(87) @ 405000: uvm_test_top.env.ahb_agent.drv [ahb_slv_driver] [DRV][AHB][REQ] AHB_READ addr=0x1100 trans=AHB_TRANS_NONSEQ burst=AHB_BURST_INCR4 size=4B
# UVM_INFO ../10_tb/ahb_slv/ahb_slv_driver.sv(201) @ 415000: uvm_test_top.env.ahb_agent.drv [ahb_slv_driver] [DRV][AHB][RSP] AHB_READ addr=0x1100 data=0x2b2a2928 resp=AHB_RESP_OKAY ready_delay=0
# UVM_INFO ../10_tb/ahb_slv/ahb_slv_monitor.sv(119) @ 415000: uvm_test_top.env.ahb_agent.mon [ahb_slv_monitor] [MON][AHB][TR] AHB AHB_READ addr=0x1100 trans=AHB_TRANS_NONSEQ burst=AHB_BURST_INCR4 size=4B mastlock=0 resp=AHB_RESP_OKAY waits=0 | data=0x2b2a2928
# UVM_INFO ../10_tb/env/scoreboard.sv(154) @ 415000: uvm_test_top.env.scb [scoreboard] [SCB][AHB][PASS] AHB AHB_READ addr=0x1100 trans=AHB_TRANS_NONSEQ burst=AHB_BURST_INCR4 size=4B mastlock=0 resp=AHB_RESP_OKAY waits=0 | data=0x2b2a2928 | total=7
# UVM_INFO ../10_tb/ahb_slv/ahb_slv_driver.sv(87) @ 425000: uvm_test_top.env.ahb_agent.drv [ahb_slv_driver] [DRV][AHB][REQ] AHB_READ addr=0x1104 trans=AHB_TRANS_SEQ burst=AHB_BURST_INCR4 size=4B
# UVM_INFO ../10_tb/ahb_slv/ahb_slv_driver.sv(201) @ 435000: uvm_test_top.env.ahb_agent.drv [ahb_slv_driver] [DRV][AHB][RSP] AHB_READ addr=0x1104 data=0x2f2e2d2c resp=AHB_RESP_OKAY ready_delay=0
# UVM_INFO ../10_tb/ahb_slv/ahb_slv_monitor.sv(119) @ 435000: uvm_test_top.env.ahb_agent.mon [ahb_slv_monitor] [MON][AHB][TR] AHB AHB_READ addr=0x1104 trans=AHB_TRANS_SEQ burst=AHB_BURST_INCR4 size=4B mastlock=0 resp=AHB_RESP_OKAY waits=0 | data=0x2f2e2d2c
# UVM_INFO ../10_tb/env/scoreboard.sv(154) @ 435000: uvm_test_top.env.scb [scoreboard] [SCB][AHB][PASS] AHB AHB_READ addr=0x1104 trans=AHB_TRANS_SEQ burst=AHB_BURST_INCR4 size=4B mastlock=0 resp=AHB_RESP_OKAY waits=0 | data=0x2f2e2d2c | total=8
# UVM_INFO ../10_tb/axi4_mst/axi4_mst_driver.sv(290) @ 435000: uvm_test_top.env.axi_agent.drv [axi4_mst_driver] [DRV][AXI][R] id=0x2 beat=1/4 data=0x2b2a2928 resp=AXI4_RESP_OKAY last=0
# UVM_INFO ../10_tb/axi4_mst/axi4_mst_monitor.sv(256) @ 435000: uvm_test_top.env.axi_agent.mon [axi4_mst_monitor] [MON][AXI][R] id=0x2 beat=1/4 data=0x2b2a2928 resp=AXI4_RESP_OKAY last=0
# UVM_INFO ../10_tb/ahb_slv/ahb_slv_driver.sv(87) @ 445000: uvm_test_top.env.ahb_agent.drv [ahb_slv_driver] [DRV][AHB][REQ] AHB_READ addr=0x1108 trans=AHB_TRANS_SEQ burst=AHB_BURST_INCR4 size=4B
# UVM_INFO ../10_tb/ahb_slv/ahb_slv_driver.sv(201) @ 455000: uvm_test_top.env.ahb_agent.drv [ahb_slv_driver] [DRV][AHB][RSP] AHB_READ addr=0x1108 data=0x33323130 resp=AHB_RESP_OKAY ready_delay=0
# UVM_INFO ../10_tb/ahb_slv/ahb_slv_monitor.sv(119) @ 455000: uvm_test_top.env.ahb_agent.mon [ahb_slv_monitor] [MON][AHB][TR] AHB AHB_READ addr=0x1108 trans=AHB_TRANS_SEQ burst=AHB_BURST_INCR4 size=4B mastlock=0 resp=AHB_RESP_OKAY waits=0 | data=0x33323130
# UVM_INFO ../10_tb/env/scoreboard.sv(154) @ 455000: uvm_test_top.env.scb [scoreboard] [SCB][AHB][PASS] AHB AHB_READ addr=0x1108 trans=AHB_TRANS_SEQ burst=AHB_BURST_INCR4 size=4B mastlock=0 resp=AHB_RESP_OKAY waits=0 | data=0x33323130 | total=9
# UVM_INFO ../10_tb/axi4_mst/axi4_mst_driver.sv(290) @ 455000: uvm_test_top.env.axi_agent.drv [axi4_mst_driver] [DRV][AXI][R] id=0x2 beat=2/4 data=0x2f2e2d2c resp=AXI4_RESP_OKAY last=0
# UVM_INFO ../10_tb/axi4_mst/axi4_mst_monitor.sv(256) @ 455000: uvm_test_top.env.axi_agent.mon [axi4_mst_monitor] [MON][AXI][R] id=0x2 beat=2/4 data=0x2f2e2d2c resp=AXI4_RESP_OKAY last=0
# UVM_INFO ../10_tb/ahb_slv/ahb_slv_driver.sv(87) @ 465000: uvm_test_top.env.ahb_agent.drv [ahb_slv_driver] [DRV][AHB][REQ] AHB_READ addr=0x110c trans=AHB_TRANS_SEQ burst=AHB_BURST_INCR4 size=4B
# UVM_INFO ../10_tb/ahb_slv/ahb_slv_driver.sv(201) @ 475000: uvm_test_top.env.ahb_agent.drv [ahb_slv_driver] [DRV][AHB][RSP] AHB_READ addr=0x110c data=0x37363534 resp=AHB_RESP_OKAY ready_delay=0
# UVM_INFO ../10_tb/ahb_slv/ahb_slv_monitor.sv(119) @ 475000: uvm_test_top.env.ahb_agent.mon [ahb_slv_monitor] [MON][AHB][TR] AHB AHB_READ addr=0x110c trans=AHB_TRANS_SEQ burst=AHB_BURST_INCR4 size=4B mastlock=0 resp=AHB_RESP_OKAY waits=0 | data=0x37363534
# UVM_INFO ../10_tb/env/scoreboard.sv(154) @ 475000: uvm_test_top.env.scb [scoreboard] [SCB][AHB][PASS] AHB AHB_READ addr=0x110c trans=AHB_TRANS_SEQ burst=AHB_BURST_INCR4 size=4B mastlock=0 resp=AHB_RESP_OKAY waits=0 | data=0x37363534 | total=10
# UVM_INFO ../10_tb/axi4_mst/axi4_mst_driver.sv(290) @ 475000: uvm_test_top.env.axi_agent.drv [axi4_mst_driver] [DRV][AXI][R] id=0x2 beat=3/4 data=0x33323130 resp=AXI4_RESP_OKAY last=0
# UVM_INFO ../10_tb/axi4_mst/axi4_mst_monitor.sv(256) @ 475000: uvm_test_top.env.axi_agent.mon [axi4_mst_monitor] [MON][AXI][R] id=0x2 beat=3/4 data=0x33323130 resp=AXI4_RESP_OKAY last=0
# UVM_INFO ../10_tb/axi4_mst/axi4_mst_driver.sv(290) @ 495000: uvm_test_top.env.axi_agent.drv [axi4_mst_driver] [DRV][AXI][R] id=0x2 beat=4/4 data=0x37363534 resp=AXI4_RESP_OKAY last=1
# UVM_INFO ../10_tb/axi4_mst/axi4_mst_monitor.sv(256) @ 495000: uvm_test_top.env.axi_agent.mon [axi4_mst_monitor] [MON][AXI][R] id=0x2 beat=4/4 data=0x37363534 resp=AXI4_RESP_OKAY last=1
# UVM_INFO ../10_tb/axi4_mst/axi4_mst_monitor.sv(262) @ 495000: uvm_test_top.env.axi_agent.mon [axi4_mst_monitor] [MON][AXI][RSP] READ id=0x2 beats=4
# UVM_INFO ../10_tb/env/scoreboard.sv(298) @ 495000: uvm_test_top.env.scb [scoreboard] [SCB][AXI][PASS] AXI4 AXI4_READ id=0x2 addr=0x1100 burst=AXI4_BURST_INCR beats=4 size=4B lock=0 | read beats=4 | total=4
# UVM_INFO ../10_tb/axi4_mst/axi4_mst_driver.sv(105) @ 495000: uvm_test_top.env.axi_agent.drv [axi4_mst_driver] [DRV][AXI][REQ] AXI4 AXI4_WRITE id=0xb addr=0x1200 burst=AXI4_BURST_INCR beats=8 size=4B lock=0 | outstanding=1
# UVM_INFO ../10_tb/axi4_mst/axi4_mst_driver.sv(178) @ 535000: uvm_test_top.env.axi_agent.drv [axi4_mst_driver] [DRV][AXI][AW] id=0xb addr=0x1200 burst=AXI4_BURST_INCR beats=8 size=4B
# UVM_INFO ../10_tb/axi4_mst/axi4_mst_driver.sv(198) @ 535000: uvm_test_top.env.axi_agent.drv [axi4_mst_driver] [DRV][AXI][W] id=0xb beat=1/8 data=0x33323130 strb=0xf last=0
# UVM_INFO ../10_tb/ahb_slv/ahb_slv_driver.sv(87) @ 545000: uvm_test_top.env.ahb_agent.drv [ahb_slv_driver] [DRV][AHB][REQ] AHB_WRITE addr=0x1200 trans=AHB_TRANS_NONSEQ burst=AHB_BURST_INCR8 size=4B
# UVM_INFO ../10_tb/ahb_slv/ahb_slv_driver.sv(201) @ 555000: uvm_test_top.env.ahb_agent.drv [ahb_slv_driver] [DRV][AHB][RSP] AHB_WRITE addr=0x1200 data=0x33323130 resp=AHB_RESP_OKAY ready_delay=0
# UVM_INFO ../10_tb/ahb_slv/ahb_slv_monitor.sv(119) @ 555000: uvm_test_top.env.ahb_agent.mon [ahb_slv_monitor] [MON][AHB][TR] AHB AHB_WRITE addr=0x1200 trans=AHB_TRANS_NONSEQ burst=AHB_BURST_INCR8 size=4B mastlock=0 resp=AHB_RESP_OKAY waits=0 | data=0x33323130
# UVM_INFO ../10_tb/ahb_slv/ahb_slv_driver.sv(87) @ 565000: uvm_test_top.env.ahb_agent.drv [ahb_slv_driver] [DRV][AHB][REQ] AHB_WRITE addr=0x1204 trans=AHB_TRANS_SEQ burst=AHB_BURST_INCR8 size=4B
# UVM_INFO ../10_tb/axi4_mst/axi4_mst_driver.sv(198) @ 565000: uvm_test_top.env.axi_agent.drv [axi4_mst_driver] [DRV][AXI][W] id=0xb beat=2/8 data=0x37363534 strb=0xf last=0
# UVM_INFO ../10_tb/ahb_slv/ahb_slv_driver.sv(201) @ 575000: uvm_test_top.env.ahb_agent.drv [ahb_slv_driver] [DRV][AHB][RSP] AHB_WRITE addr=0x1204 data=0x37363534 resp=AHB_RESP_OKAY ready_delay=0
# UVM_INFO ../10_tb/ahb_slv/ahb_slv_monitor.sv(119) @ 575000: uvm_test_top.env.ahb_agent.mon [ahb_slv_monitor] [MON][AHB][TR] AHB AHB_WRITE addr=0x1204 trans=AHB_TRANS_SEQ burst=AHB_BURST_INCR8 size=4B mastlock=0 resp=AHB_RESP_OKAY waits=0 | data=0x37363534
# UVM_INFO ../10_tb/ahb_slv/ahb_slv_driver.sv(87) @ 585000: uvm_test_top.env.ahb_agent.drv [ahb_slv_driver] [DRV][AHB][REQ] AHB_WRITE addr=0x1208 trans=AHB_TRANS_SEQ burst=AHB_BURST_INCR8 size=4B
# UVM_INFO ../10_tb/axi4_mst/axi4_mst_driver.sv(198) @ 585000: uvm_test_top.env.axi_agent.drv [axi4_mst_driver] [DRV][AXI][W] id=0xb beat=3/8 data=0x3b3a3938 strb=0xf last=0
# UVM_INFO ../10_tb/ahb_slv/ahb_slv_driver.sv(201) @ 595000: uvm_test_top.env.ahb_agent.drv [ahb_slv_driver] [DRV][AHB][RSP] AHB_WRITE addr=0x1208 data=0x3b3a3938 resp=AHB_RESP_OKAY ready_delay=0
# UVM_INFO ../10_tb/ahb_slv/ahb_slv_monitor.sv(119) @ 595000: uvm_test_top.env.ahb_agent.mon [ahb_slv_monitor] [MON][AHB][TR] AHB AHB_WRITE addr=0x1208 trans=AHB_TRANS_SEQ burst=AHB_BURST_INCR8 size=4B mastlock=0 resp=AHB_RESP_OKAY waits=0 | data=0x3b3a3938
# UVM_INFO ../10_tb/ahb_slv/ahb_slv_driver.sv(87) @ 605000: uvm_test_top.env.ahb_agent.drv [ahb_slv_driver] [DRV][AHB][REQ] AHB_WRITE addr=0x120c trans=AHB_TRANS_SEQ burst=AHB_BURST_INCR8 size=4B
# UVM_INFO ../10_tb/axi4_mst/axi4_mst_driver.sv(198) @ 605000: uvm_test_top.env.axi_agent.drv [axi4_mst_driver] [DRV][AXI][W] id=0xb beat=4/8 data=0x3f3e3d3c strb=0xf last=0
# UVM_INFO ../10_tb/ahb_slv/ahb_slv_driver.sv(201) @ 615000: uvm_test_top.env.ahb_agent.drv [ahb_slv_driver] [DRV][AHB][RSP] AHB_WRITE addr=0x120c data=0x3f3e3d3c resp=AHB_RESP_OKAY ready_delay=0
# UVM_INFO ../10_tb/ahb_slv/ahb_slv_monitor.sv(119) @ 615000: uvm_test_top.env.ahb_agent.mon [ahb_slv_monitor] [MON][AHB][TR] AHB AHB_WRITE addr=0x120c trans=AHB_TRANS_SEQ burst=AHB_BURST_INCR8 size=4B mastlock=0 resp=AHB_RESP_OKAY waits=0 | data=0x3f3e3d3c
# UVM_INFO ../10_tb/ahb_slv/ahb_slv_driver.sv(87) @ 625000: uvm_test_top.env.ahb_agent.drv [ahb_slv_driver] [DRV][AHB][REQ] AHB_WRITE addr=0x1210 trans=AHB_TRANS_SEQ burst=AHB_BURST_INCR8 size=4B
# UVM_INFO ../10_tb/axi4_mst/axi4_mst_driver.sv(198) @ 625000: uvm_test_top.env.axi_agent.drv [axi4_mst_driver] [DRV][AXI][W] id=0xb beat=5/8 data=0x43424140 strb=0xf last=0
# UVM_INFO ../10_tb/ahb_slv/ahb_slv_driver.sv(201) @ 635000: uvm_test_top.env.ahb_agent.drv [ahb_slv_driver] [DRV][AHB][RSP] AHB_WRITE addr=0x1210 data=0x43424140 resp=AHB_RESP_OKAY ready_delay=0
# UVM_INFO ../10_tb/ahb_slv/ahb_slv_monitor.sv(119) @ 635000: uvm_test_top.env.ahb_agent.mon [ahb_slv_monitor] [MON][AHB][TR] AHB AHB_WRITE addr=0x1210 trans=AHB_TRANS_SEQ burst=AHB_BURST_INCR8 size=4B mastlock=0 resp=AHB_RESP_OKAY waits=0 | data=0x43424140
# UVM_INFO ../10_tb/ahb_slv/ahb_slv_driver.sv(87) @ 645000: uvm_test_top.env.ahb_agent.drv [ahb_slv_driver] [DRV][AHB][REQ] AHB_WRITE addr=0x1214 trans=AHB_TRANS_SEQ burst=AHB_BURST_INCR8 size=4B
# UVM_INFO ../10_tb/axi4_mst/axi4_mst_driver.sv(198) @ 645000: uvm_test_top.env.axi_agent.drv [axi4_mst_driver] [DRV][AXI][W] id=0xb beat=6/8 data=0x47464544 strb=0xf last=0
# UVM_INFO ../10_tb/ahb_slv/ahb_slv_driver.sv(201) @ 655000: uvm_test_top.env.ahb_agent.drv [ahb_slv_driver] [DRV][AHB][RSP] AHB_WRITE addr=0x1214 data=0x47464544 resp=AHB_RESP_OKAY ready_delay=0
# UVM_INFO ../10_tb/ahb_slv/ahb_slv_monitor.sv(119) @ 655000: uvm_test_top.env.ahb_agent.mon [ahb_slv_monitor] [MON][AHB][TR] AHB AHB_WRITE addr=0x1214 trans=AHB_TRANS_SEQ burst=AHB_BURST_INCR8 size=4B mastlock=0 resp=AHB_RESP_OKAY waits=0 | data=0x47464544
# UVM_INFO ../10_tb/ahb_slv/ahb_slv_driver.sv(87) @ 665000: uvm_test_top.env.ahb_agent.drv [ahb_slv_driver] [DRV][AHB][REQ] AHB_WRITE addr=0x1218 trans=AHB_TRANS_SEQ burst=AHB_BURST_INCR8 size=4B
# UVM_INFO ../10_tb/axi4_mst/axi4_mst_driver.sv(198) @ 665000: uvm_test_top.env.axi_agent.drv [axi4_mst_driver] [DRV][AXI][W] id=0xb beat=7/8 data=0x4b4a4948 strb=0xf last=0
# UVM_INFO ../10_tb/ahb_slv/ahb_slv_driver.sv(201) @ 675000: uvm_test_top.env.ahb_agent.drv [ahb_slv_driver] [DRV][AHB][RSP] AHB_WRITE addr=0x1218 data=0x4b4a4948 resp=AHB_RESP_OKAY ready_delay=0
# UVM_INFO ../10_tb/ahb_slv/ahb_slv_monitor.sv(119) @ 675000: uvm_test_top.env.ahb_agent.mon [ahb_slv_monitor] [MON][AHB][TR] AHB AHB_WRITE addr=0x1218 trans=AHB_TRANS_SEQ burst=AHB_BURST_INCR8 size=4B mastlock=0 resp=AHB_RESP_OKAY waits=0 | data=0x4b4a4948
# UVM_INFO ../10_tb/ahb_slv/ahb_slv_driver.sv(87) @ 685000: uvm_test_top.env.ahb_agent.drv [ahb_slv_driver] [DRV][AHB][REQ] AHB_WRITE addr=0x121c trans=AHB_TRANS_SEQ burst=AHB_BURST_INCR8 size=4B
# UVM_INFO ../10_tb/axi4_mst/axi4_mst_driver.sv(198) @ 685000: uvm_test_top.env.axi_agent.drv [axi4_mst_driver] [DRV][AXI][W] id=0xb beat=8/8 data=0x4f4e4d4c strb=0xf last=1
# UVM_INFO ../10_tb/axi4_mst/axi4_mst_monitor.sv(151) @ 685000: uvm_test_top.env.axi_agent.mon [axi4_mst_monitor] [MON][AXI][REQ] AXI4 AXI4_WRITE id=0xb addr=0x1200 burst=AXI4_BURST_INCR beats=8 size=4B lock=0
# UVM_INFO ../10_tb/env/predictor.sv(75) @ 685000: uvm_test_top.env.pred [predictor] [PRED][AXI][IN] AXI4 AXI4_WRITE id=0xb addr=0x1200 burst=AXI4_BURST_INCR beats=8 size=4B lock=0 | queued=1
# UVM_INFO ../10_tb/env/predictor.sv(138) @ 685000: uvm_test_top.env.pred [predictor] [PRED][MAP] AXI4 AXI4_WRITE id=0xb addr=0x1200 burst=AXI4_BURST_INCR beats=8 size=4B lock=0 -> AHB burst=AHB_BURST_INCR8 size=4B crosses_1kb=0
# UVM_INFO ../10_tb/env/predictor.sv(169) @ 685000: uvm_test_top.env.pred [predictor] [PRED][AHB] beat=1/8 | AHB AHB_WRITE addr=0x1200 trans=AHB_TRANS_NONSEQ burst=AHB_BURST_INCR8 size=4B mastlock=0 resp=AHB_RESP_OKAY waits=0 | wdata=0x33323130
# UVM_INFO ../10_tb/env/scoreboard.sv(154) @ 685000: uvm_test_top.env.scb [scoreboard] [SCB][AHB][PASS] AHB AHB_WRITE addr=0x1200 trans=AHB_TRANS_NONSEQ burst=AHB_BURST_INCR8 size=4B mastlock=0 resp=AHB_RESP_OKAY waits=0 | data=0x33323130 | total=11
# UVM_INFO ../10_tb/env/predictor.sv(169) @ 685000: uvm_test_top.env.pred [predictor] [PRED][AHB] beat=2/8 | AHB AHB_WRITE addr=0x1204 trans=AHB_TRANS_SEQ burst=AHB_BURST_INCR8 size=4B mastlock=0 resp=AHB_RESP_OKAY waits=0 | wdata=0x37363534
# UVM_INFO ../10_tb/env/scoreboard.sv(154) @ 685000: uvm_test_top.env.scb [scoreboard] [SCB][AHB][PASS] AHB AHB_WRITE addr=0x1204 trans=AHB_TRANS_SEQ burst=AHB_BURST_INCR8 size=4B mastlock=0 resp=AHB_RESP_OKAY waits=0 | data=0x37363534 | total=12
# UVM_INFO ../10_tb/env/predictor.sv(169) @ 685000: uvm_test_top.env.pred [predictor] [PRED][AHB] beat=3/8 | AHB AHB_WRITE addr=0x1208 trans=AHB_TRANS_SEQ burst=AHB_BURST_INCR8 size=4B mastlock=0 resp=AHB_RESP_OKAY waits=0 | wdata=0x3b3a3938
# UVM_INFO ../10_tb/env/scoreboard.sv(154) @ 685000: uvm_test_top.env.scb [scoreboard] [SCB][AHB][PASS] AHB AHB_WRITE addr=0x1208 trans=AHB_TRANS_SEQ burst=AHB_BURST_INCR8 size=4B mastlock=0 resp=AHB_RESP_OKAY waits=0 | data=0x3b3a3938 | total=13
# UVM_INFO ../10_tb/env/predictor.sv(169) @ 685000: uvm_test_top.env.pred [predictor] [PRED][AHB] beat=4/8 | AHB AHB_WRITE addr=0x120c trans=AHB_TRANS_SEQ burst=AHB_BURST_INCR8 size=4B mastlock=0 resp=AHB_RESP_OKAY waits=0 | wdata=0x3f3e3d3c
# UVM_INFO ../10_tb/env/scoreboard.sv(154) @ 685000: uvm_test_top.env.scb [scoreboard] [SCB][AHB][PASS] AHB AHB_WRITE addr=0x120c trans=AHB_TRANS_SEQ burst=AHB_BURST_INCR8 size=4B mastlock=0 resp=AHB_RESP_OKAY waits=0 | data=0x3f3e3d3c | total=14
# UVM_INFO ../10_tb/env/predictor.sv(169) @ 685000: uvm_test_top.env.pred [predictor] [PRED][AHB] beat=5/8 | AHB AHB_WRITE addr=0x1210 trans=AHB_TRANS_SEQ burst=AHB_BURST_INCR8 size=4B mastlock=0 resp=AHB_RESP_OKAY waits=0 | wdata=0x43424140
# UVM_INFO ../10_tb/env/scoreboard.sv(154) @ 685000: uvm_test_top.env.scb [scoreboard] [SCB][AHB][PASS] AHB AHB_WRITE addr=0x1210 trans=AHB_TRANS_SEQ burst=AHB_BURST_INCR8 size=4B mastlock=0 resp=AHB_RESP_OKAY waits=0 | data=0x43424140 | total=15
# UVM_INFO ../10_tb/env/predictor.sv(169) @ 685000: uvm_test_top.env.pred [predictor] [PRED][AHB] beat=6/8 | AHB AHB_WRITE addr=0x1214 trans=AHB_TRANS_SEQ burst=AHB_BURST_INCR8 size=4B mastlock=0 resp=AHB_RESP_OKAY waits=0 | wdata=0x47464544
# UVM_INFO ../10_tb/env/scoreboard.sv(154) @ 685000: uvm_test_top.env.scb [scoreboard] [SCB][AHB][PASS] AHB AHB_WRITE addr=0x1214 trans=AHB_TRANS_SEQ burst=AHB_BURST_INCR8 size=4B mastlock=0 resp=AHB_RESP_OKAY waits=0 | data=0x47464544 | total=16
# UVM_INFO ../10_tb/env/predictor.sv(169) @ 685000: uvm_test_top.env.pred [predictor] [PRED][AHB] beat=7/8 | AHB AHB_WRITE addr=0x1218 trans=AHB_TRANS_SEQ burst=AHB_BURST_INCR8 size=4B mastlock=0 resp=AHB_RESP_OKAY waits=0 | wdata=0x4b4a4948
# UVM_INFO ../10_tb/env/scoreboard.sv(154) @ 685000: uvm_test_top.env.scb [scoreboard] [SCB][AHB][PASS] AHB AHB_WRITE addr=0x1218 trans=AHB_TRANS_SEQ burst=AHB_BURST_INCR8 size=4B mastlock=0 resp=AHB_RESP_OKAY waits=0 | data=0x4b4a4948 | total=17
# UVM_INFO ../10_tb/env/predictor.sv(169) @ 685000: uvm_test_top.env.pred [predictor] [PRED][AHB] beat=8/8 | AHB AHB_WRITE addr=0x121c trans=AHB_TRANS_SEQ burst=AHB_BURST_INCR8 size=4B mastlock=0 resp=AHB_RESP_OKAY waits=0 | wdata=0x4f4e4d4c
# UVM_INFO ../10_tb/ahb_slv/ahb_slv_driver.sv(201) @ 695000: uvm_test_top.env.ahb_agent.drv [ahb_slv_driver] [DRV][AHB][RSP] AHB_WRITE addr=0x121c data=0x4f4e4d4c resp=AHB_RESP_OKAY ready_delay=0
# UVM_INFO ../10_tb/ahb_slv/ahb_slv_monitor.sv(119) @ 695000: uvm_test_top.env.ahb_agent.mon [ahb_slv_monitor] [MON][AHB][TR] AHB AHB_WRITE addr=0x121c trans=AHB_TRANS_SEQ burst=AHB_BURST_INCR8 size=4B mastlock=0 resp=AHB_RESP_OKAY waits=0 | data=0x4f4e4d4c
# UVM_INFO ../10_tb/env/scoreboard.sv(154) @ 695000: uvm_test_top.env.scb [scoreboard] [SCB][AHB][PASS] AHB AHB_WRITE addr=0x121c trans=AHB_TRANS_SEQ burst=AHB_BURST_INCR8 size=4B mastlock=0 resp=AHB_RESP_OKAY waits=0 | data=0x4f4e4d4c | total=18
# UVM_INFO ../10_tb/axi4_mst/axi4_mst_driver.sv(250) @ 705000: uvm_test_top.env.axi_agent.drv [axi4_mst_driver] [DRV][AXI][B] id=0xb resp=AXI4_RESP_OKAY
# UVM_INFO ../10_tb/axi4_mst/axi4_mst_monitor.sv(177) @ 705000: uvm_test_top.env.axi_agent.mon [axi4_mst_monitor] [MON][AXI][RSP] WRITE id=0xb resp=AXI4_RESP_OKAY
# UVM_INFO ../10_tb/env/scoreboard.sv(291) @ 705000: uvm_test_top.env.scb [scoreboard] [SCB][AXI][PASS] AXI4 AXI4_WRITE id=0xb addr=0x1200 burst=AXI4_BURST_INCR beats=8 size=4B lock=0 | bresp=AXI4_RESP_OKAY | total=5
# UVM_INFO ../10_tb/axi4_mst/axi4_mst_driver.sv(105) @ 705000: uvm_test_top.env.axi_agent.drv [axi4_mst_driver] [DRV][AXI][REQ] AXI4 AXI4_READ id=0xa addr=0x1200 burst=AXI4_BURST_INCR beats=8 size=4B lock=0 | outstanding=1
# UVM_INFO ../10_tb/axi4_mst/axi4_mst_driver.sv(225) @ 735000: uvm_test_top.env.axi_agent.drv [axi4_mst_driver] [DRV][AXI][AR] id=0xa addr=0x1200 burst=AXI4_BURST_INCR beats=8 size=4B
# UVM_INFO ../10_tb/axi4_mst/axi4_mst_monitor.sv(211) @ 735000: uvm_test_top.env.axi_agent.mon [axi4_mst_monitor] [MON][AXI][REQ] AXI4 AXI4_READ id=0xa addr=0x1200 burst=AXI4_BURST_INCR beats=8 size=4B lock=0
# UVM_INFO ../10_tb/env/predictor.sv(75) @ 735000: uvm_test_top.env.pred [predictor] [PRED][AXI][IN] AXI4 AXI4_READ id=0xa addr=0x1200 burst=AXI4_BURST_INCR beats=8 size=4B lock=0 | queued=1
# UVM_INFO ../10_tb/env/predictor.sv(138) @ 735000: uvm_test_top.env.pred [predictor] [PRED][MAP] AXI4 AXI4_READ id=0xa addr=0x1200 burst=AXI4_BURST_INCR beats=8 size=4B lock=0 -> AHB burst=AHB_BURST_INCR8 size=4B crosses_1kb=0
# UVM_INFO ../10_tb/env/predictor.sv(175) @ 735000: uvm_test_top.env.pred [predictor] [PRED][AHB] beat=1/8 | AHB AHB_READ addr=0x1200 trans=AHB_TRANS_NONSEQ burst=AHB_BURST_INCR8 size=4B mastlock=0 resp=AHB_RESP_OKAY waits=0
# UVM_INFO ../10_tb/env/predictor.sv(175) @ 735000: uvm_test_top.env.pred [predictor] [PRED][AHB] beat=2/8 | AHB AHB_READ addr=0x1204 trans=AHB_TRANS_SEQ burst=AHB_BURST_INCR8 size=4B mastlock=0 resp=AHB_RESP_OKAY waits=0
# UVM_INFO ../10_tb/env/predictor.sv(175) @ 735000: uvm_test_top.env.pred [predictor] [PRED][AHB] beat=3/8 | AHB AHB_READ addr=0x1208 trans=AHB_TRANS_SEQ burst=AHB_BURST_INCR8 size=4B mastlock=0 resp=AHB_RESP_OKAY waits=0
# UVM_INFO ../10_tb/env/predictor.sv(175) @ 735000: uvm_test_top.env.pred [predictor] [PRED][AHB] beat=4/8 | AHB AHB_READ addr=0x120c trans=AHB_TRANS_SEQ burst=AHB_BURST_INCR8 size=4B mastlock=0 resp=AHB_RESP_OKAY waits=0
# UVM_INFO ../10_tb/env/predictor.sv(175) @ 735000: uvm_test_top.env.pred [predictor] [PRED][AHB] beat=5/8 | AHB AHB_READ addr=0x1210 trans=AHB_TRANS_SEQ burst=AHB_BURST_INCR8 size=4B mastlock=0 resp=AHB_RESP_OKAY waits=0
# UVM_INFO ../10_tb/env/predictor.sv(175) @ 735000: uvm_test_top.env.pred [predictor] [PRED][AHB] beat=6/8 | AHB AHB_READ addr=0x1214 trans=AHB_TRANS_SEQ burst=AHB_BURST_INCR8 size=4B mastlock=0 resp=AHB_RESP_OKAY waits=0
# UVM_INFO ../10_tb/env/predictor.sv(175) @ 735000: uvm_test_top.env.pred [predictor] [PRED][AHB] beat=7/8 | AHB AHB_READ addr=0x1218 trans=AHB_TRANS_SEQ burst=AHB_BURST_INCR8 size=4B mastlock=0 resp=AHB_RESP_OKAY waits=0
# UVM_INFO ../10_tb/env/predictor.sv(175) @ 735000: uvm_test_top.env.pred [predictor] [PRED][AHB] beat=8/8 | AHB AHB_READ addr=0x121c trans=AHB_TRANS_SEQ burst=AHB_BURST_INCR8 size=4B mastlock=0 resp=AHB_RESP_OKAY waits=0
# UVM_INFO ../10_tb/ahb_slv/ahb_slv_driver.sv(87) @ 745000: uvm_test_top.env.ahb_agent.drv [ahb_slv_driver] [DRV][AHB][REQ] AHB_READ addr=0x1200 trans=AHB_TRANS_NONSEQ burst=AHB_BURST_INCR8 size=4B
# UVM_INFO ../10_tb/ahb_slv/ahb_slv_driver.sv(201) @ 755000: uvm_test_top.env.ahb_agent.drv [ahb_slv_driver] [DRV][AHB][RSP] AHB_READ addr=0x1200 data=0x33323130 resp=AHB_RESP_OKAY ready_delay=0
# UVM_INFO ../10_tb/ahb_slv/ahb_slv_monitor.sv(119) @ 755000: uvm_test_top.env.ahb_agent.mon [ahb_slv_monitor] [MON][AHB][TR] AHB AHB_READ addr=0x1200 trans=AHB_TRANS_NONSEQ burst=AHB_BURST_INCR8 size=4B mastlock=0 resp=AHB_RESP_OKAY waits=0 | data=0x33323130
# UVM_INFO ../10_tb/env/scoreboard.sv(154) @ 755000: uvm_test_top.env.scb [scoreboard] [SCB][AHB][PASS] AHB AHB_READ addr=0x1200 trans=AHB_TRANS_NONSEQ burst=AHB_BURST_INCR8 size=4B mastlock=0 resp=AHB_RESP_OKAY waits=0 | data=0x33323130 | total=19
# UVM_INFO ../10_tb/ahb_slv/ahb_slv_driver.sv(87) @ 765000: uvm_test_top.env.ahb_agent.drv [ahb_slv_driver] [DRV][AHB][REQ] AHB_READ addr=0x1204 trans=AHB_TRANS_SEQ burst=AHB_BURST_INCR8 size=4B
# UVM_INFO ../10_tb/ahb_slv/ahb_slv_driver.sv(201) @ 775000: uvm_test_top.env.ahb_agent.drv [ahb_slv_driver] [DRV][AHB][RSP] AHB_READ addr=0x1204 data=0x37363534 resp=AHB_RESP_OKAY ready_delay=0
# UVM_INFO ../10_tb/ahb_slv/ahb_slv_monitor.sv(119) @ 775000: uvm_test_top.env.ahb_agent.mon [ahb_slv_monitor] [MON][AHB][TR] AHB AHB_READ addr=0x1204 trans=AHB_TRANS_SEQ burst=AHB_BURST_INCR8 size=4B mastlock=0 resp=AHB_RESP_OKAY waits=0 | data=0x37363534
# UVM_INFO ../10_tb/env/scoreboard.sv(154) @ 775000: uvm_test_top.env.scb [scoreboard] [SCB][AHB][PASS] AHB AHB_READ addr=0x1204 trans=AHB_TRANS_SEQ burst=AHB_BURST_INCR8 size=4B mastlock=0 resp=AHB_RESP_OKAY waits=0 | data=0x37363534 | total=20
# UVM_INFO ../10_tb/axi4_mst/axi4_mst_driver.sv(290) @ 775000: uvm_test_top.env.axi_agent.drv [axi4_mst_driver] [DRV][AXI][R] id=0xa beat=1/8 data=0x33323130 resp=AXI4_RESP_OKAY last=0
# UVM_INFO ../10_tb/axi4_mst/axi4_mst_monitor.sv(256) @ 775000: uvm_test_top.env.axi_agent.mon [axi4_mst_monitor] [MON][AXI][R] id=0xa beat=1/8 data=0x33323130 resp=AXI4_RESP_OKAY last=0
# UVM_INFO ../10_tb/ahb_slv/ahb_slv_driver.sv(87) @ 785000: uvm_test_top.env.ahb_agent.drv [ahb_slv_driver] [DRV][AHB][REQ] AHB_READ addr=0x1208 trans=AHB_TRANS_SEQ burst=AHB_BURST_INCR8 size=4B
# UVM_INFO ../10_tb/ahb_slv/ahb_slv_driver.sv(201) @ 795000: uvm_test_top.env.ahb_agent.drv [ahb_slv_driver] [DRV][AHB][RSP] AHB_READ addr=0x1208 data=0x3b3a3938 resp=AHB_RESP_OKAY ready_delay=0
# UVM_INFO ../10_tb/ahb_slv/ahb_slv_monitor.sv(119) @ 795000: uvm_test_top.env.ahb_agent.mon [ahb_slv_monitor] [MON][AHB][TR] AHB AHB_READ addr=0x1208 trans=AHB_TRANS_SEQ burst=AHB_BURST_INCR8 size=4B mastlock=0 resp=AHB_RESP_OKAY waits=0 | data=0x3b3a3938
# UVM_INFO ../10_tb/env/scoreboard.sv(154) @ 795000: uvm_test_top.env.scb [scoreboard] [SCB][AHB][PASS] AHB AHB_READ addr=0x1208 trans=AHB_TRANS_SEQ burst=AHB_BURST_INCR8 size=4B mastlock=0 resp=AHB_RESP_OKAY waits=0 | data=0x3b3a3938 | total=21
# UVM_INFO ../10_tb/axi4_mst/axi4_mst_driver.sv(290) @ 795000: uvm_test_top.env.axi_agent.drv [axi4_mst_driver] [DRV][AXI][R] id=0xa beat=2/8 data=0x37363534 resp=AXI4_RESP_OKAY last=0
# UVM_INFO ../10_tb/axi4_mst/axi4_mst_monitor.sv(256) @ 795000: uvm_test_top.env.axi_agent.mon [axi4_mst_monitor] [MON][AXI][R] id=0xa beat=2/8 data=0x37363534 resp=AXI4_RESP_OKAY last=0
# UVM_INFO ../10_tb/ahb_slv/ahb_slv_driver.sv(87) @ 805000: uvm_test_top.env.ahb_agent.drv [ahb_slv_driver] [DRV][AHB][REQ] AHB_READ addr=0x120c trans=AHB_TRANS_SEQ burst=AHB_BURST_INCR8 size=4B
# UVM_INFO ../10_tb/ahb_slv/ahb_slv_driver.sv(201) @ 815000: uvm_test_top.env.ahb_agent.drv [ahb_slv_driver] [DRV][AHB][RSP] AHB_READ addr=0x120c data=0x3f3e3d3c resp=AHB_RESP_OKAY ready_delay=0
# UVM_INFO ../10_tb/ahb_slv/ahb_slv_monitor.sv(119) @ 815000: uvm_test_top.env.ahb_agent.mon [ahb_slv_monitor] [MON][AHB][TR] AHB AHB_READ addr=0x120c trans=AHB_TRANS_SEQ burst=AHB_BURST_INCR8 size=4B mastlock=0 resp=AHB_RESP_OKAY waits=0 | data=0x3f3e3d3c
# UVM_INFO ../10_tb/env/scoreboard.sv(154) @ 815000: uvm_test_top.env.scb [scoreboard] [SCB][AHB][PASS] AHB AHB_READ addr=0x120c trans=AHB_TRANS_SEQ burst=AHB_BURST_INCR8 size=4B mastlock=0 resp=AHB_RESP_OKAY waits=0 | data=0x3f3e3d3c | total=22
# UVM_INFO ../10_tb/axi4_mst/axi4_mst_driver.sv(290) @ 815000: uvm_test_top.env.axi_agent.drv [axi4_mst_driver] [DRV][AXI][R] id=0xa beat=3/8 data=0x3b3a3938 resp=AXI4_RESP_OKAY last=0
# UVM_INFO ../10_tb/axi4_mst/axi4_mst_monitor.sv(256) @ 815000: uvm_test_top.env.axi_agent.mon [axi4_mst_monitor] [MON][AXI][R] id=0xa beat=3/8 data=0x3b3a3938 resp=AXI4_RESP_OKAY last=0
# UVM_INFO ../10_tb/ahb_slv/ahb_slv_driver.sv(87) @ 825000: uvm_test_top.env.ahb_agent.drv [ahb_slv_driver] [DRV][AHB][REQ] AHB_READ addr=0x1210 trans=AHB_TRANS_SEQ burst=AHB_BURST_INCR8 size=4B
# UVM_INFO ../10_tb/ahb_slv/ahb_slv_driver.sv(201) @ 835000: uvm_test_top.env.ahb_agent.drv [ahb_slv_driver] [DRV][AHB][RSP] AHB_READ addr=0x1210 data=0x43424140 resp=AHB_RESP_OKAY ready_delay=0
# UVM_INFO ../10_tb/ahb_slv/ahb_slv_monitor.sv(119) @ 835000: uvm_test_top.env.ahb_agent.mon [ahb_slv_monitor] [MON][AHB][TR] AHB AHB_READ addr=0x1210 trans=AHB_TRANS_SEQ burst=AHB_BURST_INCR8 size=4B mastlock=0 resp=AHB_RESP_OKAY waits=0 | data=0x43424140
# UVM_INFO ../10_tb/env/scoreboard.sv(154) @ 835000: uvm_test_top.env.scb [scoreboard] [SCB][AHB][PASS] AHB AHB_READ addr=0x1210 trans=AHB_TRANS_SEQ burst=AHB_BURST_INCR8 size=4B mastlock=0 resp=AHB_RESP_OKAY waits=0 | data=0x43424140 | total=23
# UVM_INFO ../10_tb/axi4_mst/axi4_mst_driver.sv(290) @ 835000: uvm_test_top.env.axi_agent.drv [axi4_mst_driver] [DRV][AXI][R] id=0xa beat=4/8 data=0x3f3e3d3c resp=AXI4_RESP_OKAY last=0
# UVM_INFO ../10_tb/axi4_mst/axi4_mst_monitor.sv(256) @ 835000: uvm_test_top.env.axi_agent.mon [axi4_mst_monitor] [MON][AXI][R] id=0xa beat=4/8 data=0x3f3e3d3c resp=AXI4_RESP_OKAY last=0
# UVM_INFO ../10_tb/ahb_slv/ahb_slv_driver.sv(87) @ 845000: uvm_test_top.env.ahb_agent.drv [ahb_slv_driver] [DRV][AHB][REQ] AHB_READ addr=0x1214 trans=AHB_TRANS_SEQ burst=AHB_BURST_INCR8 size=4B
# UVM_INFO ../10_tb/ahb_slv/ahb_slv_driver.sv(201) @ 855000: uvm_test_top.env.ahb_agent.drv [ahb_slv_driver] [DRV][AHB][RSP] AHB_READ addr=0x1214 data=0x47464544 resp=AHB_RESP_OKAY ready_delay=0
# UVM_INFO ../10_tb/ahb_slv/ahb_slv_monitor.sv(119) @ 855000: uvm_test_top.env.ahb_agent.mon [ahb_slv_monitor] [MON][AHB][TR] AHB AHB_READ addr=0x1214 trans=AHB_TRANS_SEQ burst=AHB_BURST_INCR8 size=4B mastlock=0 resp=AHB_RESP_OKAY waits=0 | data=0x47464544
# UVM_INFO ../10_tb/env/scoreboard.sv(154) @ 855000: uvm_test_top.env.scb [scoreboard] [SCB][AHB][PASS] AHB AHB_READ addr=0x1214 trans=AHB_TRANS_SEQ burst=AHB_BURST_INCR8 size=4B mastlock=0 resp=AHB_RESP_OKAY waits=0 | data=0x47464544 | total=24
# UVM_INFO ../10_tb/axi4_mst/axi4_mst_driver.sv(290) @ 855000: uvm_test_top.env.axi_agent.drv [axi4_mst_driver] [DRV][AXI][R] id=0xa beat=5/8 data=0x43424140 resp=AXI4_RESP_OKAY last=0
# UVM_INFO ../10_tb/axi4_mst/axi4_mst_monitor.sv(256) @ 855000: uvm_test_top.env.axi_agent.mon [axi4_mst_monitor] [MON][AXI][R] id=0xa beat=5/8 data=0x43424140 resp=AXI4_RESP_OKAY last=0
# UVM_INFO ../10_tb/ahb_slv/ahb_slv_driver.sv(87) @ 865000: uvm_test_top.env.ahb_agent.drv [ahb_slv_driver] [DRV][AHB][REQ] AHB_READ addr=0x1218 trans=AHB_TRANS_SEQ burst=AHB_BURST_INCR8 size=4B
# UVM_INFO ../10_tb/ahb_slv/ahb_slv_driver.sv(201) @ 875000: uvm_test_top.env.ahb_agent.drv [ahb_slv_driver] [DRV][AHB][RSP] AHB_READ addr=0x1218 data=0x4b4a4948 resp=AHB_RESP_OKAY ready_delay=0
# UVM_INFO ../10_tb/ahb_slv/ahb_slv_monitor.sv(119) @ 875000: uvm_test_top.env.ahb_agent.mon [ahb_slv_monitor] [MON][AHB][TR] AHB AHB_READ addr=0x1218 trans=AHB_TRANS_SEQ burst=AHB_BURST_INCR8 size=4B mastlock=0 resp=AHB_RESP_OKAY waits=0 | data=0x4b4a4948
# UVM_INFO ../10_tb/env/scoreboard.sv(154) @ 875000: uvm_test_top.env.scb [scoreboard] [SCB][AHB][PASS] AHB AHB_READ addr=0x1218 trans=AHB_TRANS_SEQ burst=AHB_BURST_INCR8 size=4B mastlock=0 resp=AHB_RESP_OKAY waits=0 | data=0x4b4a4948 | total=25
# UVM_INFO ../10_tb/axi4_mst/axi4_mst_driver.sv(290) @ 875000: uvm_test_top.env.axi_agent.drv [axi4_mst_driver] [DRV][AXI][R] id=0xa beat=6/8 data=0x47464544 resp=AXI4_RESP_OKAY last=0
# UVM_INFO ../10_tb/axi4_mst/axi4_mst_monitor.sv(256) @ 875000: uvm_test_top.env.axi_agent.mon [axi4_mst_monitor] [MON][AXI][R] id=0xa beat=6/8 data=0x47464544 resp=AXI4_RESP_OKAY last=0
# UVM_INFO ../10_tb/ahb_slv/ahb_slv_driver.sv(87) @ 885000: uvm_test_top.env.ahb_agent.drv [ahb_slv_driver] [DRV][AHB][REQ] AHB_READ addr=0x121c trans=AHB_TRANS_SEQ burst=AHB_BURST_INCR8 size=4B
# UVM_INFO ../10_tb/ahb_slv/ahb_slv_driver.sv(201) @ 895000: uvm_test_top.env.ahb_agent.drv [ahb_slv_driver] [DRV][AHB][RSP] AHB_READ addr=0x121c data=0x4f4e4d4c resp=AHB_RESP_OKAY ready_delay=0
# UVM_INFO ../10_tb/ahb_slv/ahb_slv_monitor.sv(119) @ 895000: uvm_test_top.env.ahb_agent.mon [ahb_slv_monitor] [MON][AHB][TR] AHB AHB_READ addr=0x121c trans=AHB_TRANS_SEQ burst=AHB_BURST_INCR8 size=4B mastlock=0 resp=AHB_RESP_OKAY waits=0 | data=0x4f4e4d4c
# UVM_INFO ../10_tb/env/scoreboard.sv(154) @ 895000: uvm_test_top.env.scb [scoreboard] [SCB][AHB][PASS] AHB AHB_READ addr=0x121c trans=AHB_TRANS_SEQ burst=AHB_BURST_INCR8 size=4B mastlock=0 resp=AHB_RESP_OKAY waits=0 | data=0x4f4e4d4c | total=26
# UVM_INFO ../10_tb/axi4_mst/axi4_mst_driver.sv(290) @ 895000: uvm_test_top.env.axi_agent.drv [axi4_mst_driver] [DRV][AXI][R] id=0xa beat=7/8 data=0x4b4a4948 resp=AXI4_RESP_OKAY last=0
# UVM_INFO ../10_tb/axi4_mst/axi4_mst_monitor.sv(256) @ 895000: uvm_test_top.env.axi_agent.mon [axi4_mst_monitor] [MON][AXI][R] id=0xa beat=7/8 data=0x4b4a4948 resp=AXI4_RESP_OKAY last=0
# UVM_INFO ../10_tb/axi4_mst/axi4_mst_driver.sv(290) @ 915000: uvm_test_top.env.axi_agent.drv [axi4_mst_driver] [DRV][AXI][R] id=0xa beat=8/8 data=0x4f4e4d4c resp=AXI4_RESP_OKAY last=1
# UVM_INFO ../10_tb/axi4_mst/axi4_mst_monitor.sv(256) @ 915000: uvm_test_top.env.axi_agent.mon [axi4_mst_monitor] [MON][AXI][R] id=0xa beat=8/8 data=0x4f4e4d4c resp=AXI4_RESP_OKAY last=1
# UVM_INFO ../10_tb/axi4_mst/axi4_mst_monitor.sv(262) @ 915000: uvm_test_top.env.axi_agent.mon [axi4_mst_monitor] [MON][AXI][RSP] READ id=0xa beats=8
# UVM_INFO ../10_tb/env/scoreboard.sv(298) @ 915000: uvm_test_top.env.scb [scoreboard] [SCB][AXI][PASS] AXI4 AXI4_READ id=0xa addr=0x1200 burst=AXI4_BURST_INCR beats=8 size=4B lock=0 | read beats=8 | total=6
# UVM_INFO ../10_tb/axi4_mst/axi4_mst_driver.sv(105) @ 915000: uvm_test_top.env.axi_agent.drv [axi4_mst_driver] [DRV][AXI][REQ] AXI4 AXI4_WRITE id=0xd addr=0x1300 burst=AXI4_BURST_WRAP beats=4 size=4B lock=0 | outstanding=1
# UVM_INFO ../10_tb/axi4_mst/axi4_mst_driver.sv(178) @ 955000: uvm_test_top.env.axi_agent.drv [axi4_mst_driver] [DRV][AXI][AW] id=0xd addr=0x1300 burst=AXI4_BURST_WRAP beats=4 size=4B
# UVM_INFO ../10_tb/axi4_mst/axi4_mst_driver.sv(198) @ 955000: uvm_test_top.env.axi_agent.drv [axi4_mst_driver] [DRV][AXI][W] id=0xd beat=1/4 data=0x3b3a3938 strb=0xf last=0
# UVM_INFO ../10_tb/ahb_slv/ahb_slv_driver.sv(87) @ 965000: uvm_test_top.env.ahb_agent.drv [ahb_slv_driver] [DRV][AHB][REQ] AHB_WRITE addr=0x1300 trans=AHB_TRANS_NONSEQ burst=AHB_BURST_WRAP4 size=4B
# UVM_INFO ../10_tb/ahb_slv/ahb_slv_driver.sv(201) @ 975000: uvm_test_top.env.ahb_agent.drv [ahb_slv_driver] [DRV][AHB][RSP] AHB_WRITE addr=0x1300 data=0x3b3a3938 resp=AHB_RESP_OKAY ready_delay=0
# UVM_INFO ../10_tb/ahb_slv/ahb_slv_monitor.sv(119) @ 975000: uvm_test_top.env.ahb_agent.mon [ahb_slv_monitor] [MON][AHB][TR] AHB AHB_WRITE addr=0x1300 trans=AHB_TRANS_NONSEQ burst=AHB_BURST_WRAP4 size=4B mastlock=0 resp=AHB_RESP_OKAY waits=0 | data=0x3b3a3938
# UVM_INFO ../10_tb/ahb_slv/ahb_slv_driver.sv(87) @ 985000: uvm_test_top.env.ahb_agent.drv [ahb_slv_driver] [DRV][AHB][REQ] AHB_WRITE addr=0x1304 trans=AHB_TRANS_SEQ burst=AHB_BURST_WRAP4 size=4B
# UVM_INFO ../10_tb/axi4_mst/axi4_mst_driver.sv(198) @ 985000: uvm_test_top.env.axi_agent.drv [axi4_mst_driver] [DRV][AXI][W] id=0xd beat=2/4 data=0x3f3e3d3c strb=0xf last=0
# UVM_INFO ../10_tb/ahb_slv/ahb_slv_driver.sv(201) @ 995000: uvm_test_top.env.ahb_agent.drv [ahb_slv_driver] [DRV][AHB][RSP] AHB_WRITE addr=0x1304 data=0x3f3e3d3c resp=AHB_RESP_OKAY ready_delay=0
# UVM_INFO ../10_tb/ahb_slv/ahb_slv_monitor.sv(119) @ 995000: uvm_test_top.env.ahb_agent.mon [ahb_slv_monitor] [MON][AHB][TR] AHB AHB_WRITE addr=0x1304 trans=AHB_TRANS_SEQ burst=AHB_BURST_WRAP4 size=4B mastlock=0 resp=AHB_RESP_OKAY waits=0 | data=0x3f3e3d3c
# UVM_INFO ../10_tb/ahb_slv/ahb_slv_driver.sv(87) @ 1005000: uvm_test_top.env.ahb_agent.drv [ahb_slv_driver] [DRV][AHB][REQ] AHB_WRITE addr=0x1308 trans=AHB_TRANS_SEQ burst=AHB_BURST_WRAP4 size=4B
# UVM_INFO ../10_tb/axi4_mst/axi4_mst_driver.sv(198) @ 1005000: uvm_test_top.env.axi_agent.drv [axi4_mst_driver] [DRV][AXI][W] id=0xd beat=3/4 data=0x43424140 strb=0xf last=0
# UVM_INFO ../10_tb/ahb_slv/ahb_slv_driver.sv(201) @ 1015000: uvm_test_top.env.ahb_agent.drv [ahb_slv_driver] [DRV][AHB][RSP] AHB_WRITE addr=0x1308 data=0x43424140 resp=AHB_RESP_OKAY ready_delay=0
# UVM_INFO ../10_tb/ahb_slv/ahb_slv_monitor.sv(119) @ 1015000: uvm_test_top.env.ahb_agent.mon [ahb_slv_monitor] [MON][AHB][TR] AHB AHB_WRITE addr=0x1308 trans=AHB_TRANS_SEQ burst=AHB_BURST_WRAP4 size=4B mastlock=0 resp=AHB_RESP_OKAY waits=0 | data=0x43424140
# UVM_INFO ../10_tb/ahb_slv/ahb_slv_driver.sv(87) @ 1025000: uvm_test_top.env.ahb_agent.drv [ahb_slv_driver] [DRV][AHB][REQ] AHB_WRITE addr=0x130c trans=AHB_TRANS_SEQ burst=AHB_BURST_WRAP4 size=4B
# UVM_INFO ../10_tb/axi4_mst/axi4_mst_driver.sv(198) @ 1025000: uvm_test_top.env.axi_agent.drv [axi4_mst_driver] [DRV][AXI][W] id=0xd beat=4/4 data=0x47464544 strb=0xf last=1
# UVM_INFO ../10_tb/axi4_mst/axi4_mst_monitor.sv(151) @ 1025000: uvm_test_top.env.axi_agent.mon [axi4_mst_monitor] [MON][AXI][REQ] AXI4 AXI4_WRITE id=0xd addr=0x1300 burst=AXI4_BURST_WRAP beats=4 size=4B lock=0
# UVM_INFO ../10_tb/env/predictor.sv(75) @ 1025000: uvm_test_top.env.pred [predictor] [PRED][AXI][IN] AXI4 AXI4_WRITE id=0xd addr=0x1300 burst=AXI4_BURST_WRAP beats=4 size=4B lock=0 | queued=1
# UVM_INFO ../10_tb/env/predictor.sv(138) @ 1025000: uvm_test_top.env.pred [predictor] [PRED][MAP] AXI4 AXI4_WRITE id=0xd addr=0x1300 burst=AXI4_BURST_WRAP beats=4 size=4B lock=0 -> AHB burst=AHB_BURST_WRAP4 size=4B crosses_1kb=0
# UVM_INFO ../10_tb/env/predictor.sv(169) @ 1025000: uvm_test_top.env.pred [predictor] [PRED][AHB] beat=1/4 | AHB AHB_WRITE addr=0x1300 trans=AHB_TRANS_NONSEQ burst=AHB_BURST_WRAP4 size=4B mastlock=0 resp=AHB_RESP_OKAY waits=0 | wdata=0x3b3a3938
# UVM_INFO ../10_tb/env/scoreboard.sv(154) @ 1025000: uvm_test_top.env.scb [scoreboard] [SCB][AHB][PASS] AHB AHB_WRITE addr=0x1300 trans=AHB_TRANS_NONSEQ burst=AHB_BURST_WRAP4 size=4B mastlock=0 resp=AHB_RESP_OKAY waits=0 | data=0x3b3a3938 | total=27
# UVM_INFO ../10_tb/env/predictor.sv(169) @ 1025000: uvm_test_top.env.pred [predictor] [PRED][AHB] beat=2/4 | AHB AHB_WRITE addr=0x1304 trans=AHB_TRANS_SEQ burst=AHB_BURST_WRAP4 size=4B mastlock=0 resp=AHB_RESP_OKAY waits=0 | wdata=0x3f3e3d3c
# UVM_INFO ../10_tb/env/scoreboard.sv(154) @ 1025000: uvm_test_top.env.scb [scoreboard] [SCB][AHB][PASS] AHB AHB_WRITE addr=0x1304 trans=AHB_TRANS_SEQ burst=AHB_BURST_WRAP4 size=4B mastlock=0 resp=AHB_RESP_OKAY waits=0 | data=0x3f3e3d3c | total=28
# UVM_INFO ../10_tb/env/predictor.sv(169) @ 1025000: uvm_test_top.env.pred [predictor] [PRED][AHB] beat=3/4 | AHB AHB_WRITE addr=0x1308 trans=AHB_TRANS_SEQ burst=AHB_BURST_WRAP4 size=4B mastlock=0 resp=AHB_RESP_OKAY waits=0 | wdata=0x43424140
# UVM_INFO ../10_tb/env/scoreboard.sv(154) @ 1025000: uvm_test_top.env.scb [scoreboard] [SCB][AHB][PASS] AHB AHB_WRITE addr=0x1308 trans=AHB_TRANS_SEQ burst=AHB_BURST_WRAP4 size=4B mastlock=0 resp=AHB_RESP_OKAY waits=0 | data=0x43424140 | total=29
# UVM_INFO ../10_tb/env/predictor.sv(169) @ 1025000: uvm_test_top.env.pred [predictor] [PRED][AHB] beat=4/4 | AHB AHB_WRITE addr=0x130c trans=AHB_TRANS_SEQ burst=AHB_BURST_WRAP4 size=4B mastlock=0 resp=AHB_RESP_OKAY waits=0 | wdata=0x47464544
# UVM_INFO ../10_tb/ahb_slv/ahb_slv_driver.sv(201) @ 1035000: uvm_test_top.env.ahb_agent.drv [ahb_slv_driver] [DRV][AHB][RSP] AHB_WRITE addr=0x130c data=0x47464544 resp=AHB_RESP_OKAY ready_delay=0
# UVM_INFO ../10_tb/ahb_slv/ahb_slv_monitor.sv(119) @ 1035000: uvm_test_top.env.ahb_agent.mon [ahb_slv_monitor] [MON][AHB][TR] AHB AHB_WRITE addr=0x130c trans=AHB_TRANS_SEQ burst=AHB_BURST_WRAP4 size=4B mastlock=0 resp=AHB_RESP_OKAY waits=0 | data=0x47464544
# UVM_INFO ../10_tb/env/scoreboard.sv(154) @ 1035000: uvm_test_top.env.scb [scoreboard] [SCB][AHB][PASS] AHB AHB_WRITE addr=0x130c trans=AHB_TRANS_SEQ burst=AHB_BURST_WRAP4 size=4B mastlock=0 resp=AHB_RESP_OKAY waits=0 | data=0x47464544 | total=30
# UVM_INFO ../10_tb/axi4_mst/axi4_mst_driver.sv(250) @ 1045000: uvm_test_top.env.axi_agent.drv [axi4_mst_driver] [DRV][AXI][B] id=0xd resp=AXI4_RESP_OKAY
# UVM_INFO ../10_tb/axi4_mst/axi4_mst_monitor.sv(177) @ 1045000: uvm_test_top.env.axi_agent.mon [axi4_mst_monitor] [MON][AXI][RSP] WRITE id=0xd resp=AXI4_RESP_OKAY
# UVM_INFO ../10_tb/env/scoreboard.sv(291) @ 1045000: uvm_test_top.env.scb [scoreboard] [SCB][AXI][PASS] AXI4 AXI4_WRITE id=0xd addr=0x1300 burst=AXI4_BURST_WRAP beats=4 size=4B lock=0 | bresp=AXI4_RESP_OKAY | total=7
# UVM_INFO ../10_tb/axi4_mst/axi4_mst_driver.sv(105) @ 1045000: uvm_test_top.env.axi_agent.drv [axi4_mst_driver] [DRV][AXI][REQ] AXI4 AXI4_READ id=0xa addr=0x1300 burst=AXI4_BURST_WRAP beats=4 size=4B lock=0 | outstanding=1
# UVM_INFO ../10_tb/axi4_mst/axi4_mst_driver.sv(225) @ 1075000: uvm_test_top.env.axi_agent.drv [axi4_mst_driver] [DRV][AXI][AR] id=0xa addr=0x1300 burst=AXI4_BURST_WRAP beats=4 size=4B
# UVM_INFO ../10_tb/axi4_mst/axi4_mst_monitor.sv(211) @ 1075000: uvm_test_top.env.axi_agent.mon [axi4_mst_monitor] [MON][AXI][REQ] AXI4 AXI4_READ id=0xa addr=0x1300 burst=AXI4_BURST_WRAP beats=4 size=4B lock=0
# UVM_INFO ../10_tb/env/predictor.sv(75) @ 1075000: uvm_test_top.env.pred [predictor] [PRED][AXI][IN] AXI4 AXI4_READ id=0xa addr=0x1300 burst=AXI4_BURST_WRAP beats=4 size=4B lock=0 | queued=1
# UVM_INFO ../10_tb/env/predictor.sv(138) @ 1075000: uvm_test_top.env.pred [predictor] [PRED][MAP] AXI4 AXI4_READ id=0xa addr=0x1300 burst=AXI4_BURST_WRAP beats=4 size=4B lock=0 -> AHB burst=AHB_BURST_WRAP4 size=4B crosses_1kb=0
# UVM_INFO ../10_tb/env/predictor.sv(175) @ 1075000: uvm_test_top.env.pred [predictor] [PRED][AHB] beat=1/4 | AHB AHB_READ addr=0x1300 trans=AHB_TRANS_NONSEQ burst=AHB_BURST_WRAP4 size=4B mastlock=0 resp=AHB_RESP_OKAY waits=0
# UVM_INFO ../10_tb/env/predictor.sv(175) @ 1075000: uvm_test_top.env.pred [predictor] [PRED][AHB] beat=2/4 | AHB AHB_READ addr=0x1304 trans=AHB_TRANS_SEQ burst=AHB_BURST_WRAP4 size=4B mastlock=0 resp=AHB_RESP_OKAY waits=0
# UVM_INFO ../10_tb/env/predictor.sv(175) @ 1075000: uvm_test_top.env.pred [predictor] [PRED][AHB] beat=3/4 | AHB AHB_READ addr=0x1308 trans=AHB_TRANS_SEQ burst=AHB_BURST_WRAP4 size=4B mastlock=0 resp=AHB_RESP_OKAY waits=0
# UVM_INFO ../10_tb/env/predictor.sv(175) @ 1075000: uvm_test_top.env.pred [predictor] [PRED][AHB] beat=4/4 | AHB AHB_READ addr=0x130c trans=AHB_TRANS_SEQ burst=AHB_BURST_WRAP4 size=4B mastlock=0 resp=AHB_RESP_OKAY waits=0
# UVM_INFO ../10_tb/ahb_slv/ahb_slv_driver.sv(87) @ 1085000: uvm_test_top.env.ahb_agent.drv [ahb_slv_driver] [DRV][AHB][REQ] AHB_READ addr=0x1300 trans=AHB_TRANS_NONSEQ burst=AHB_BURST_WRAP4 size=4B
# UVM_INFO ../10_tb/ahb_slv/ahb_slv_driver.sv(201) @ 1095000: uvm_test_top.env.ahb_agent.drv [ahb_slv_driver] [DRV][AHB][RSP] AHB_READ addr=0x1300 data=0x3b3a3938 resp=AHB_RESP_OKAY ready_delay=0
# UVM_INFO ../10_tb/ahb_slv/ahb_slv_monitor.sv(119) @ 1095000: uvm_test_top.env.ahb_agent.mon [ahb_slv_monitor] [MON][AHB][TR] AHB AHB_READ addr=0x1300 trans=AHB_TRANS_NONSEQ burst=AHB_BURST_WRAP4 size=4B mastlock=0 resp=AHB_RESP_OKAY waits=0 | data=0x3b3a3938
# UVM_INFO ../10_tb/env/scoreboard.sv(154) @ 1095000: uvm_test_top.env.scb [scoreboard] [SCB][AHB][PASS] AHB AHB_READ addr=0x1300 trans=AHB_TRANS_NONSEQ burst=AHB_BURST_WRAP4 size=4B mastlock=0 resp=AHB_RESP_OKAY waits=0 | data=0x3b3a3938 | total=31
# UVM_INFO ../10_tb/ahb_slv/ahb_slv_driver.sv(87) @ 1105000: uvm_test_top.env.ahb_agent.drv [ahb_slv_driver] [DRV][AHB][REQ] AHB_READ addr=0x1304 trans=AHB_TRANS_SEQ burst=AHB_BURST_WRAP4 size=4B
# UVM_INFO ../10_tb/ahb_slv/ahb_slv_driver.sv(201) @ 1115000: uvm_test_top.env.ahb_agent.drv [ahb_slv_driver] [DRV][AHB][RSP] AHB_READ addr=0x1304 data=0x3f3e3d3c resp=AHB_RESP_OKAY ready_delay=0
# UVM_INFO ../10_tb/ahb_slv/ahb_slv_monitor.sv(119) @ 1115000: uvm_test_top.env.ahb_agent.mon [ahb_slv_monitor] [MON][AHB][TR] AHB AHB_READ addr=0x1304 trans=AHB_TRANS_SEQ burst=AHB_BURST_WRAP4 size=4B mastlock=0 resp=AHB_RESP_OKAY waits=0 | data=0x3f3e3d3c
# UVM_INFO ../10_tb/env/scoreboard.sv(154) @ 1115000: uvm_test_top.env.scb [scoreboard] [SCB][AHB][PASS] AHB AHB_READ addr=0x1304 trans=AHB_TRANS_SEQ burst=AHB_BURST_WRAP4 size=4B mastlock=0 resp=AHB_RESP_OKAY waits=0 | data=0x3f3e3d3c | total=32
# UVM_INFO ../10_tb/axi4_mst/axi4_mst_driver.sv(290) @ 1115000: uvm_test_top.env.axi_agent.drv [axi4_mst_driver] [DRV][AXI][R] id=0xa beat=1/4 data=0x3b3a3938 resp=AXI4_RESP_OKAY last=0
# UVM_INFO ../10_tb/axi4_mst/axi4_mst_monitor.sv(256) @ 1115000: uvm_test_top.env.axi_agent.mon [axi4_mst_monitor] [MON][AXI][R] id=0xa beat=1/4 data=0x3b3a3938 resp=AXI4_RESP_OKAY last=0
# UVM_INFO ../10_tb/ahb_slv/ahb_slv_driver.sv(87) @ 1125000: uvm_test_top.env.ahb_agent.drv [ahb_slv_driver] [DRV][AHB][REQ] AHB_READ addr=0x1308 trans=AHB_TRANS_SEQ burst=AHB_BURST_WRAP4 size=4B
# UVM_INFO ../10_tb/ahb_slv/ahb_slv_driver.sv(201) @ 1135000: uvm_test_top.env.ahb_agent.drv [ahb_slv_driver] [DRV][AHB][RSP] AHB_READ addr=0x1308 data=0x43424140 resp=AHB_RESP_OKAY ready_delay=0
# UVM_INFO ../10_tb/ahb_slv/ahb_slv_monitor.sv(119) @ 1135000: uvm_test_top.env.ahb_agent.mon [ahb_slv_monitor] [MON][AHB][TR] AHB AHB_READ addr=0x1308 trans=AHB_TRANS_SEQ burst=AHB_BURST_WRAP4 size=4B mastlock=0 resp=AHB_RESP_OKAY waits=0 | data=0x43424140
# UVM_INFO ../10_tb/env/scoreboard.sv(154) @ 1135000: uvm_test_top.env.scb [scoreboard] [SCB][AHB][PASS] AHB AHB_READ addr=0x1308 trans=AHB_TRANS_SEQ burst=AHB_BURST_WRAP4 size=4B mastlock=0 resp=AHB_RESP_OKAY waits=0 | data=0x43424140 | total=33
# UVM_INFO ../10_tb/axi4_mst/axi4_mst_driver.sv(290) @ 1135000: uvm_test_top.env.axi_agent.drv [axi4_mst_driver] [DRV][AXI][R] id=0xa beat=2/4 data=0x3f3e3d3c resp=AXI4_RESP_OKAY last=0
# UVM_INFO ../10_tb/axi4_mst/axi4_mst_monitor.sv(256) @ 1135000: uvm_test_top.env.axi_agent.mon [axi4_mst_monitor] [MON][AXI][R] id=0xa beat=2/4 data=0x3f3e3d3c resp=AXI4_RESP_OKAY last=0
# UVM_INFO ../10_tb/ahb_slv/ahb_slv_driver.sv(87) @ 1145000: uvm_test_top.env.ahb_agent.drv [ahb_slv_driver] [DRV][AHB][REQ] AHB_READ addr=0x130c trans=AHB_TRANS_SEQ burst=AHB_BURST_WRAP4 size=4B
# UVM_INFO ../10_tb/ahb_slv/ahb_slv_driver.sv(201) @ 1155000: uvm_test_top.env.ahb_agent.drv [ahb_slv_driver] [DRV][AHB][RSP] AHB_READ addr=0x130c data=0x47464544 resp=AHB_RESP_OKAY ready_delay=0
# UVM_INFO ../10_tb/ahb_slv/ahb_slv_monitor.sv(119) @ 1155000: uvm_test_top.env.ahb_agent.mon [ahb_slv_monitor] [MON][AHB][TR] AHB AHB_READ addr=0x130c trans=AHB_TRANS_SEQ burst=AHB_BURST_WRAP4 size=4B mastlock=0 resp=AHB_RESP_OKAY waits=0 | data=0x47464544
# UVM_INFO ../10_tb/env/scoreboard.sv(154) @ 1155000: uvm_test_top.env.scb [scoreboard] [SCB][AHB][PASS] AHB AHB_READ addr=0x130c trans=AHB_TRANS_SEQ burst=AHB_BURST_WRAP4 size=4B mastlock=0 resp=AHB_RESP_OKAY waits=0 | data=0x47464544 | total=34
# UVM_INFO ../10_tb/axi4_mst/axi4_mst_driver.sv(290) @ 1155000: uvm_test_top.env.axi_agent.drv [axi4_mst_driver] [DRV][AXI][R] id=0xa beat=3/4 data=0x43424140 resp=AXI4_RESP_OKAY last=0
# UVM_INFO ../10_tb/axi4_mst/axi4_mst_monitor.sv(256) @ 1155000: uvm_test_top.env.axi_agent.mon [axi4_mst_monitor] [MON][AXI][R] id=0xa beat=3/4 data=0x43424140 resp=AXI4_RESP_OKAY last=0
# UVM_INFO ../10_tb/axi4_mst/axi4_mst_driver.sv(290) @ 1175000: uvm_test_top.env.axi_agent.drv [axi4_mst_driver] [DRV][AXI][R] id=0xa beat=4/4 data=0x47464544 resp=AXI4_RESP_OKAY last=1
# UVM_INFO ../10_tb/axi4_mst/axi4_mst_monitor.sv(256) @ 1175000: uvm_test_top.env.axi_agent.mon [axi4_mst_monitor] [MON][AXI][R] id=0xa beat=4/4 data=0x47464544 resp=AXI4_RESP_OKAY last=1
# UVM_INFO ../10_tb/axi4_mst/axi4_mst_monitor.sv(262) @ 1175000: uvm_test_top.env.axi_agent.mon [axi4_mst_monitor] [MON][AXI][RSP] READ id=0xa beats=4
# UVM_INFO ../10_tb/env/scoreboard.sv(298) @ 1175000: uvm_test_top.env.scb [scoreboard] [SCB][AXI][PASS] AXI4 AXI4_READ id=0xa addr=0x1300 burst=AXI4_BURST_WRAP beats=4 size=4B lock=0 | read beats=4 | total=8
# UVM_INFO ../10_tb/axi4_mst/axi4_mst_driver.sv(105) @ 1175000: uvm_test_top.env.axi_agent.drv [axi4_mst_driver] [DRV][AXI][REQ] AXI4 AXI4_WRITE id=0x6 addr=0x1400 burst=AXI4_BURST_FIXED beats=4 size=4B lock=0 | outstanding=1
# UVM_INFO ../10_tb/axi4_mst/axi4_mst_driver.sv(178) @ 1215000: uvm_test_top.env.axi_agent.drv [axi4_mst_driver] [DRV][AXI][AW] id=0x6 addr=0x1400 burst=AXI4_BURST_FIXED beats=4 size=4B
# UVM_INFO ../10_tb/axi4_mst/axi4_mst_driver.sv(198) @ 1215000: uvm_test_top.env.axi_agent.drv [axi4_mst_driver] [DRV][AXI][W] id=0x6 beat=1/4 data=0x43424140 strb=0xf last=0
# UVM_INFO ../10_tb/ahb_slv/ahb_slv_driver.sv(87) @ 1225000: uvm_test_top.env.ahb_agent.drv [ahb_slv_driver] [DRV][AHB][REQ] AHB_WRITE addr=0x1400 trans=AHB_TRANS_NONSEQ burst=AHB_BURST_SINGLE size=4B
# UVM_INFO ../10_tb/ahb_slv/ahb_slv_driver.sv(201) @ 1235000: uvm_test_top.env.ahb_agent.drv [ahb_slv_driver] [DRV][AHB][RSP] AHB_WRITE addr=0x1400 data=0x43424140 resp=AHB_RESP_OKAY ready_delay=0
# UVM_INFO ../10_tb/ahb_slv/ahb_slv_monitor.sv(119) @ 1235000: uvm_test_top.env.ahb_agent.mon [ahb_slv_monitor] [MON][AHB][TR] AHB AHB_WRITE addr=0x1400 trans=AHB_TRANS_NONSEQ burst=AHB_BURST_SINGLE size=4B mastlock=0 resp=AHB_RESP_OKAY waits=0 | data=0x43424140
# UVM_INFO ../10_tb/ahb_slv/ahb_slv_driver.sv(87) @ 1245000: uvm_test_top.env.ahb_agent.drv [ahb_slv_driver] [DRV][AHB][REQ] AHB_WRITE addr=0x1400 trans=AHB_TRANS_NONSEQ burst=AHB_BURST_SINGLE size=4B
# UVM_INFO ../10_tb/axi4_mst/axi4_mst_driver.sv(198) @ 1245000: uvm_test_top.env.axi_agent.drv [axi4_mst_driver] [DRV][AXI][W] id=0x6 beat=2/4 data=0x47464544 strb=0xf last=0
# UVM_INFO ../10_tb/ahb_slv/ahb_slv_driver.sv(201) @ 1255000: uvm_test_top.env.ahb_agent.drv [ahb_slv_driver] [DRV][AHB][RSP] AHB_WRITE addr=0x1400 data=0x47464544 resp=AHB_RESP_OKAY ready_delay=0
# UVM_INFO ../10_tb/ahb_slv/ahb_slv_monitor.sv(119) @ 1255000: uvm_test_top.env.ahb_agent.mon [ahb_slv_monitor] [MON][AHB][TR] AHB AHB_WRITE addr=0x1400 trans=AHB_TRANS_NONSEQ burst=AHB_BURST_SINGLE size=4B mastlock=0 resp=AHB_RESP_OKAY waits=0 | data=0x47464544
# UVM_INFO ../10_tb/ahb_slv/ahb_slv_driver.sv(87) @ 1265000: uvm_test_top.env.ahb_agent.drv [ahb_slv_driver] [DRV][AHB][REQ] AHB_WRITE addr=0x1400 trans=AHB_TRANS_NONSEQ burst=AHB_BURST_SINGLE size=4B
# UVM_INFO ../10_tb/axi4_mst/axi4_mst_driver.sv(198) @ 1265000: uvm_test_top.env.axi_agent.drv [axi4_mst_driver] [DRV][AXI][W] id=0x6 beat=3/4 data=0x4b4a4948 strb=0xf last=0
# UVM_INFO ../10_tb/ahb_slv/ahb_slv_driver.sv(201) @ 1275000: uvm_test_top.env.ahb_agent.drv [ahb_slv_driver] [DRV][AHB][RSP] AHB_WRITE addr=0x1400 data=0x4b4a4948 resp=AHB_RESP_OKAY ready_delay=0
# UVM_INFO ../10_tb/ahb_slv/ahb_slv_monitor.sv(119) @ 1275000: uvm_test_top.env.ahb_agent.mon [ahb_slv_monitor] [MON][AHB][TR] AHB AHB_WRITE addr=0x1400 trans=AHB_TRANS_NONSEQ burst=AHB_BURST_SINGLE size=4B mastlock=0 resp=AHB_RESP_OKAY waits=0 | data=0x4b4a4948
# UVM_INFO ../10_tb/ahb_slv/ahb_slv_driver.sv(87) @ 1285000: uvm_test_top.env.ahb_agent.drv [ahb_slv_driver] [DRV][AHB][REQ] AHB_WRITE addr=0x1400 trans=AHB_TRANS_NONSEQ burst=AHB_BURST_SINGLE size=4B
# UVM_INFO ../10_tb/axi4_mst/axi4_mst_driver.sv(198) @ 1285000: uvm_test_top.env.axi_agent.drv [axi4_mst_driver] [DRV][AXI][W] id=0x6 beat=4/4 data=0x4f4e4d4c strb=0xf last=1
# UVM_INFO ../10_tb/axi4_mst/axi4_mst_monitor.sv(151) @ 1285000: uvm_test_top.env.axi_agent.mon [axi4_mst_monitor] [MON][AXI][REQ] AXI4 AXI4_WRITE id=0x6 addr=0x1400 burst=AXI4_BURST_FIXED beats=4 size=4B lock=0
# UVM_INFO ../10_tb/env/predictor.sv(75) @ 1285000: uvm_test_top.env.pred [predictor] [PRED][AXI][IN] AXI4 AXI4_WRITE id=0x6 addr=0x1400 burst=AXI4_BURST_FIXED beats=4 size=4B lock=0 | queued=1
# UVM_INFO ../10_tb/env/predictor.sv(138) @ 1285000: uvm_test_top.env.pred [predictor] [PRED][MAP] AXI4 AXI4_WRITE id=0x6 addr=0x1400 burst=AXI4_BURST_FIXED beats=4 size=4B lock=0 -> AHB burst=AHB_BURST_SINGLE size=4B crosses_1kb=0
# UVM_INFO ../10_tb/env/predictor.sv(169) @ 1285000: uvm_test_top.env.pred [predictor] [PRED][AHB] beat=1/4 | AHB AHB_WRITE addr=0x1400 trans=AHB_TRANS_NONSEQ burst=AHB_BURST_SINGLE size=4B mastlock=0 resp=AHB_RESP_OKAY waits=0 | wdata=0x43424140
# UVM_INFO ../10_tb/env/scoreboard.sv(154) @ 1285000: uvm_test_top.env.scb [scoreboard] [SCB][AHB][PASS] AHB AHB_WRITE addr=0x1400 trans=AHB_TRANS_NONSEQ burst=AHB_BURST_SINGLE size=4B mastlock=0 resp=AHB_RESP_OKAY waits=0 | data=0x43424140 | total=35
# UVM_INFO ../10_tb/env/predictor.sv(169) @ 1285000: uvm_test_top.env.pred [predictor] [PRED][AHB] beat=2/4 | AHB AHB_WRITE addr=0x1400 trans=AHB_TRANS_NONSEQ burst=AHB_BURST_SINGLE size=4B mastlock=0 resp=AHB_RESP_OKAY waits=0 | wdata=0x47464544
# UVM_INFO ../10_tb/env/scoreboard.sv(154) @ 1285000: uvm_test_top.env.scb [scoreboard] [SCB][AHB][PASS] AHB AHB_WRITE addr=0x1400 trans=AHB_TRANS_NONSEQ burst=AHB_BURST_SINGLE size=4B mastlock=0 resp=AHB_RESP_OKAY waits=0 | data=0x47464544 | total=36
# UVM_INFO ../10_tb/env/predictor.sv(169) @ 1285000: uvm_test_top.env.pred [predictor] [PRED][AHB] beat=3/4 | AHB AHB_WRITE addr=0x1400 trans=AHB_TRANS_NONSEQ burst=AHB_BURST_SINGLE size=4B mastlock=0 resp=AHB_RESP_OKAY waits=0 | wdata=0x4b4a4948
# UVM_INFO ../10_tb/env/scoreboard.sv(154) @ 1285000: uvm_test_top.env.scb [scoreboard] [SCB][AHB][PASS] AHB AHB_WRITE addr=0x1400 trans=AHB_TRANS_NONSEQ burst=AHB_BURST_SINGLE size=4B mastlock=0 resp=AHB_RESP_OKAY waits=0 | data=0x4b4a4948 | total=37
# UVM_INFO ../10_tb/env/predictor.sv(169) @ 1285000: uvm_test_top.env.pred [predictor] [PRED][AHB] beat=4/4 | AHB AHB_WRITE addr=0x1400 trans=AHB_TRANS_NONSEQ burst=AHB_BURST_SINGLE size=4B mastlock=0 resp=AHB_RESP_OKAY waits=0 | wdata=0x4f4e4d4c
# UVM_INFO ../10_tb/ahb_slv/ahb_slv_driver.sv(201) @ 1295000: uvm_test_top.env.ahb_agent.drv [ahb_slv_driver] [DRV][AHB][RSP] AHB_WRITE addr=0x1400 data=0x4f4e4d4c resp=AHB_RESP_OKAY ready_delay=0
# UVM_INFO ../10_tb/ahb_slv/ahb_slv_monitor.sv(119) @ 1295000: uvm_test_top.env.ahb_agent.mon [ahb_slv_monitor] [MON][AHB][TR] AHB AHB_WRITE addr=0x1400 trans=AHB_TRANS_NONSEQ burst=AHB_BURST_SINGLE size=4B mastlock=0 resp=AHB_RESP_OKAY waits=0 | data=0x4f4e4d4c
# UVM_INFO ../10_tb/env/scoreboard.sv(154) @ 1295000: uvm_test_top.env.scb [scoreboard] [SCB][AHB][PASS] AHB AHB_WRITE addr=0x1400 trans=AHB_TRANS_NONSEQ burst=AHB_BURST_SINGLE size=4B mastlock=0 resp=AHB_RESP_OKAY waits=0 | data=0x4f4e4d4c | total=38
# UVM_INFO ../10_tb/axi4_mst/axi4_mst_driver.sv(250) @ 1305000: uvm_test_top.env.axi_agent.drv [axi4_mst_driver] [DRV][AXI][B] id=0x6 resp=AXI4_RESP_OKAY
# UVM_INFO ../10_tb/axi4_mst/axi4_mst_monitor.sv(177) @ 1305000: uvm_test_top.env.axi_agent.mon [axi4_mst_monitor] [MON][AXI][RSP] WRITE id=0x6 resp=AXI4_RESP_OKAY
# UVM_INFO ../10_tb/env/scoreboard.sv(291) @ 1305000: uvm_test_top.env.scb [scoreboard] [SCB][AXI][PASS] AXI4 AXI4_WRITE id=0x6 addr=0x1400 burst=AXI4_BURST_FIXED beats=4 size=4B lock=0 | bresp=AXI4_RESP_OKAY | total=9
# UVM_INFO ../10_tb/axi4_mst/axi4_mst_driver.sv(105) @ 1305000: uvm_test_top.env.axi_agent.drv [axi4_mst_driver] [DRV][AXI][REQ] AXI4 AXI4_READ id=0x2 addr=0x1400 burst=AXI4_BURST_FIXED beats=4 size=4B lock=0 | outstanding=1
# UVM_INFO ../10_tb/axi4_mst/axi4_mst_driver.sv(225) @ 1335000: uvm_test_top.env.axi_agent.drv [axi4_mst_driver] [DRV][AXI][AR] id=0x2 addr=0x1400 burst=AXI4_BURST_FIXED beats=4 size=4B
# UVM_INFO ../10_tb/axi4_mst/axi4_mst_monitor.sv(211) @ 1335000: uvm_test_top.env.axi_agent.mon [axi4_mst_monitor] [MON][AXI][REQ] AXI4 AXI4_READ id=0x2 addr=0x1400 burst=AXI4_BURST_FIXED beats=4 size=4B lock=0
# UVM_INFO ../10_tb/env/predictor.sv(75) @ 1335000: uvm_test_top.env.pred [predictor] [PRED][AXI][IN] AXI4 AXI4_READ id=0x2 addr=0x1400 burst=AXI4_BURST_FIXED beats=4 size=4B lock=0 | queued=1
# UVM_INFO ../10_tb/env/predictor.sv(138) @ 1335000: uvm_test_top.env.pred [predictor] [PRED][MAP] AXI4 AXI4_READ id=0x2 addr=0x1400 burst=AXI4_BURST_FIXED beats=4 size=4B lock=0 -> AHB burst=AHB_BURST_SINGLE size=4B crosses_1kb=0
# UVM_INFO ../10_tb/env/predictor.sv(175) @ 1335000: uvm_test_top.env.pred [predictor] [PRED][AHB] beat=1/4 | AHB AHB_READ addr=0x1400 trans=AHB_TRANS_NONSEQ burst=AHB_BURST_SINGLE size=4B mastlock=0 resp=AHB_RESP_OKAY waits=0
# UVM_INFO ../10_tb/env/predictor.sv(175) @ 1335000: uvm_test_top.env.pred [predictor] [PRED][AHB] beat=2/4 | AHB AHB_READ addr=0x1400 trans=AHB_TRANS_NONSEQ burst=AHB_BURST_SINGLE size=4B mastlock=0 resp=AHB_RESP_OKAY waits=0
# UVM_INFO ../10_tb/env/predictor.sv(175) @ 1335000: uvm_test_top.env.pred [predictor] [PRED][AHB] beat=3/4 | AHB AHB_READ addr=0x1400 trans=AHB_TRANS_NONSEQ burst=AHB_BURST_SINGLE size=4B mastlock=0 resp=AHB_RESP_OKAY waits=0
# UVM_INFO ../10_tb/env/predictor.sv(175) @ 1335000: uvm_test_top.env.pred [predictor] [PRED][AHB] beat=4/4 | AHB AHB_READ addr=0x1400 trans=AHB_TRANS_NONSEQ burst=AHB_BURST_SINGLE size=4B mastlock=0 resp=AHB_RESP_OKAY waits=0
# UVM_INFO ../10_tb/ahb_slv/ahb_slv_driver.sv(87) @ 1345000: uvm_test_top.env.ahb_agent.drv [ahb_slv_driver] [DRV][AHB][REQ] AHB_READ addr=0x1400 trans=AHB_TRANS_NONSEQ burst=AHB_BURST_SINGLE size=4B
# UVM_INFO ../10_tb/ahb_slv/ahb_slv_driver.sv(201) @ 1355000: uvm_test_top.env.ahb_agent.drv [ahb_slv_driver] [DRV][AHB][RSP] AHB_READ addr=0x1400 data=0x4f4e4d4c resp=AHB_RESP_OKAY ready_delay=0
# UVM_INFO ../10_tb/ahb_slv/ahb_slv_monitor.sv(119) @ 1355000: uvm_test_top.env.ahb_agent.mon [ahb_slv_monitor] [MON][AHB][TR] AHB AHB_READ addr=0x1400 trans=AHB_TRANS_NONSEQ burst=AHB_BURST_SINGLE size=4B mastlock=0 resp=AHB_RESP_OKAY waits=0 | data=0x4f4e4d4c
# UVM_INFO ../10_tb/env/scoreboard.sv(154) @ 1355000: uvm_test_top.env.scb [scoreboard] [SCB][AHB][PASS] AHB AHB_READ addr=0x1400 trans=AHB_TRANS_NONSEQ burst=AHB_BURST_SINGLE size=4B mastlock=0 resp=AHB_RESP_OKAY waits=0 | data=0x4f4e4d4c | total=39
# UVM_INFO ../10_tb/ahb_slv/ahb_slv_driver.sv(87) @ 1365000: uvm_test_top.env.ahb_agent.drv [ahb_slv_driver] [DRV][AHB][REQ] AHB_READ addr=0x1400 trans=AHB_TRANS_NONSEQ burst=AHB_BURST_SINGLE size=4B
# UVM_INFO ../10_tb/ahb_slv/ahb_slv_driver.sv(201) @ 1375000: uvm_test_top.env.ahb_agent.drv [ahb_slv_driver] [DRV][AHB][RSP] AHB_READ addr=0x1400 data=0x4f4e4d4c resp=AHB_RESP_OKAY ready_delay=0
# UVM_INFO ../10_tb/ahb_slv/ahb_slv_monitor.sv(119) @ 1375000: uvm_test_top.env.ahb_agent.mon [ahb_slv_monitor] [MON][AHB][TR] AHB AHB_READ addr=0x1400 trans=AHB_TRANS_NONSEQ burst=AHB_BURST_SINGLE size=4B mastlock=0 resp=AHB_RESP_OKAY waits=0 | data=0x4f4e4d4c
# UVM_INFO ../10_tb/env/scoreboard.sv(154) @ 1375000: uvm_test_top.env.scb [scoreboard] [SCB][AHB][PASS] AHB AHB_READ addr=0x1400 trans=AHB_TRANS_NONSEQ burst=AHB_BURST_SINGLE size=4B mastlock=0 resp=AHB_RESP_OKAY waits=0 | data=0x4f4e4d4c | total=40
# UVM_INFO ../10_tb/axi4_mst/axi4_mst_driver.sv(290) @ 1375000: uvm_test_top.env.axi_agent.drv [axi4_mst_driver] [DRV][AXI][R] id=0x2 beat=1/4 data=0x4f4e4d4c resp=AXI4_RESP_OKAY last=0
# UVM_INFO ../10_tb/axi4_mst/axi4_mst_monitor.sv(256) @ 1375000: uvm_test_top.env.axi_agent.mon [axi4_mst_monitor] [MON][AXI][R] id=0x2 beat=1/4 data=0x4f4e4d4c resp=AXI4_RESP_OKAY last=0
# UVM_INFO ../10_tb/ahb_slv/ahb_slv_driver.sv(87) @ 1385000: uvm_test_top.env.ahb_agent.drv [ahb_slv_driver] [DRV][AHB][REQ] AHB_READ addr=0x1400 trans=AHB_TRANS_NONSEQ burst=AHB_BURST_SINGLE size=4B
# UVM_INFO ../10_tb/ahb_slv/ahb_slv_driver.sv(201) @ 1395000: uvm_test_top.env.ahb_agent.drv [ahb_slv_driver] [DRV][AHB][RSP] AHB_READ addr=0x1400 data=0x4f4e4d4c resp=AHB_RESP_OKAY ready_delay=0
# UVM_INFO ../10_tb/ahb_slv/ahb_slv_monitor.sv(119) @ 1395000: uvm_test_top.env.ahb_agent.mon [ahb_slv_monitor] [MON][AHB][TR] AHB AHB_READ addr=0x1400 trans=AHB_TRANS_NONSEQ burst=AHB_BURST_SINGLE size=4B mastlock=0 resp=AHB_RESP_OKAY waits=0 | data=0x4f4e4d4c
# UVM_INFO ../10_tb/env/scoreboard.sv(154) @ 1395000: uvm_test_top.env.scb [scoreboard] [SCB][AHB][PASS] AHB AHB_READ addr=0x1400 trans=AHB_TRANS_NONSEQ burst=AHB_BURST_SINGLE size=4B mastlock=0 resp=AHB_RESP_OKAY waits=0 | data=0x4f4e4d4c | total=41
# UVM_INFO ../10_tb/axi4_mst/axi4_mst_driver.sv(290) @ 1395000: uvm_test_top.env.axi_agent.drv [axi4_mst_driver] [DRV][AXI][R] id=0x2 beat=2/4 data=0x4f4e4d4c resp=AXI4_RESP_OKAY last=0
# UVM_INFO ../10_tb/axi4_mst/axi4_mst_monitor.sv(256) @ 1395000: uvm_test_top.env.axi_agent.mon [axi4_mst_monitor] [MON][AXI][R] id=0x2 beat=2/4 data=0x4f4e4d4c resp=AXI4_RESP_OKAY last=0
# UVM_INFO ../10_tb/ahb_slv/ahb_slv_driver.sv(87) @ 1405000: uvm_test_top.env.ahb_agent.drv [ahb_slv_driver] [DRV][AHB][REQ] AHB_READ addr=0x1400 trans=AHB_TRANS_NONSEQ burst=AHB_BURST_SINGLE size=4B
# UVM_INFO ../10_tb/ahb_slv/ahb_slv_driver.sv(201) @ 1415000: uvm_test_top.env.ahb_agent.drv [ahb_slv_driver] [DRV][AHB][RSP] AHB_READ addr=0x1400 data=0x4f4e4d4c resp=AHB_RESP_OKAY ready_delay=0
# UVM_INFO ../10_tb/ahb_slv/ahb_slv_monitor.sv(119) @ 1415000: uvm_test_top.env.ahb_agent.mon [ahb_slv_monitor] [MON][AHB][TR] AHB AHB_READ addr=0x1400 trans=AHB_TRANS_NONSEQ burst=AHB_BURST_SINGLE size=4B mastlock=0 resp=AHB_RESP_OKAY waits=0 | data=0x4f4e4d4c
# UVM_INFO ../10_tb/env/scoreboard.sv(154) @ 1415000: uvm_test_top.env.scb [scoreboard] [SCB][AHB][PASS] AHB AHB_READ addr=0x1400 trans=AHB_TRANS_NONSEQ burst=AHB_BURST_SINGLE size=4B mastlock=0 resp=AHB_RESP_OKAY waits=0 | data=0x4f4e4d4c | total=42
# UVM_INFO ../10_tb/axi4_mst/axi4_mst_driver.sv(290) @ 1415000: uvm_test_top.env.axi_agent.drv [axi4_mst_driver] [DRV][AXI][R] id=0x2 beat=3/4 data=0x4f4e4d4c resp=AXI4_RESP_OKAY last=0
# UVM_INFO ../10_tb/axi4_mst/axi4_mst_monitor.sv(256) @ 1415000: uvm_test_top.env.axi_agent.mon [axi4_mst_monitor] [MON][AXI][R] id=0x2 beat=3/4 data=0x4f4e4d4c resp=AXI4_RESP_OKAY last=0
# UVM_INFO ../10_tb/axi4_mst/axi4_mst_driver.sv(290) @ 1435000: uvm_test_top.env.axi_agent.drv [axi4_mst_driver] [DRV][AXI][R] id=0x2 beat=4/4 data=0x4f4e4d4c resp=AXI4_RESP_OKAY last=1
# UVM_INFO ../10_tb/axi4_mst/axi4_mst_monitor.sv(256) @ 1435000: uvm_test_top.env.axi_agent.mon [axi4_mst_monitor] [MON][AXI][R] id=0x2 beat=4/4 data=0x4f4e4d4c resp=AXI4_RESP_OKAY last=1
# UVM_INFO ../10_tb/axi4_mst/axi4_mst_monitor.sv(262) @ 1435000: uvm_test_top.env.axi_agent.mon [axi4_mst_monitor] [MON][AXI][RSP] READ id=0x2 beats=4
# UVM_INFO ../10_tb/env/scoreboard.sv(298) @ 1435000: uvm_test_top.env.scb [scoreboard] [SCB][AXI][PASS] AXI4 AXI4_READ id=0x2 addr=0x1400 burst=AXI4_BURST_FIXED beats=4 size=4B lock=0 | read beats=4 | total=10
# UVM_INFO ../10_tb/seq/axi4_mst_seq/axi4_mst_data_integrity_seq.sv(87) @ 1435000: uvm_test_top.env.axi_agent.sqr@@axi_seq [axi4_mst_data_integrity_seq] Narrow data-integrity cases disabled by test configuration
# UVM_INFO ../10_tb/seq/axi4_mst_seq/axi4_mst_data_integrity_seq.sv(93) @ 1435000: uvm_test_top.env.axi_agent.sqr@@axi_seq [axi4_mst_data_integrity_seq] Data-integrity summary: checked=10 failed=0
# UVM_INFO verilog_src/uvm-1.1d/src/base/uvm_objection.svh(1268) @ 1535000: reporter [TEST_DONE] 'run' phase is ready to proceed to the 'extract' phase
# UVM_INFO ../10_tb/env/e2e_cov.sv(778) @ 1535000: uvm_test_top.env.cov [e2e_cov] E2E coverage: AXI=50.15% strobe=29.17% translation=60.58% AHB=46.75% response=50.00%
# UVM_INFO ../10_tb/env/scoreboard.sv(411) @ 1535000: uvm_test_top.env.scb [scoreboard] Scoreboard summary: AHB match/mismatch=42/0, AXI match/mismatch=10/0
# UVM_INFO ../10_tb/test/bridge_base_test.sv(78) @ 1535000: uvm_test_top [bridge_data_integrity_test] === TEST PASSED ===
# 
# --- UVM Report Summary ---
# 
# ** Report counts by severity
# UVM_INFO :  360
# UVM_WARNING :    0
# UVM_ERROR :    0
# UVM_FATAL :    0
# ** Report counts by id
# [BRIDGE_TB_TOP]     1
# [Questa UVM]     3
# [RNTST]     1
# [TEST_DONE]     1
# [UVMTOP]     1
# [ahb_slv_driver]    84
# [ahb_slv_monitor]    42
# [axi4_mst_data_integrity_seq]     2
# [axi4_mst_driver]    67
# [axi4_mst_monitor]    41
# [bridge_data_integrity_test]     1
# [e2e_cov]     1
# [predictor]    62
# [scoreboard]    53
# ** Note: $finish    : /cadtools/mentor/Questa_10.6b/questasim/linux_x86_64/../verilog_src/uvm-1.1d/src/base/uvm_root.svh(430)
#    Time: 1535 ns  Iteration: 56  Instance: /bridge_tb_top
# Saving coverage database on exit...
# End time: 09:40:48 on Sep 18,2026, Elapsed time: 0:00:02
# Errors: 0, Warnings: 0
