# vsim -c -coverage -sv_seed 57910800 "+UVM_TESTNAME=bridge_incr_mapping_test" "+UVM_VERBOSITY=UVM_HIGH" -l report/logs/bridge_incr_mapping_test_run_4_seed_57910800.log -wlf report/wlf/bridge_incr_mapping_test_run_4_seed_57910800.wlf -do "coverage save -onexit report/coverage/bridge_incr_mapping_test_run_4_seed_57910800.ucdb; run -all; quit -f" work.opt_bridge_tb_top 
# Start time: 09:23:47 on Sep 28,2026
# //  Questa Sim-64
# //  Version 10.6b linux_x86_64 May 25 2017
# //
# //  Copyright 1991-2017 Mentor Graphics Corporation
# //  All Rights Reserved.
# //
# //  QuestaSim and its associated documentation contain trade
# //  secrets and commercial or financial information that are the property of
# //  Mentor Graphics Corporation and are privileged, confidential,
# //  and exempt from disclosure under the Freedom of Information Act,
# //  5 U.S.C. Section 552. Furthermore, this information
# //  is prohibited from disclosure under the Trade Secrets Act,
# //  18 U.S.C. Section 1905.
# //
# Loading sv_std.std
# Loading work.axi4_if(fast)
# Loading work.ahb_if(fast)
# Loading mtiUvm.uvm_pkg
# Loading work.bridge_vip_pkg(fast)
# Loading work.bridge_seq_pkg(fast)
# Loading work.bridge_test_pkg(fast)
# Loading work.bridge_tb_top(fast)
# Loading work.axi4_if(fast)
# Loading work.ahb_if(fast)
# Loading work.axi_ahblite_bridge(fast)
# Loading work.ahb_skid_buf(fast)
# Loading work.axi_slv_if(fast)
# Loading work.ahb_mstr_if(fast)
# Loading work.time_out(fast)
# Loading work.axi4_sva(fast)
# Loading work.ahb_sva(fast)
# Loading mtiUvm.questa_uvm_pkg(fast)
# Loading /cadtools/mentor/Questa_10.6b/questasim/uvm-1.1d/linux_x86_64/uvm_dpi.so
# coverage save -onexit report/coverage/bridge_incr_mapping_test_run_4_seed_57910800.ucdb
#  run -all
# ----------------------------------------------------------------
# UVM-1.1d
# (C) 2007-2013 Mentor Graphics Corporation
# (C) 2007-2013 Cadence Design Systems, Inc.
# (C) 2006-2013 Synopsys, Inc.
# (C) 2011-2013 Cypress Semiconductor Corp.
# ----------------------------------------------------------------
# 
#   ***********       IMPORTANT RELEASE NOTES         ************
# 
#   You are using a version of the UVM library that has been compiled
#   with `UVM_NO_DEPRECATED undefined.
#   See http://www.eda.org/svdb/view.php?id=3313 for more details.
# 
#   You are using a version of the UVM library that has been compiled
#   with `UVM_OBJECT_MUST_HAVE_CONSTRUCTOR undefined.
#   See http://www.eda.org/svdb/view.php?id=3770 for more details.
# 
#       (Specify +UVM_NO_RELNOTES to turn off this notice)
# 
# UVM_INFO verilog_src/questa_uvm_pkg-1.2/src/questa_uvm_pkg.sv(215) @ 0: reporter [Questa UVM] QUESTA_UVM-1.2.3
# UVM_INFO verilog_src/questa_uvm_pkg-1.2/src/questa_uvm_pkg.sv(217) @ 0: reporter [Questa UVM]  questa_uvm::init(+struct)
# UVM_INFO @ 0: reporter [RNTST] Running test bridge_incr_mapping_test...
# UVM_INFO @ 0: reporter [UVMTOP] UVM testbench topology:
# -------------------------------------------------------------------------
# Name                       Type                               Size  Value
# -------------------------------------------------------------------------
# uvm_test_top               bridge_incr_mapping_test           -     @490 
#   env                      vip_env                            -     @508 
#     ahb_agent              ahb_slv_agent                      -     @529 
#       ap                   uvm_analysis_port                  -     @667 
#       cov                  ahb_slv_coverage                   -     @693 
#         analysis_imp       uvm_analysis_imp                   -     @700 
#         trans_export       uvm_analysis_imp_ahb_trans         -     @841 
#       drv                  ahb_slv_driver                     -     @818 
#         rsp_port           uvm_analysis_port                  -     @833 
#         seq_item_port      uvm_seq_item_pull_port             -     @825 
#       mon                  ahb_slv_monitor                    -     @686 
#         ap                 uvm_analysis_port                  -     @850 
#         trans_ap           uvm_analysis_port                  -     @858 
#       sqr                  ahb_slv_sequencer                  -     @709 
#         rsp_export         uvm_analysis_export                -     @716 
#         seq_item_export    uvm_seq_item_pull_imp              -     @810 
#         arbitration_queue  array                              0     -    
#         lock_queue         array                              0     -    
#         num_last_reqs      integral                           32    'd1  
#         num_last_rsps      integral                           32    'd1  
#       trans_ap             uvm_analysis_port                  -     @675 
#     axi_agent              axi4_mst_agent                     -     @522 
#       ap                   uvm_analysis_port                  -     @881 
#       cov                  axi4_mst_coverage                  -     @899 
#         analysis_imp       uvm_analysis_imp                   -     @906 
#       drv                  axi4_mst_driver                    -     @1024
#         rsp_port           uvm_analysis_port                  -     @1039
#         seq_item_port      uvm_seq_item_pull_port             -     @1031
#       mon                  axi4_mst_monitor                   -     @892 
#         ap                 uvm_analysis_port                  -     @1056
#         req_ap             uvm_analysis_port                  -     @1048
#       req_ap               uvm_analysis_port                  -     @873 
#       sqr                  axi4_mst_sequencer                 -     @915 
#         rsp_export         uvm_analysis_export                -     @922 
#         seq_item_export    uvm_seq_item_pull_imp              -     @1016
#         arbitration_queue  array                              0     -    
#         lock_queue         array                              0     -    
#         num_last_reqs      integral                           32    'd1  
#         num_last_rsps      integral                           32    'd1  
#     cov                    e2e_cov                            -     @659 
#       actual_ahb_export    uvm_analysis_imp_e2e_actual_ahb    -     @1086
#       axi_req_export       uvm_analysis_imp_e2e_axi_req       -     @1070
#       axi_rsp_export       uvm_analysis_imp_e2e_axi_rsp       -     @1094
#       expected_ahb_export  uvm_analysis_imp_e2e_expected_ahb  -     @1078
#     pred                   predictor                          -     @645 
#       axi_request_export   uvm_analysis_imp_axi_request       -     @1102
#       expected_ahb_ap      uvm_analysis_port                  -     @1110
#       expected_axi_ap      uvm_analysis_port                  -     @1118
#     scb                    scoreboard                         -     @652 
#       actual_ahb_export    uvm_analysis_imp_actual_ahb        -     @1134
#       actual_axi_export    uvm_analysis_imp_actual_axi        -     @1150
#       expected_ahb_export  uvm_analysis_imp_expected_ahb      -     @1126
#       expected_axi_export  uvm_analysis_imp_expected_axi      -     @1142
#     vseqr                  virtual_sequencer                  -     @536 
#       rsp_export           uvm_analysis_export                -     @543 
#       seq_item_export      uvm_seq_item_pull_imp              -     @637 
#       arbitration_queue    array                              0     -    
#       lock_queue           array                              0     -    
#       num_last_reqs        integral                           32    'd1  
#       num_last_rsps        integral                           32    'd1  
# -------------------------------------------------------------------------
# 
# UVM_INFO verilog_src/questa_uvm_pkg-1.2/src/questa_uvm_pkg.sv(277) @ 0: reporter [Questa UVM] End Of Elaboration
# UVM_INFO ../10_tb/bridge_tb_top.sv(47) @ 95000: reporter [BRIDGE_TB_TOP] Power-on reset released
# UVM_INFO ../10_tb/seq/axi4_mst_seq/axi4_mst_incr_mapping_seq.sv(62) @ 95000: uvm_test_top.env.axi_agent.sqr@@axi_seq [axi4_mst_incr_mapping_seq] INCR mapping: 9 length entries, narrow=0
# UVM_INFO ../10_tb/seq/axi4_mst_seq/axi4_mst_incr_mapping_seq.sv(66) @ 95000: uvm_test_top.env.axi_agent.sqr@@axi_seq [axi4_mst_incr_mapping_seq] Narrow INCR mapping cases disabled by test configuration
# UVM_INFO ../10_tb/seq/axi4_mst_seq/axi4_mst_incr_mapping_seq.sv(141) @ 95000: uvm_test_top.env.axi_agent.sqr@@axi_seq [axi4_mst_incr_mapping_seq] [0] INCR_1beat_sz4B_WR addr=0x1000 beats=1 expected=AHB_BURST_SINGLE
# UVM_INFO ../10_tb/axi4_mst/axi4_mst_driver.sv(105) @ 95000: uvm_test_top.env.axi_agent.drv [axi4_mst_driver] [DRV][AXI][REQ] AXI4 AXI4_WRITE id=0x2 addr=0x1000 burst=AXI4_BURST_INCR beats=1 size=4B lock=0 | outstanding=1
# UVM_INFO ../10_tb/axi4_mst/axi4_mst_driver.sv(178) @ 135000: uvm_test_top.env.axi_agent.drv [axi4_mst_driver] [DRV][AXI][AW] id=0x2 addr=0x1000 burst=AXI4_BURST_INCR beats=1 size=4B
# UVM_INFO ../10_tb/axi4_mst/axi4_mst_driver.sv(198) @ 135000: uvm_test_top.env.axi_agent.drv [axi4_mst_driver] [DRV][AXI][W] id=0x2 beat=1/1 data=0xc3c2c1c0 strb=0xf last=1
# UVM_INFO ../10_tb/axi4_mst/axi4_mst_monitor.sv(151) @ 135000: uvm_test_top.env.axi_agent.mon [axi4_mst_monitor] [MON][AXI][REQ] AXI4 AXI4_WRITE id=0x2 addr=0x1000 burst=AXI4_BURST_INCR beats=1 size=4B lock=0
# UVM_INFO ../10_tb/env/predictor.sv(75) @ 135000: uvm_test_top.env.pred [predictor] [PRED][AXI][IN] AXI4 AXI4_WRITE id=0x2 addr=0x1000 burst=AXI4_BURST_INCR beats=1 size=4B lock=0 | queued=1
# UVM_INFO ../10_tb/env/predictor.sv(138) @ 135000: uvm_test_top.env.pred [predictor] [PRED][MAP] AXI4 AXI4_WRITE id=0x2 addr=0x1000 burst=AXI4_BURST_INCR beats=1 size=4B lock=0 -> AHB burst=AHB_BURST_SINGLE size=4B crosses_1kb=0
# UVM_INFO ../10_tb/env/predictor.sv(169) @ 135000: uvm_test_top.env.pred [predictor] [PRED][AHB] beat=1/1 | AHB AHB_WRITE addr=0x1000 trans=AHB_TRANS_NONSEQ burst=AHB_BURST_SINGLE size=4B mastlock=0 resp=AHB_RESP_OKAY waits=0 | wdata=0xc3c2c1c0
# UVM_INFO ../10_tb/ahb_slv/ahb_slv_driver.sv(87) @ 145000: uvm_test_top.env.ahb_agent.drv [ahb_slv_driver] [DRV][AHB][REQ] AHB_WRITE addr=0x1000 trans=AHB_TRANS_NONSEQ burst=AHB_BURST_SINGLE size=4B
# UVM_INFO ../10_tb/ahb_slv/ahb_slv_driver.sv(201) @ 155000: uvm_test_top.env.ahb_agent.drv [ahb_slv_driver] [DRV][AHB][RSP] AHB_WRITE addr=0x1000 data=0xc3c2c1c0 resp=AHB_RESP_OKAY ready_delay=0
# UVM_INFO ../10_tb/ahb_slv/ahb_slv_monitor.sv(119) @ 155000: uvm_test_top.env.ahb_agent.mon [ahb_slv_monitor] [MON][AHB][TR] AHB AHB_WRITE addr=0x1000 trans=AHB_TRANS_NONSEQ burst=AHB_BURST_SINGLE size=4B mastlock=0 resp=AHB_RESP_OKAY waits=0 | data=0xc3c2c1c0
# UVM_INFO ../10_tb/env/scoreboard.sv(359) @ 155000: uvm_test_top.env.scb [scoreboard] [SCB][AHB][PASS] AHB AHB_WRITE addr=0x1000 trans=AHB_TRANS_NONSEQ burst=AHB_BURST_SINGLE size=4B mastlock=0 resp=AHB_RESP_OKAY waits=0 | data=0xc3c2c1c0 | total=1
# UVM_INFO ../10_tb/axi4_mst/axi4_mst_driver.sv(250) @ 165000: uvm_test_top.env.axi_agent.drv [axi4_mst_driver] [DRV][AXI][B] id=0x2 resp=AXI4_RESP_OKAY
# UVM_INFO ../10_tb/axi4_mst/axi4_mst_monitor.sv(177) @ 165000: uvm_test_top.env.axi_agent.mon [axi4_mst_monitor] [MON][AXI][RSP] WRITE id=0x2 resp=AXI4_RESP_OKAY
# UVM_INFO ../10_tb/env/scoreboard.sv(499) @ 165000: uvm_test_top.env.scb [scoreboard] [SCB][AXI][PASS] AXI4 AXI4_WRITE id=0x2 addr=0x1000 burst=AXI4_BURST_INCR beats=1 size=4B lock=0 | bresp=AXI4_RESP_OKAY | total=1
# UVM_INFO ../10_tb/axi4_mst/axi4_mst_driver.sv(105) @ 165000: uvm_test_top.env.axi_agent.drv [axi4_mst_driver] [DRV][AXI][REQ] AXI4 AXI4_READ id=0xb addr=0x1000 burst=AXI4_BURST_INCR beats=1 size=4B lock=0 | outstanding=1
# UVM_INFO ../10_tb/axi4_mst/axi4_mst_driver.sv(225) @ 195000: uvm_test_top.env.axi_agent.drv [axi4_mst_driver] [DRV][AXI][AR] id=0xb addr=0x1000 burst=AXI4_BURST_INCR beats=1 size=4B
# UVM_INFO ../10_tb/axi4_mst/axi4_mst_monitor.sv(211) @ 195000: uvm_test_top.env.axi_agent.mon [axi4_mst_monitor] [MON][AXI][REQ] AXI4 AXI4_READ id=0xb addr=0x1000 burst=AXI4_BURST_INCR beats=1 size=4B lock=0
# UVM_INFO ../10_tb/env/predictor.sv(75) @ 195000: uvm_test_top.env.pred [predictor] [PRED][AXI][IN] AXI4 AXI4_READ id=0xb addr=0x1000 burst=AXI4_BURST_INCR beats=1 size=4B lock=0 | queued=1
# UVM_INFO ../10_tb/env/predictor.sv(138) @ 195000: uvm_test_top.env.pred [predictor] [PRED][MAP] AXI4 AXI4_READ id=0xb addr=0x1000 burst=AXI4_BURST_INCR beats=1 size=4B lock=0 -> AHB burst=AHB_BURST_SINGLE size=4B crosses_1kb=0
# UVM_INFO ../10_tb/env/predictor.sv(175) @ 195000: uvm_test_top.env.pred [predictor] [PRED][AHB] beat=1/1 | AHB AHB_READ addr=0x1000 trans=AHB_TRANS_NONSEQ burst=AHB_BURST_SINGLE size=4B mastlock=0 resp=AHB_RESP_OKAY waits=0
# UVM_INFO ../10_tb/ahb_slv/ahb_slv_driver.sv(87) @ 205000: uvm_test_top.env.ahb_agent.drv [ahb_slv_driver] [DRV][AHB][REQ] AHB_READ addr=0x1000 trans=AHB_TRANS_NONSEQ burst=AHB_BURST_SINGLE size=4B
# UVM_INFO ../10_tb/ahb_slv/ahb_slv_driver.sv(201) @ 215000: uvm_test_top.env.ahb_agent.drv [ahb_slv_driver] [DRV][AHB][RSP] AHB_READ addr=0x1000 data=0xc3c2c1c0 resp=AHB_RESP_OKAY ready_delay=0
# UVM_INFO ../10_tb/ahb_slv/ahb_slv_monitor.sv(119) @ 215000: uvm_test_top.env.ahb_agent.mon [ahb_slv_monitor] [MON][AHB][TR] AHB AHB_READ addr=0x1000 trans=AHB_TRANS_NONSEQ burst=AHB_BURST_SINGLE size=4B mastlock=0 resp=AHB_RESP_OKAY waits=0 | data=0xc3c2c1c0
# UVM_INFO ../10_tb/env/scoreboard.sv(359) @ 215000: uvm_test_top.env.scb [scoreboard] [SCB][AHB][PASS] AHB AHB_READ addr=0x1000 trans=AHB_TRANS_NONSEQ burst=AHB_BURST_SINGLE size=4B mastlock=0 resp=AHB_RESP_OKAY waits=0 | data=0xc3c2c1c0 | total=2
# UVM_INFO ../10_tb/axi4_mst/axi4_mst_driver.sv(290) @ 235000: uvm_test_top.env.axi_agent.drv [axi4_mst_driver] [DRV][AXI][R] id=0xb beat=1/1 data=0xc3c2c1c0 resp=AXI4_RESP_OKAY last=1
# UVM_INFO ../10_tb/axi4_mst/axi4_mst_monitor.sv(256) @ 235000: uvm_test_top.env.axi_agent.mon [axi4_mst_monitor] [MON][AXI][R] id=0xb beat=1/1 data=0xc3c2c1c0 resp=AXI4_RESP_OKAY last=1
# UVM_INFO ../10_tb/axi4_mst/axi4_mst_monitor.sv(262) @ 235000: uvm_test_top.env.axi_agent.mon [axi4_mst_monitor] [MON][AXI][RSP] READ id=0xb beats=1
# UVM_INFO ../10_tb/env/scoreboard.sv(506) @ 235000: uvm_test_top.env.scb [scoreboard] [SCB][AXI][PASS] AXI4 AXI4_READ id=0xb addr=0x1000 burst=AXI4_BURST_INCR beats=1 size=4B lock=0 | read beats=1 | total=2
# UVM_INFO ../10_tb/seq/axi4_mst_seq/axi4_mst_incr_mapping_seq.sv(141) @ 235000: uvm_test_top.env.axi_agent.sqr@@axi_seq [axi4_mst_incr_mapping_seq] [2] INCR_1beat_sz4B_RD addr=0x1800 beats=1 expected=AHB_BURST_SINGLE
# UVM_INFO ../10_tb/axi4_mst/axi4_mst_driver.sv(105) @ 235000: uvm_test_top.env.axi_agent.drv [axi4_mst_driver] [DRV][AXI][REQ] AXI4 AXI4_READ id=0x4 addr=0x1800 burst=AXI4_BURST_INCR beats=1 size=4B lock=0 | outstanding=1
# UVM_INFO ../10_tb/axi4_mst/axi4_mst_driver.sv(225) @ 265000: uvm_test_top.env.axi_agent.drv [axi4_mst_driver] [DRV][AXI][AR] id=0x4 addr=0x1800 burst=AXI4_BURST_INCR beats=1 size=4B
# UVM_INFO ../10_tb/axi4_mst/axi4_mst_monitor.sv(211) @ 265000: uvm_test_top.env.axi_agent.mon [axi4_mst_monitor] [MON][AXI][REQ] AXI4 AXI4_READ id=0x4 addr=0x1800 burst=AXI4_BURST_INCR beats=1 size=4B lock=0
# UVM_INFO ../10_tb/env/predictor.sv(75) @ 265000: uvm_test_top.env.pred [predictor] [PRED][AXI][IN] AXI4 AXI4_READ id=0x4 addr=0x1800 burst=AXI4_BURST_INCR beats=1 size=4B lock=0 | queued=1
# UVM_INFO ../10_tb/env/predictor.sv(138) @ 265000: uvm_test_top.env.pred [predictor] [PRED][MAP] AXI4 AXI4_READ id=0x4 addr=0x1800 burst=AXI4_BURST_INCR beats=1 size=4B lock=0 -> AHB burst=AHB_BURST_SINGLE size=4B crosses_1kb=0
# UVM_INFO ../10_tb/env/predictor.sv(175) @ 265000: uvm_test_top.env.pred [predictor] [PRED][AHB] beat=1/1 | AHB AHB_READ addr=0x1800 trans=AHB_TRANS_NONSEQ burst=AHB_BURST_SINGLE size=4B mastlock=0 resp=AHB_RESP_OKAY waits=0
# UVM_INFO ../10_tb/ahb_slv/ahb_slv_driver.sv(87) @ 275000: uvm_test_top.env.ahb_agent.drv [ahb_slv_driver] [DRV][AHB][REQ] AHB_READ addr=0x1800 trans=AHB_TRANS_NONSEQ burst=AHB_BURST_SINGLE size=4B
# UVM_INFO ../10_tb/ahb_slv/ahb_slv_driver.sv(201) @ 285000: uvm_test_top.env.ahb_agent.drv [ahb_slv_driver] [DRV][AHB][RSP] AHB_READ addr=0x1800 data=0xffffe7ff resp=AHB_RESP_OKAY ready_delay=0
# UVM_INFO ../10_tb/ahb_slv/ahb_slv_monitor.sv(119) @ 285000: uvm_test_top.env.ahb_agent.mon [ahb_slv_monitor] [MON][AHB][TR] AHB AHB_READ addr=0x1800 trans=AHB_TRANS_NONSEQ burst=AHB_BURST_SINGLE size=4B mastlock=0 resp=AHB_RESP_OKAY waits=0 | data=0xffffe7ff
# UVM_INFO ../10_tb/env/scoreboard.sv(359) @ 285000: uvm_test_top.env.scb [scoreboard] [SCB][AHB][PASS] AHB AHB_READ addr=0x1800 trans=AHB_TRANS_NONSEQ burst=AHB_BURST_SINGLE size=4B mastlock=0 resp=AHB_RESP_OKAY waits=0 | data=0xffffe7ff | total=3
# UVM_INFO ../10_tb/axi4_mst/axi4_mst_driver.sv(290) @ 305000: uvm_test_top.env.axi_agent.drv [axi4_mst_driver] [DRV][AXI][R] id=0x4 beat=1/1 data=0xffffe7ff resp=AXI4_RESP_OKAY last=1
# UVM_INFO ../10_tb/axi4_mst/axi4_mst_monitor.sv(256) @ 305000: uvm_test_top.env.axi_agent.mon [axi4_mst_monitor] [MON][AXI][R] id=0x4 beat=1/1 data=0xffffe7ff resp=AXI4_RESP_OKAY last=1
# UVM_INFO ../10_tb/axi4_mst/axi4_mst_monitor.sv(262) @ 305000: uvm_test_top.env.axi_agent.mon [axi4_mst_monitor] [MON][AXI][RSP] READ id=0x4 beats=1
# UVM_INFO ../10_tb/env/scoreboard.sv(506) @ 305000: uvm_test_top.env.scb [scoreboard] [SCB][AXI][PASS] AXI4 AXI4_READ id=0x4 addr=0x1800 burst=AXI4_BURST_INCR beats=1 size=4B lock=0 | read beats=1 | total=3
# UVM_INFO ../10_tb/seq/axi4_mst_seq/axi4_mst_incr_mapping_seq.sv(141) @ 305000: uvm_test_top.env.axi_agent.sqr@@axi_seq [axi4_mst_incr_mapping_seq] [3] INCR_2beat_sz4B_WR addr=0x1c00 beats=2 expected=AHB_BURST_INCR
# UVM_INFO ../10_tb/axi4_mst/axi4_mst_driver.sv(105) @ 305000: uvm_test_top.env.axi_agent.drv [axi4_mst_driver] [DRV][AXI][REQ] AXI4 AXI4_WRITE id=0x9 addr=0x1c00 burst=AXI4_BURST_INCR beats=2 size=4B lock=0 | outstanding=1
# UVM_INFO ../10_tb/axi4_mst/axi4_mst_driver.sv(178) @ 345000: uvm_test_top.env.axi_agent.drv [axi4_mst_driver] [DRV][AXI][AW] id=0x9 addr=0x1c00 burst=AXI4_BURST_INCR beats=2 size=4B
# UVM_INFO ../10_tb/axi4_mst/axi4_mst_driver.sv(198) @ 345000: uvm_test_top.env.axi_agent.drv [axi4_mst_driver] [DRV][AXI][W] id=0x9 beat=1/2 data=0xc9c8c7c6 strb=0xf last=0
# UVM_INFO ../10_tb/ahb_slv/ahb_slv_driver.sv(87) @ 355000: uvm_test_top.env.ahb_agent.drv [ahb_slv_driver] [DRV][AHB][REQ] AHB_WRITE addr=0x1c00 trans=AHB_TRANS_NONSEQ burst=AHB_BURST_INCR size=4B
# UVM_INFO ../10_tb/ahb_slv/ahb_slv_driver.sv(201) @ 365000: uvm_test_top.env.ahb_agent.drv [ahb_slv_driver] [DRV][AHB][RSP] AHB_WRITE addr=0x1c00 data=0xc9c8c7c6 resp=AHB_RESP_OKAY ready_delay=0
# UVM_INFO ../10_tb/ahb_slv/ahb_slv_monitor.sv(119) @ 365000: uvm_test_top.env.ahb_agent.mon [ahb_slv_monitor] [MON][AHB][TR] AHB AHB_WRITE addr=0x1c00 trans=AHB_TRANS_NONSEQ burst=AHB_BURST_INCR size=4B mastlock=0 resp=AHB_RESP_OKAY waits=0 | data=0xc9c8c7c6
# UVM_INFO ../10_tb/ahb_slv/ahb_slv_driver.sv(87) @ 375000: uvm_test_top.env.ahb_agent.drv [ahb_slv_driver] [DRV][AHB][REQ] AHB_WRITE addr=0x1c04 trans=AHB_TRANS_SEQ burst=AHB_BURST_INCR size=4B
# UVM_INFO ../10_tb/axi4_mst/axi4_mst_driver.sv(198) @ 375000: uvm_test_top.env.axi_agent.drv [axi4_mst_driver] [DRV][AXI][W] id=0x9 beat=2/2 data=0xcbcac9c8 strb=0xf last=1
# UVM_INFO ../10_tb/axi4_mst/axi4_mst_monitor.sv(151) @ 375000: uvm_test_top.env.axi_agent.mon [axi4_mst_monitor] [MON][AXI][REQ] AXI4 AXI4_WRITE id=0x9 addr=0x1c00 burst=AXI4_BURST_INCR beats=2 size=4B lock=0
# UVM_INFO ../10_tb/env/predictor.sv(75) @ 375000: uvm_test_top.env.pred [predictor] [PRED][AXI][IN] AXI4 AXI4_WRITE id=0x9 addr=0x1c00 burst=AXI4_BURST_INCR beats=2 size=4B lock=0 | queued=1
# UVM_INFO ../10_tb/env/predictor.sv(138) @ 375000: uvm_test_top.env.pred [predictor] [PRED][MAP] AXI4 AXI4_WRITE id=0x9 addr=0x1c00 burst=AXI4_BURST_INCR beats=2 size=4B lock=0 -> AHB burst=AHB_BURST_INCR size=4B crosses_1kb=0
# UVM_INFO ../10_tb/env/predictor.sv(169) @ 375000: uvm_test_top.env.pred [predictor] [PRED][AHB] beat=1/2 | AHB AHB_WRITE addr=0x1c00 trans=AHB_TRANS_NONSEQ burst=AHB_BURST_INCR size=4B mastlock=0 resp=AHB_RESP_OKAY waits=0 | wdata=0xc9c8c7c6
# UVM_INFO ../10_tb/env/scoreboard.sv(359) @ 375000: uvm_test_top.env.scb [scoreboard] [SCB][AHB][PASS] AHB AHB_WRITE addr=0x1c00 trans=AHB_TRANS_NONSEQ burst=AHB_BURST_INCR size=4B mastlock=0 resp=AHB_RESP_OKAY waits=0 | data=0xc9c8c7c6 | total=4
# UVM_INFO ../10_tb/env/predictor.sv(169) @ 375000: uvm_test_top.env.pred [predictor] [PRED][AHB] beat=2/2 | AHB AHB_WRITE addr=0x1c04 trans=AHB_TRANS_SEQ burst=AHB_BURST_INCR size=4B mastlock=0 resp=AHB_RESP_OKAY waits=0 | wdata=0xcbcac9c8
# UVM_INFO ../10_tb/ahb_slv/ahb_slv_driver.sv(201) @ 385000: uvm_test_top.env.ahb_agent.drv [ahb_slv_driver] [DRV][AHB][RSP] AHB_WRITE addr=0x1c04 data=0xcbcac9c8 resp=AHB_RESP_OKAY ready_delay=0
# UVM_INFO ../10_tb/ahb_slv/ahb_slv_monitor.sv(119) @ 385000: uvm_test_top.env.ahb_agent.mon [ahb_slv_monitor] [MON][AHB][TR] AHB AHB_WRITE addr=0x1c04 trans=AHB_TRANS_SEQ burst=AHB_BURST_INCR size=4B mastlock=0 resp=AHB_RESP_OKAY waits=0 | data=0xcbcac9c8
# UVM_INFO ../10_tb/env/scoreboard.sv(359) @ 385000: uvm_test_top.env.scb [scoreboard] [SCB][AHB][PASS] AHB AHB_WRITE addr=0x1c04 trans=AHB_TRANS_SEQ burst=AHB_BURST_INCR size=4B mastlock=0 resp=AHB_RESP_OKAY waits=0 | data=0xcbcac9c8 | total=5
# UVM_INFO ../10_tb/axi4_mst/axi4_mst_driver.sv(250) @ 395000: uvm_test_top.env.axi_agent.drv [axi4_mst_driver] [DRV][AXI][B] id=0x9 resp=AXI4_RESP_OKAY
# UVM_INFO ../10_tb/axi4_mst/axi4_mst_monitor.sv(177) @ 395000: uvm_test_top.env.axi_agent.mon [axi4_mst_monitor] [MON][AXI][RSP] WRITE id=0x9 resp=AXI4_RESP_OKAY
# UVM_INFO ../10_tb/env/scoreboard.sv(499) @ 395000: uvm_test_top.env.scb [scoreboard] [SCB][AXI][PASS] AXI4 AXI4_WRITE id=0x9 addr=0x1c00 burst=AXI4_BURST_INCR beats=2 size=4B lock=0 | bresp=AXI4_RESP_OKAY | total=4
# UVM_INFO ../10_tb/axi4_mst/axi4_mst_driver.sv(105) @ 395000: uvm_test_top.env.axi_agent.drv [axi4_mst_driver] [DRV][AXI][REQ] AXI4 AXI4_READ id=0xe addr=0x1c00 burst=AXI4_BURST_INCR beats=2 size=4B lock=0 | outstanding=1
# UVM_INFO ../10_tb/axi4_mst/axi4_mst_driver.sv(225) @ 425000: uvm_test_top.env.axi_agent.drv [axi4_mst_driver] [DRV][AXI][AR] id=0xe addr=0x1c00 burst=AXI4_BURST_INCR beats=2 size=4B
# UVM_INFO ../10_tb/axi4_mst/axi4_mst_monitor.sv(211) @ 425000: uvm_test_top.env.axi_agent.mon [axi4_mst_monitor] [MON][AXI][REQ] AXI4 AXI4_READ id=0xe addr=0x1c00 burst=AXI4_BURST_INCR beats=2 size=4B lock=0
# UVM_INFO ../10_tb/env/predictor.sv(75) @ 425000: uvm_test_top.env.pred [predictor] [PRED][AXI][IN] AXI4 AXI4_READ id=0xe addr=0x1c00 burst=AXI4_BURST_INCR beats=2 size=4B lock=0 | queued=1
# UVM_INFO ../10_tb/env/predictor.sv(138) @ 425000: uvm_test_top.env.pred [predictor] [PRED][MAP] AXI4 AXI4_READ id=0xe addr=0x1c00 burst=AXI4_BURST_INCR beats=2 size=4B lock=0 -> AHB burst=AHB_BURST_INCR size=4B crosses_1kb=0
# UVM_INFO ../10_tb/env/predictor.sv(175) @ 425000: uvm_test_top.env.pred [predictor] [PRED][AHB] beat=1/2 | AHB AHB_READ addr=0x1c00 trans=AHB_TRANS_NONSEQ burst=AHB_BURST_INCR size=4B mastlock=0 resp=AHB_RESP_OKAY waits=0
# UVM_INFO ../10_tb/env/predictor.sv(175) @ 425000: uvm_test_top.env.pred [predictor] [PRED][AHB] beat=2/2 | AHB AHB_READ addr=0x1c04 trans=AHB_TRANS_SEQ burst=AHB_BURST_INCR size=4B mastlock=0 resp=AHB_RESP_OKAY waits=0
# UVM_INFO ../10_tb/ahb_slv/ahb_slv_driver.sv(87) @ 435000: uvm_test_top.env.ahb_agent.drv [ahb_slv_driver] [DRV][AHB][REQ] AHB_READ addr=0x1c00 trans=AHB_TRANS_NONSEQ burst=AHB_BURST_INCR size=4B
# UVM_INFO ../10_tb/ahb_slv/ahb_slv_driver.sv(201) @ 445000: uvm_test_top.env.ahb_agent.drv [ahb_slv_driver] [DRV][AHB][RSP] AHB_READ addr=0x1c00 data=0xc9c8c7c6 resp=AHB_RESP_OKAY ready_delay=0
# UVM_INFO ../10_tb/ahb_slv/ahb_slv_monitor.sv(119) @ 445000: uvm_test_top.env.ahb_agent.mon [ahb_slv_monitor] [MON][AHB][TR] AHB AHB_READ addr=0x1c00 trans=AHB_TRANS_NONSEQ burst=AHB_BURST_INCR size=4B mastlock=0 resp=AHB_RESP_OKAY waits=0 | data=0xc9c8c7c6
# UVM_INFO ../10_tb/env/scoreboard.sv(359) @ 445000: uvm_test_top.env.scb [scoreboard] [SCB][AHB][PASS] AHB AHB_READ addr=0x1c00 trans=AHB_TRANS_NONSEQ burst=AHB_BURST_INCR size=4B mastlock=0 resp=AHB_RESP_OKAY waits=0 | data=0xc9c8c7c6 | total=6
# UVM_INFO ../10_tb/ahb_slv/ahb_slv_driver.sv(87) @ 455000: uvm_test_top.env.ahb_agent.drv [ahb_slv_driver] [DRV][AHB][REQ] AHB_READ addr=0x1c04 trans=AHB_TRANS_SEQ burst=AHB_BURST_INCR size=4B
# UVM_INFO ../10_tb/ahb_slv/ahb_slv_driver.sv(201) @ 465000: uvm_test_top.env.ahb_agent.drv [ahb_slv_driver] [DRV][AHB][RSP] AHB_READ addr=0x1c04 data=0xcbcac9c8 resp=AHB_RESP_OKAY ready_delay=0
# UVM_INFO ../10_tb/ahb_slv/ahb_slv_monitor.sv(119) @ 465000: uvm_test_top.env.ahb_agent.mon [ahb_slv_monitor] [MON][AHB][TR] AHB AHB_READ addr=0x1c04 trans=AHB_TRANS_SEQ burst=AHB_BURST_INCR size=4B mastlock=0 resp=AHB_RESP_OKAY waits=0 | data=0xcbcac9c8
# UVM_INFO ../10_tb/env/scoreboard.sv(359) @ 465000: uvm_test_top.env.scb [scoreboard] [SCB][AHB][PASS] AHB AHB_READ addr=0x1c04 trans=AHB_TRANS_SEQ burst=AHB_BURST_INCR size=4B mastlock=0 resp=AHB_RESP_OKAY waits=0 | data=0xcbcac9c8 | total=7
# UVM_INFO ../10_tb/axi4_mst/axi4_mst_driver.sv(290) @ 465000: uvm_test_top.env.axi_agent.drv [axi4_mst_driver] [DRV][AXI][R] id=0xe beat=1/2 data=0xc9c8c7c6 resp=AXI4_RESP_OKAY last=0
# UVM_INFO ../10_tb/axi4_mst/axi4_mst_monitor.sv(256) @ 465000: uvm_test_top.env.axi_agent.mon [axi4_mst_monitor] [MON][AXI][R] id=0xe beat=1/2 data=0xc9c8c7c6 resp=AXI4_RESP_OKAY last=0
# UVM_INFO ../10_tb/axi4_mst/axi4_mst_driver.sv(290) @ 485000: uvm_test_top.env.axi_agent.drv [axi4_mst_driver] [DRV][AXI][R] id=0xe beat=2/2 data=0xcbcac9c8 resp=AXI4_RESP_OKAY last=1
# UVM_INFO ../10_tb/axi4_mst/axi4_mst_monitor.sv(256) @ 485000: uvm_test_top.env.axi_agent.mon [axi4_mst_monitor] [MON][AXI][R] id=0xe beat=2/2 data=0xcbcac9c8 resp=AXI4_RESP_OKAY last=1
# UVM_INFO ../10_tb/axi4_mst/axi4_mst_monitor.sv(262) @ 485000: uvm_test_top.env.axi_agent.mon [axi4_mst_monitor] [MON][AXI][RSP] READ id=0xe beats=2
# UVM_INFO ../10_tb/env/scoreboard.sv(506) @ 485000: uvm_test_top.env.scb [scoreboard] [SCB][AXI][PASS] AXI4 AXI4_READ id=0xe addr=0x1c00 burst=AXI4_BURST_INCR beats=2 size=4B lock=0 | read beats=2 | total=5
# UVM_INFO ../10_tb/seq/axi4_mst_seq/axi4_mst_incr_mapping_seq.sv(141) @ 485000: uvm_test_top.env.axi_agent.sqr@@axi_seq [axi4_mst_incr_mapping_seq] [5] INCR_2beat_sz4B_RD addr=0x2400 beats=2 expected=AHB_BURST_INCR
# UVM_INFO ../10_tb/axi4_mst/axi4_mst_driver.sv(105) @ 485000: uvm_test_top.env.axi_agent.drv [axi4_mst_driver] [DRV][AXI][REQ] AXI4 AXI4_READ id=0xa addr=0x2400 burst=AXI4_BURST_INCR beats=2 size=4B lock=0 | outstanding=1
# UVM_INFO ../10_tb/axi4_mst/axi4_mst_driver.sv(225) @ 515000: uvm_test_top.env.axi_agent.drv [axi4_mst_driver] [DRV][AXI][AR] id=0xa addr=0x2400 burst=AXI4_BURST_INCR beats=2 size=4B
# UVM_INFO ../10_tb/axi4_mst/axi4_mst_monitor.sv(211) @ 515000: uvm_test_top.env.axi_agent.mon [axi4_mst_monitor] [MON][AXI][REQ] AXI4 AXI4_READ id=0xa addr=0x2400 burst=AXI4_BURST_INCR beats=2 size=4B lock=0
# UVM_INFO ../10_tb/env/predictor.sv(75) @ 515000: uvm_test_top.env.pred [predictor] [PRED][AXI][IN] AXI4 AXI4_READ id=0xa addr=0x2400 burst=AXI4_BURST_INCR beats=2 size=4B lock=0 | queued=1
# UVM_INFO ../10_tb/env/predictor.sv(138) @ 515000: uvm_test_top.env.pred [predictor] [PRED][MAP] AXI4 AXI4_READ id=0xa addr=0x2400 burst=AXI4_BURST_INCR beats=2 size=4B lock=0 -> AHB burst=AHB_BURST_INCR size=4B crosses_1kb=0
# UVM_INFO ../10_tb/env/predictor.sv(175) @ 515000: uvm_test_top.env.pred [predictor] [PRED][AHB] beat=1/2 | AHB AHB_READ addr=0x2400 trans=AHB_TRANS_NONSEQ burst=AHB_BURST_INCR size=4B mastlock=0 resp=AHB_RESP_OKAY waits=0
# UVM_INFO ../10_tb/env/predictor.sv(175) @ 515000: uvm_test_top.env.pred [predictor] [PRED][AHB] beat=2/2 | AHB AHB_READ addr=0x2404 trans=AHB_TRANS_SEQ burst=AHB_BURST_INCR size=4B mastlock=0 resp=AHB_RESP_OKAY waits=0
# UVM_INFO ../10_tb/ahb_slv/ahb_slv_driver.sv(87) @ 525000: uvm_test_top.env.ahb_agent.drv [ahb_slv_driver] [DRV][AHB][REQ] AHB_READ addr=0x2400 trans=AHB_TRANS_NONSEQ burst=AHB_BURST_INCR size=4B
# UVM_INFO ../10_tb/ahb_slv/ahb_slv_driver.sv(201) @ 535000: uvm_test_top.env.ahb_agent.drv [ahb_slv_driver] [DRV][AHB][RSP] AHB_READ addr=0x2400 data=0xffffdbff resp=AHB_RESP_OKAY ready_delay=0
# UVM_INFO ../10_tb/ahb_slv/ahb_slv_monitor.sv(119) @ 535000: uvm_test_top.env.ahb_agent.mon [ahb_slv_monitor] [MON][AHB][TR] AHB AHB_READ addr=0x2400 trans=AHB_TRANS_NONSEQ burst=AHB_BURST_INCR size=4B mastlock=0 resp=AHB_RESP_OKAY waits=0 | data=0xffffdbff
# UVM_INFO ../10_tb/env/scoreboard.sv(359) @ 535000: uvm_test_top.env.scb [scoreboard] [SCB][AHB][PASS] AHB AHB_READ addr=0x2400 trans=AHB_TRANS_NONSEQ burst=AHB_BURST_INCR size=4B mastlock=0 resp=AHB_RESP_OKAY waits=0 | data=0xffffdbff | total=8
# UVM_INFO ../10_tb/ahb_slv/ahb_slv_driver.sv(87) @ 545000: uvm_test_top.env.ahb_agent.drv [ahb_slv_driver] [DRV][AHB][REQ] AHB_READ addr=0x2404 trans=AHB_TRANS_SEQ burst=AHB_BURST_INCR size=4B
# UVM_INFO ../10_tb/ahb_slv/ahb_slv_driver.sv(201) @ 555000: uvm_test_top.env.ahb_agent.drv [ahb_slv_driver] [DRV][AHB][RSP] AHB_READ addr=0x2404 data=0xffffdbfb resp=AHB_RESP_OKAY ready_delay=0
# UVM_INFO ../10_tb/ahb_slv/ahb_slv_monitor.sv(119) @ 555000: uvm_test_top.env.ahb_agent.mon [ahb_slv_monitor] [MON][AHB][TR] AHB AHB_READ addr=0x2404 trans=AHB_TRANS_SEQ burst=AHB_BURST_INCR size=4B mastlock=0 resp=AHB_RESP_OKAY waits=0 | data=0xffffdbfb
# UVM_INFO ../10_tb/env/scoreboard.sv(359) @ 555000: uvm_test_top.env.scb [scoreboard] [SCB][AHB][PASS] AHB AHB_READ addr=0x2404 trans=AHB_TRANS_SEQ burst=AHB_BURST_INCR size=4B mastlock=0 resp=AHB_RESP_OKAY waits=0 | data=0xffffdbfb | total=9
# UVM_INFO ../10_tb/axi4_mst/axi4_mst_driver.sv(290) @ 555000: uvm_test_top.env.axi_agent.drv [axi4_mst_driver] [DRV][AXI][R] id=0xa beat=1/2 data=0xffffdbff resp=AXI4_RESP_OKAY last=0
# UVM_INFO ../10_tb/axi4_mst/axi4_mst_monitor.sv(256) @ 555000: uvm_test_top.env.axi_agent.mon [axi4_mst_monitor] [MON][AXI][R] id=0xa beat=1/2 data=0xffffdbff resp=AXI4_RESP_OKAY last=0
# UVM_INFO ../10_tb/axi4_mst/axi4_mst_driver.sv(290) @ 575000: uvm_test_top.env.axi_agent.drv [axi4_mst_driver] [DRV][AXI][R] id=0xa beat=2/2 data=0xffffdbfb resp=AXI4_RESP_OKAY last=1
# UVM_INFO ../10_tb/axi4_mst/axi4_mst_monitor.sv(256) @ 575000: uvm_test_top.env.axi_agent.mon [axi4_mst_monitor] [MON][AXI][R] id=0xa beat=2/2 data=0xffffdbfb resp=AXI4_RESP_OKAY last=1
# UVM_INFO ../10_tb/axi4_mst/axi4_mst_monitor.sv(262) @ 575000: uvm_test_top.env.axi_agent.mon [axi4_mst_monitor] [MON][AXI][RSP] READ id=0xa beats=2
# UVM_INFO ../10_tb/env/scoreboard.sv(506) @ 575000: uvm_test_top.env.scb [scoreboard] [SCB][AXI][PASS] AXI4 AXI4_READ id=0xa addr=0x2400 burst=AXI4_BURST_INCR beats=2 size=4B lock=0 | read beats=2 | total=6
# UVM_INFO ../10_tb/seq/axi4_mst_seq/axi4_mst_incr_mapping_seq.sv(141) @ 575000: uvm_test_top.env.axi_agent.sqr@@axi_seq [axi4_mst_incr_mapping_seq] [6] INCR_3beat_sz4B_WR addr=0x2800 beats=3 expected=AHB_BURST_INCR
# UVM_INFO ../10_tb/axi4_mst/axi4_mst_driver.sv(105) @ 575000: uvm_test_top.env.axi_agent.drv [axi4_mst_driver] [DRV][AXI][REQ] AXI4 AXI4_WRITE id=0xa addr=0x2800 burst=AXI4_BURST_INCR beats=3 size=4B lock=0 | outstanding=1
# UVM_INFO ../10_tb/axi4_mst/axi4_mst_driver.sv(178) @ 615000: uvm_test_top.env.axi_agent.drv [axi4_mst_driver] [DRV][AXI][AW] id=0xa addr=0x2800 burst=AXI4_BURST_INCR beats=3 size=4B
# UVM_INFO ../10_tb/axi4_mst/axi4_mst_driver.sv(198) @ 615000: uvm_test_top.env.axi_agent.drv [axi4_mst_driver] [DRV][AXI][W] id=0xa beat=1/3 data=0xcfcecdcc strb=0xf last=0
# UVM_INFO ../10_tb/ahb_slv/ahb_slv_driver.sv(87) @ 625000: uvm_test_top.env.ahb_agent.drv [ahb_slv_driver] [DRV][AHB][REQ] AHB_WRITE addr=0x2800 trans=AHB_TRANS_NONSEQ burst=AHB_BURST_INCR size=4B
# UVM_INFO ../10_tb/ahb_slv/ahb_slv_driver.sv(201) @ 635000: uvm_test_top.env.ahb_agent.drv [ahb_slv_driver] [DRV][AHB][RSP] AHB_WRITE addr=0x2800 data=0xcfcecdcc resp=AHB_RESP_OKAY ready_delay=0
# UVM_INFO ../10_tb/ahb_slv/ahb_slv_monitor.sv(119) @ 635000: uvm_test_top.env.ahb_agent.mon [ahb_slv_monitor] [MON][AHB][TR] AHB AHB_WRITE addr=0x2800 trans=AHB_TRANS_NONSEQ burst=AHB_BURST_INCR size=4B mastlock=0 resp=AHB_RESP_OKAY waits=0 | data=0xcfcecdcc
# UVM_INFO ../10_tb/ahb_slv/ahb_slv_driver.sv(87) @ 645000: uvm_test_top.env.ahb_agent.drv [ahb_slv_driver] [DRV][AHB][REQ] AHB_WRITE addr=0x2804 trans=AHB_TRANS_SEQ burst=AHB_BURST_INCR size=4B
# UVM_INFO ../10_tb/axi4_mst/axi4_mst_driver.sv(198) @ 645000: uvm_test_top.env.axi_agent.drv [axi4_mst_driver] [DRV][AXI][W] id=0xa beat=2/3 data=0xd1d0cfce strb=0xf last=0
# UVM_INFO ../10_tb/ahb_slv/ahb_slv_driver.sv(201) @ 655000: uvm_test_top.env.ahb_agent.drv [ahb_slv_driver] [DRV][AHB][RSP] AHB_WRITE addr=0x2804 data=0xd1d0cfce resp=AHB_RESP_OKAY ready_delay=0
# UVM_INFO ../10_tb/ahb_slv/ahb_slv_monitor.sv(119) @ 655000: uvm_test_top.env.ahb_agent.mon [ahb_slv_monitor] [MON][AHB][TR] AHB AHB_WRITE addr=0x2804 trans=AHB_TRANS_SEQ burst=AHB_BURST_INCR size=4B mastlock=0 resp=AHB_RESP_OKAY waits=0 | data=0xd1d0cfce
# UVM_INFO ../10_tb/ahb_slv/ahb_slv_driver.sv(87) @ 665000: uvm_test_top.env.ahb_agent.drv [ahb_slv_driver] [DRV][AHB][REQ] AHB_WRITE addr=0x2808 trans=AHB_TRANS_SEQ burst=AHB_BURST_INCR size=4B
# UVM_INFO ../10_tb/axi4_mst/axi4_mst_driver.sv(198) @ 665000: uvm_test_top.env.axi_agent.drv [axi4_mst_driver] [DRV][AXI][W] id=0xa beat=3/3 data=0xd3d2d1d0 strb=0xf last=1
# UVM_INFO ../10_tb/axi4_mst/axi4_mst_monitor.sv(151) @ 665000: uvm_test_top.env.axi_agent.mon [axi4_mst_monitor] [MON][AXI][REQ] AXI4 AXI4_WRITE id=0xa addr=0x2800 burst=AXI4_BURST_INCR beats=3 size=4B lock=0
# UVM_INFO ../10_tb/env/predictor.sv(75) @ 665000: uvm_test_top.env.pred [predictor] [PRED][AXI][IN] AXI4 AXI4_WRITE id=0xa addr=0x2800 burst=AXI4_BURST_INCR beats=3 size=4B lock=0 | queued=1
# UVM_INFO ../10_tb/env/predictor.sv(138) @ 665000: uvm_test_top.env.pred [predictor] [PRED][MAP] AXI4 AXI4_WRITE id=0xa addr=0x2800 burst=AXI4_BURST_INCR beats=3 size=4B lock=0 -> AHB burst=AHB_BURST_INCR size=4B crosses_1kb=0
# UVM_INFO ../10_tb/env/predictor.sv(169) @ 665000: uvm_test_top.env.pred [predictor] [PRED][AHB] beat=1/3 | AHB AHB_WRITE addr=0x2800 trans=AHB_TRANS_NONSEQ burst=AHB_BURST_INCR size=4B mastlock=0 resp=AHB_RESP_OKAY waits=0 | wdata=0xcfcecdcc
# UVM_INFO ../10_tb/env/scoreboard.sv(359) @ 665000: uvm_test_top.env.scb [scoreboard] [SCB][AHB][PASS] AHB AHB_WRITE addr=0x2800 trans=AHB_TRANS_NONSEQ burst=AHB_BURST_INCR size=4B mastlock=0 resp=AHB_RESP_OKAY waits=0 | data=0xcfcecdcc | total=10
# UVM_INFO ../10_tb/env/predictor.sv(169) @ 665000: uvm_test_top.env.pred [predictor] [PRED][AHB] beat=2/3 | AHB AHB_WRITE addr=0x2804 trans=AHB_TRANS_SEQ burst=AHB_BURST_INCR size=4B mastlock=0 resp=AHB_RESP_OKAY waits=0 | wdata=0xd1d0cfce
# UVM_INFO ../10_tb/env/scoreboard.sv(359) @ 665000: uvm_test_top.env.scb [scoreboard] [SCB][AHB][PASS] AHB AHB_WRITE addr=0x2804 trans=AHB_TRANS_SEQ burst=AHB_BURST_INCR size=4B mastlock=0 resp=AHB_RESP_OKAY waits=0 | data=0xd1d0cfce | total=11
# UVM_INFO ../10_tb/env/predictor.sv(169) @ 665000: uvm_test_top.env.pred [predictor] [PRED][AHB] beat=3/3 | AHB AHB_WRITE addr=0x2808 trans=AHB_TRANS_SEQ burst=AHB_BURST_INCR size=4B mastlock=0 resp=AHB_RESP_OKAY waits=0 | wdata=0xd3d2d1d0
# UVM_INFO ../10_tb/ahb_slv/ahb_slv_driver.sv(201) @ 675000: uvm_test_top.env.ahb_agent.drv [ahb_slv_driver] [DRV][AHB][RSP] AHB_WRITE addr=0x2808 data=0xd3d2d1d0 resp=AHB_RESP_OKAY ready_delay=0
# UVM_INFO ../10_tb/ahb_slv/ahb_slv_monitor.sv(119) @ 675000: uvm_test_top.env.ahb_agent.mon [ahb_slv_monitor] [MON][AHB][TR] AHB AHB_WRITE addr=0x2808 trans=AHB_TRANS_SEQ burst=AHB_BURST_INCR size=4B mastlock=0 resp=AHB_RESP_OKAY waits=0 | data=0xd3d2d1d0
# UVM_INFO ../10_tb/env/scoreboard.sv(359) @ 675000: uvm_test_top.env.scb [scoreboard] [SCB][AHB][PASS] AHB AHB_WRITE addr=0x2808 trans=AHB_TRANS_SEQ burst=AHB_BURST_INCR size=4B mastlock=0 resp=AHB_RESP_OKAY waits=0 | data=0xd3d2d1d0 | total=12
# UVM_INFO ../10_tb/axi4_mst/axi4_mst_driver.sv(250) @ 685000: uvm_test_top.env.axi_agent.drv [axi4_mst_driver] [DRV][AXI][B] id=0xa resp=AXI4_RESP_OKAY
# UVM_INFO ../10_tb/axi4_mst/axi4_mst_monitor.sv(177) @ 685000: uvm_test_top.env.axi_agent.mon [axi4_mst_monitor] [MON][AXI][RSP] WRITE id=0xa resp=AXI4_RESP_OKAY
# UVM_INFO ../10_tb/env/scoreboard.sv(499) @ 685000: uvm_test_top.env.scb [scoreboard] [SCB][AXI][PASS] AXI4 AXI4_WRITE id=0xa addr=0x2800 burst=AXI4_BURST_INCR beats=3 size=4B lock=0 | bresp=AXI4_RESP_OKAY | total=7
# UVM_INFO ../10_tb/axi4_mst/axi4_mst_driver.sv(105) @ 685000: uvm_test_top.env.axi_agent.drv [axi4_mst_driver] [DRV][AXI][REQ] AXI4 AXI4_READ id=0x7 addr=0x2800 burst=AXI4_BURST_INCR beats=3 size=4B lock=0 | outstanding=1
# UVM_INFO ../10_tb/axi4_mst/axi4_mst_driver.sv(225) @ 715000: uvm_test_top.env.axi_agent.drv [axi4_mst_driver] [DRV][AXI][AR] id=0x7 addr=0x2800 burst=AXI4_BURST_INCR beats=3 size=4B
# UVM_INFO ../10_tb/axi4_mst/axi4_mst_monitor.sv(211) @ 715000: uvm_test_top.env.axi_agent.mon [axi4_mst_monitor] [MON][AXI][REQ] AXI4 AXI4_READ id=0x7 addr=0x2800 burst=AXI4_BURST_INCR beats=3 size=4B lock=0
# UVM_INFO ../10_tb/env/predictor.sv(75) @ 715000: uvm_test_top.env.pred [predictor] [PRED][AXI][IN] AXI4 AXI4_READ id=0x7 addr=0x2800 burst=AXI4_BURST_INCR beats=3 size=4B lock=0 | queued=1
# UVM_INFO ../10_tb/env/predictor.sv(138) @ 715000: uvm_test_top.env.pred [predictor] [PRED][MAP] AXI4 AXI4_READ id=0x7 addr=0x2800 burst=AXI4_BURST_INCR beats=3 size=4B lock=0 -> AHB burst=AHB_BURST_INCR size=4B crosses_1kb=0
# UVM_INFO ../10_tb/env/predictor.sv(175) @ 715000: uvm_test_top.env.pred [predictor] [PRED][AHB] beat=1/3 | AHB AHB_READ addr=0x2800 trans=AHB_TRANS_NONSEQ burst=AHB_BURST_INCR size=4B mastlock=0 resp=AHB_RESP_OKAY waits=0
# UVM_INFO ../10_tb/env/predictor.sv(175) @ 715000: uvm_test_top.env.pred [predictor] [PRED][AHB] beat=2/3 | AHB AHB_READ addr=0x2804 trans=AHB_TRANS_SEQ burst=AHB_BURST_INCR size=4B mastlock=0 resp=AHB_RESP_OKAY waits=0
# UVM_INFO ../10_tb/env/predictor.sv(175) @ 715000: uvm_test_top.env.pred [predictor] [PRED][AHB] beat=3/3 | AHB AHB_READ addr=0x2808 trans=AHB_TRANS_SEQ burst=AHB_BURST_INCR size=4B mastlock=0 resp=AHB_RESP_OKAY waits=0
# UVM_INFO ../10_tb/ahb_slv/ahb_slv_driver.sv(87) @ 725000: uvm_test_top.env.ahb_agent.drv [ahb_slv_driver] [DRV][AHB][REQ] AHB_READ addr=0x2800 trans=AHB_TRANS_NONSEQ burst=AHB_BURST_INCR size=4B
# UVM_INFO ../10_tb/ahb_slv/ahb_slv_driver.sv(201) @ 735000: uvm_test_top.env.ahb_agent.drv [ahb_slv_driver] [DRV][AHB][RSP] AHB_READ addr=0x2800 data=0xcfcecdcc resp=AHB_RESP_OKAY ready_delay=0
# UVM_INFO ../10_tb/ahb_slv/ahb_slv_monitor.sv(119) @ 735000: uvm_test_top.env.ahb_agent.mon [ahb_slv_monitor] [MON][AHB][TR] AHB AHB_READ addr=0x2800 trans=AHB_TRANS_NONSEQ burst=AHB_BURST_INCR size=4B mastlock=0 resp=AHB_RESP_OKAY waits=0 | data=0xcfcecdcc
# UVM_INFO ../10_tb/env/scoreboard.sv(359) @ 735000: uvm_test_top.env.scb [scoreboard] [SCB][AHB][PASS] AHB AHB_READ addr=0x2800 trans=AHB_TRANS_NONSEQ burst=AHB_BURST_INCR size=4B mastlock=0 resp=AHB_RESP_OKAY waits=0 | data=0xcfcecdcc | total=13
# UVM_INFO ../10_tb/ahb_slv/ahb_slv_driver.sv(87) @ 745000: uvm_test_top.env.ahb_agent.drv [ahb_slv_driver] [DRV][AHB][REQ] AHB_READ addr=0x2804 trans=AHB_TRANS_SEQ burst=AHB_BURST_INCR size=4B
# UVM_INFO ../10_tb/ahb_slv/ahb_slv_driver.sv(201) @ 755000: uvm_test_top.env.ahb_agent.drv [ahb_slv_driver] [DRV][AHB][RSP] AHB_READ addr=0x2804 data=0xd1d0cfce resp=AHB_RESP_OKAY ready_delay=0
# UVM_INFO ../10_tb/ahb_slv/ahb_slv_monitor.sv(119) @ 755000: uvm_test_top.env.ahb_agent.mon [ahb_slv_monitor] [MON][AHB][TR] AHB AHB_READ addr=0x2804 trans=AHB_TRANS_SEQ burst=AHB_BURST_INCR size=4B mastlock=0 resp=AHB_RESP_OKAY waits=0 | data=0xd1d0cfce
# UVM_INFO ../10_tb/env/scoreboard.sv(359) @ 755000: uvm_test_top.env.scb [scoreboard] [SCB][AHB][PASS] AHB AHB_READ addr=0x2804 trans=AHB_TRANS_SEQ burst=AHB_BURST_INCR size=4B mastlock=0 resp=AHB_RESP_OKAY waits=0 | data=0xd1d0cfce | total=14
# UVM_INFO ../10_tb/axi4_mst/axi4_mst_driver.sv(290) @ 755000: uvm_test_top.env.axi_agent.drv [axi4_mst_driver] [DRV][AXI][R] id=0x7 beat=1/3 data=0xcfcecdcc resp=AXI4_RESP_OKAY last=0
# UVM_INFO ../10_tb/axi4_mst/axi4_mst_monitor.sv(256) @ 755000: uvm_test_top.env.axi_agent.mon [axi4_mst_monitor] [MON][AXI][R] id=0x7 beat=1/3 data=0xcfcecdcc resp=AXI4_RESP_OKAY last=0
# UVM_INFO ../10_tb/ahb_slv/ahb_slv_driver.sv(87) @ 765000: uvm_test_top.env.ahb_agent.drv [ahb_slv_driver] [DRV][AHB][REQ] AHB_READ addr=0x2808 trans=AHB_TRANS_SEQ burst=AHB_BURST_INCR size=4B
# UVM_INFO ../10_tb/ahb_slv/ahb_slv_driver.sv(201) @ 775000: uvm_test_top.env.ahb_agent.drv [ahb_slv_driver] [DRV][AHB][RSP] AHB_READ addr=0x2808 data=0xd3d2d1d0 resp=AHB_RESP_OKAY ready_delay=0
# UVM_INFO ../10_tb/ahb_slv/ahb_slv_monitor.sv(119) @ 775000: uvm_test_top.env.ahb_agent.mon [ahb_slv_monitor] [MON][AHB][TR] AHB AHB_READ addr=0x2808 trans=AHB_TRANS_SEQ burst=AHB_BURST_INCR size=4B mastlock=0 resp=AHB_RESP_OKAY waits=0 | data=0xd3d2d1d0
# UVM_INFO ../10_tb/env/scoreboard.sv(359) @ 775000: uvm_test_top.env.scb [scoreboard] [SCB][AHB][PASS] AHB AHB_READ addr=0x2808 trans=AHB_TRANS_SEQ burst=AHB_BURST_INCR size=4B mastlock=0 resp=AHB_RESP_OKAY waits=0 | data=0xd3d2d1d0 | total=15
# UVM_INFO ../10_tb/axi4_mst/axi4_mst_driver.sv(290) @ 775000: uvm_test_top.env.axi_agent.drv [axi4_mst_driver] [DRV][AXI][R] id=0x7 beat=2/3 data=0xd1d0cfce resp=AXI4_RESP_OKAY last=0
# UVM_INFO ../10_tb/axi4_mst/axi4_mst_monitor.sv(256) @ 775000: uvm_test_top.env.axi_agent.mon [axi4_mst_monitor] [MON][AXI][R] id=0x7 beat=2/3 data=0xd1d0cfce resp=AXI4_RESP_OKAY last=0
# UVM_INFO ../10_tb/axi4_mst/axi4_mst_driver.sv(290) @ 795000: uvm_test_top.env.axi_agent.drv [axi4_mst_driver] [DRV][AXI][R] id=0x7 beat=3/3 data=0xd3d2d1d0 resp=AXI4_RESP_OKAY last=1
# UVM_INFO ../10_tb/axi4_mst/axi4_mst_monitor.sv(256) @ 795000: uvm_test_top.env.axi_agent.mon [axi4_mst_monitor] [MON][AXI][R] id=0x7 beat=3/3 data=0xd3d2d1d0 resp=AXI4_RESP_OKAY last=1
# UVM_INFO ../10_tb/axi4_mst/axi4_mst_monitor.sv(262) @ 795000: uvm_test_top.env.axi_agent.mon [axi4_mst_monitor] [MON][AXI][RSP] READ id=0x7 beats=3
# UVM_INFO ../10_tb/env/scoreboard.sv(506) @ 795000: uvm_test_top.env.scb [scoreboard] [SCB][AXI][PASS] AXI4 AXI4_READ id=0x7 addr=0x2800 burst=AXI4_BURST_INCR beats=3 size=4B lock=0 | read beats=3 | total=8
# UVM_INFO ../10_tb/seq/axi4_mst_seq/axi4_mst_incr_mapping_seq.sv(141) @ 795000: uvm_test_top.env.axi_agent.sqr@@axi_seq [axi4_mst_incr_mapping_seq] [8] INCR_3beat_sz4B_RD addr=0x3000 beats=3 expected=AHB_BURST_INCR
# UVM_INFO ../10_tb/axi4_mst/axi4_mst_driver.sv(105) @ 795000: uvm_test_top.env.axi_agent.drv [axi4_mst_driver] [DRV][AXI][REQ] AXI4 AXI4_READ id=0xc addr=0x3000 burst=AXI4_BURST_INCR beats=3 size=4B lock=0 | outstanding=1
# UVM_INFO ../10_tb/axi4_mst/axi4_mst_driver.sv(225) @ 825000: uvm_test_top.env.axi_agent.drv [axi4_mst_driver] [DRV][AXI][AR] id=0xc addr=0x3000 burst=AXI4_BURST_INCR beats=3 size=4B
# UVM_INFO ../10_tb/axi4_mst/axi4_mst_monitor.sv(211) @ 825000: uvm_test_top.env.axi_agent.mon [axi4_mst_monitor] [MON][AXI][REQ] AXI4 AXI4_READ id=0xc addr=0x3000 burst=AXI4_BURST_INCR beats=3 size=4B lock=0
# UVM_INFO ../10_tb/env/predictor.sv(75) @ 825000: uvm_test_top.env.pred [predictor] [PRED][AXI][IN] AXI4 AXI4_READ id=0xc addr=0x3000 burst=AXI4_BURST_INCR beats=3 size=4B lock=0 | queued=1
# UVM_INFO ../10_tb/env/predictor.sv(138) @ 825000: uvm_test_top.env.pred [predictor] [PRED][MAP] AXI4 AXI4_READ id=0xc addr=0x3000 burst=AXI4_BURST_INCR beats=3 size=4B lock=0 -> AHB burst=AHB_BURST_INCR size=4B crosses_1kb=0
# UVM_INFO ../10_tb/env/predictor.sv(175) @ 825000: uvm_test_top.env.pred [predictor] [PRED][AHB] beat=1/3 | AHB AHB_READ addr=0x3000 trans=AHB_TRANS_NONSEQ burst=AHB_BURST_INCR size=4B mastlock=0 resp=AHB_RESP_OKAY waits=0
# UVM_INFO ../10_tb/env/predictor.sv(175) @ 825000: uvm_test_top.env.pred [predictor] [PRED][AHB] beat=2/3 | AHB AHB_READ addr=0x3004 trans=AHB_TRANS_SEQ burst=AHB_BURST_INCR size=4B mastlock=0 resp=AHB_RESP_OKAY waits=0
# UVM_INFO ../10_tb/env/predictor.sv(175) @ 825000: uvm_test_top.env.pred [predictor] [PRED][AHB] beat=3/3 | AHB AHB_READ addr=0x3008 trans=AHB_TRANS_SEQ burst=AHB_BURST_INCR size=4B mastlock=0 resp=AHB_RESP_OKAY waits=0
# UVM_INFO ../10_tb/ahb_slv/ahb_slv_driver.sv(87) @ 835000: uvm_test_top.env.ahb_agent.drv [ahb_slv_driver] [DRV][AHB][REQ] AHB_READ addr=0x3000 trans=AHB_TRANS_NONSEQ burst=AHB_BURST_INCR size=4B
# UVM_INFO ../10_tb/ahb_slv/ahb_slv_driver.sv(201) @ 845000: uvm_test_top.env.ahb_agent.drv [ahb_slv_driver] [DRV][AHB][RSP] AHB_READ addr=0x3000 data=0xffffcfff resp=AHB_RESP_OKAY ready_delay=0
# UVM_INFO ../10_tb/ahb_slv/ahb_slv_monitor.sv(119) @ 845000: uvm_test_top.env.ahb_agent.mon [ahb_slv_monitor] [MON][AHB][TR] AHB AHB_READ addr=0x3000 trans=AHB_TRANS_NONSEQ burst=AHB_BURST_INCR size=4B mastlock=0 resp=AHB_RESP_OKAY waits=0 | data=0xffffcfff
# UVM_INFO ../10_tb/env/scoreboard.sv(359) @ 845000: uvm_test_top.env.scb [scoreboard] [SCB][AHB][PASS] AHB AHB_READ addr=0x3000 trans=AHB_TRANS_NONSEQ burst=AHB_BURST_INCR size=4B mastlock=0 resp=AHB_RESP_OKAY waits=0 | data=0xffffcfff | total=16
# UVM_INFO ../10_tb/ahb_slv/ahb_slv_driver.sv(87) @ 855000: uvm_test_top.env.ahb_agent.drv [ahb_slv_driver] [DRV][AHB][REQ] AHB_READ addr=0x3004 trans=AHB_TRANS_SEQ burst=AHB_BURST_INCR size=4B
# UVM_INFO ../10_tb/ahb_slv/ahb_slv_driver.sv(201) @ 865000: uvm_test_top.env.ahb_agent.drv [ahb_slv_driver] [DRV][AHB][RSP] AHB_READ addr=0x3004 data=0xffffcffb resp=AHB_RESP_OKAY ready_delay=0
# UVM_INFO ../10_tb/ahb_slv/ahb_slv_monitor.sv(119) @ 865000: uvm_test_top.env.ahb_agent.mon [ahb_slv_monitor] [MON][AHB][TR] AHB AHB_READ addr=0x3004 trans=AHB_TRANS_SEQ burst=AHB_BURST_INCR size=4B mastlock=0 resp=AHB_RESP_OKAY waits=0 | data=0xffffcffb
# UVM_INFO ../10_tb/env/scoreboard.sv(359) @ 865000: uvm_test_top.env.scb [scoreboard] [SCB][AHB][PASS] AHB AHB_READ addr=0x3004 trans=AHB_TRANS_SEQ burst=AHB_BURST_INCR size=4B mastlock=0 resp=AHB_RESP_OKAY waits=0 | data=0xffffcffb | total=17
# UVM_INFO ../10_tb/axi4_mst/axi4_mst_driver.sv(290) @ 865000: uvm_test_top.env.axi_agent.drv [axi4_mst_driver] [DRV][AXI][R] id=0xc beat=1/3 data=0xffffcfff resp=AXI4_RESP_OKAY last=0
# UVM_INFO ../10_tb/axi4_mst/axi4_mst_monitor.sv(256) @ 865000: uvm_test_top.env.axi_agent.mon [axi4_mst_monitor] [MON][AXI][R] id=0xc beat=1/3 data=0xffffcfff resp=AXI4_RESP_OKAY last=0
# UVM_INFO ../10_tb/ahb_slv/ahb_slv_driver.sv(87) @ 875000: uvm_test_top.env.ahb_agent.drv [ahb_slv_driver] [DRV][AHB][REQ] AHB_READ addr=0x3008 trans=AHB_TRANS_SEQ burst=AHB_BURST_INCR size=4B
# UVM_INFO ../10_tb/ahb_slv/ahb_slv_driver.sv(201) @ 885000: uvm_test_top.env.ahb_agent.drv [ahb_slv_driver] [DRV][AHB][RSP] AHB_READ addr=0x3008 data=0xffffcff7 resp=AHB_RESP_OKAY ready_delay=0
# UVM_INFO ../10_tb/ahb_slv/ahb_slv_monitor.sv(119) @ 885000: uvm_test_top.env.ahb_agent.mon [ahb_slv_monitor] [MON][AHB][TR] AHB AHB_READ addr=0x3008 trans=AHB_TRANS_SEQ burst=AHB_BURST_INCR size=4B mastlock=0 resp=AHB_RESP_OKAY waits=0 | data=0xffffcff7
# UVM_INFO ../10_tb/env/scoreboard.sv(359) @ 885000: uvm_test_top.env.scb [scoreboard] [SCB][AHB][PASS] AHB AHB_READ addr=0x3008 trans=AHB_TRANS_SEQ burst=AHB_BURST_INCR size=4B mastlock=0 resp=AHB_RESP_OKAY waits=0 | data=0xffffcff7 | total=18
# UVM_INFO ../10_tb/axi4_mst/axi4_mst_driver.sv(290) @ 885000: uvm_test_top.env.axi_agent.drv [axi4_mst_driver] [DRV][AXI][R] id=0xc beat=2/3 data=0xffffcffb resp=AXI4_RESP_OKAY last=0
# UVM_INFO ../10_tb/axi4_mst/axi4_mst_monitor.sv(256) @ 885000: uvm_test_top.env.axi_agent.mon [axi4_mst_monitor] [MON][AXI][R] id=0xc beat=2/3 data=0xffffcffb resp=AXI4_RESP_OKAY last=0
# UVM_INFO ../10_tb/axi4_mst/axi4_mst_driver.sv(290) @ 905000: uvm_test_top.env.axi_agent.drv [axi4_mst_driver] [DRV][AXI][R] id=0xc beat=3/3 data=0xffffcff7 resp=AXI4_RESP_OKAY last=1
# UVM_INFO ../10_tb/axi4_mst/axi4_mst_monitor.sv(256) @ 905000: uvm_test_top.env.axi_agent.mon [axi4_mst_monitor] [MON][AXI][R] id=0xc beat=3/3 data=0xffffcff7 resp=AXI4_RESP_OKAY last=1
# UVM_INFO ../10_tb/axi4_mst/axi4_mst_monitor.sv(262) @ 905000: uvm_test_top.env.axi_agent.mon [axi4_mst_monitor] [MON][AXI][RSP] READ id=0xc beats=3
# UVM_INFO ../10_tb/env/scoreboard.sv(506) @ 905000: uvm_test_top.env.scb [scoreboard] [SCB][AXI][PASS] AXI4 AXI4_READ id=0xc addr=0x3000 burst=AXI4_BURST_INCR beats=3 size=4B lock=0 | read beats=3 | total=9
# UVM_INFO ../10_tb/seq/axi4_mst_seq/axi4_mst_incr_mapping_seq.sv(141) @ 905000: uvm_test_top.env.axi_agent.sqr@@axi_seq [axi4_mst_incr_mapping_seq] [9] INCR_4beat_sz4B_WR addr=0x3400 beats=4 expected=AHB_BURST_INCR4
# UVM_INFO ../10_tb/axi4_mst/axi4_mst_driver.sv(105) @ 905000: uvm_test_top.env.axi_agent.drv [axi4_mst_driver] [DRV][AXI][REQ] AXI4 AXI4_WRITE id=0xa addr=0x3400 burst=AXI4_BURST_INCR beats=4 size=4B lock=0 | outstanding=1
# UVM_INFO ../10_tb/axi4_mst/axi4_mst_driver.sv(178) @ 945000: uvm_test_top.env.axi_agent.drv [axi4_mst_driver] [DRV][AXI][AW] id=0xa addr=0x3400 burst=AXI4_BURST_INCR beats=4 size=4B
# UVM_INFO ../10_tb/axi4_mst/axi4_mst_driver.sv(198) @ 945000: uvm_test_top.env.axi_agent.drv [axi4_mst_driver] [DRV][AXI][W] id=0xa beat=1/4 data=0xd5d4d3d2 strb=0xf last=0
# UVM_INFO ../10_tb/ahb_slv/ahb_slv_driver.sv(87) @ 955000: uvm_test_top.env.ahb_agent.drv [ahb_slv_driver] [DRV][AHB][REQ] AHB_WRITE addr=0x3400 trans=AHB_TRANS_NONSEQ burst=AHB_BURST_INCR4 size=4B
# UVM_INFO ../10_tb/ahb_slv/ahb_slv_driver.sv(201) @ 965000: uvm_test_top.env.ahb_agent.drv [ahb_slv_driver] [DRV][AHB][RSP] AHB_WRITE addr=0x3400 data=0xd5d4d3d2 resp=AHB_RESP_OKAY ready_delay=0
# UVM_INFO ../10_tb/ahb_slv/ahb_slv_monitor.sv(119) @ 965000: uvm_test_top.env.ahb_agent.mon [ahb_slv_monitor] [MON][AHB][TR] AHB AHB_WRITE addr=0x3400 trans=AHB_TRANS_NONSEQ burst=AHB_BURST_INCR4 size=4B mastlock=0 resp=AHB_RESP_OKAY waits=0 | data=0xd5d4d3d2
# UVM_INFO ../10_tb/ahb_slv/ahb_slv_driver.sv(87) @ 975000: uvm_test_top.env.ahb_agent.drv [ahb_slv_driver] [DRV][AHB][REQ] AHB_WRITE addr=0x3404 trans=AHB_TRANS_SEQ burst=AHB_BURST_INCR4 size=4B
# UVM_INFO ../10_tb/axi4_mst/axi4_mst_driver.sv(198) @ 975000: uvm_test_top.env.axi_agent.drv [axi4_mst_driver] [DRV][AXI][W] id=0xa beat=2/4 data=0xd7d6d5d4 strb=0xf last=0
# UVM_INFO ../10_tb/ahb_slv/ahb_slv_driver.sv(201) @ 985000: uvm_test_top.env.ahb_agent.drv [ahb_slv_driver] [DRV][AHB][RSP] AHB_WRITE addr=0x3404 data=0xd7d6d5d4 resp=AHB_RESP_OKAY ready_delay=0
# UVM_INFO ../10_tb/ahb_slv/ahb_slv_monitor.sv(119) @ 985000: uvm_test_top.env.ahb_agent.mon [ahb_slv_monitor] [MON][AHB][TR] AHB AHB_WRITE addr=0x3404 trans=AHB_TRANS_SEQ burst=AHB_BURST_INCR4 size=4B mastlock=0 resp=AHB_RESP_OKAY waits=0 | data=0xd7d6d5d4
# UVM_INFO ../10_tb/ahb_slv/ahb_slv_driver.sv(87) @ 995000: uvm_test_top.env.ahb_agent.drv [ahb_slv_driver] [DRV][AHB][REQ] AHB_WRITE addr=0x3408 trans=AHB_TRANS_SEQ burst=AHB_BURST_INCR4 size=4B
# UVM_INFO ../10_tb/axi4_mst/axi4_mst_driver.sv(198) @ 995000: uvm_test_top.env.axi_agent.drv [axi4_mst_driver] [DRV][AXI][W] id=0xa beat=3/4 data=0xd9d8d7d6 strb=0xf last=0
# UVM_INFO ../10_tb/ahb_slv/ahb_slv_driver.sv(201) @ 1005000: uvm_test_top.env.ahb_agent.drv [ahb_slv_driver] [DRV][AHB][RSP] AHB_WRITE addr=0x3408 data=0xd9d8d7d6 resp=AHB_RESP_OKAY ready_delay=0
# UVM_INFO ../10_tb/ahb_slv/ahb_slv_monitor.sv(119) @ 1005000: uvm_test_top.env.ahb_agent.mon [ahb_slv_monitor] [MON][AHB][TR] AHB AHB_WRITE addr=0x3408 trans=AHB_TRANS_SEQ burst=AHB_BURST_INCR4 size=4B mastlock=0 resp=AHB_RESP_OKAY waits=0 | data=0xd9d8d7d6
# UVM_INFO ../10_tb/ahb_slv/ahb_slv_driver.sv(87) @ 1015000: uvm_test_top.env.ahb_agent.drv [ahb_slv_driver] [DRV][AHB][REQ] AHB_WRITE addr=0x340c trans=AHB_TRANS_SEQ burst=AHB_BURST_INCR4 size=4B
# UVM_INFO ../10_tb/axi4_mst/axi4_mst_driver.sv(198) @ 1015000: uvm_test_top.env.axi_agent.drv [axi4_mst_driver] [DRV][AXI][W] id=0xa beat=4/4 data=0xdbdad9d8 strb=0xf last=1
# UVM_INFO ../10_tb/axi4_mst/axi4_mst_monitor.sv(151) @ 1015000: uvm_test_top.env.axi_agent.mon [axi4_mst_monitor] [MON][AXI][REQ] AXI4 AXI4_WRITE id=0xa addr=0x3400 burst=AXI4_BURST_INCR beats=4 size=4B lock=0
# UVM_INFO ../10_tb/env/predictor.sv(75) @ 1015000: uvm_test_top.env.pred [predictor] [PRED][AXI][IN] AXI4 AXI4_WRITE id=0xa addr=0x3400 burst=AXI4_BURST_INCR beats=4 size=4B lock=0 | queued=1
# UVM_INFO ../10_tb/env/predictor.sv(138) @ 1015000: uvm_test_top.env.pred [predictor] [PRED][MAP] AXI4 AXI4_WRITE id=0xa addr=0x3400 burst=AXI4_BURST_INCR beats=4 size=4B lock=0 -> AHB burst=AHB_BURST_INCR4 size=4B crosses_1kb=0
# UVM_INFO ../10_tb/env/predictor.sv(169) @ 1015000: uvm_test_top.env.pred [predictor] [PRED][AHB] beat=1/4 | AHB AHB_WRITE addr=0x3400 trans=AHB_TRANS_NONSEQ burst=AHB_BURST_INCR4 size=4B mastlock=0 resp=AHB_RESP_OKAY waits=0 | wdata=0xd5d4d3d2
# UVM_INFO ../10_tb/env/scoreboard.sv(359) @ 1015000: uvm_test_top.env.scb [scoreboard] [SCB][AHB][PASS] AHB AHB_WRITE addr=0x3400 trans=AHB_TRANS_NONSEQ burst=AHB_BURST_INCR4 size=4B mastlock=0 resp=AHB_RESP_OKAY waits=0 | data=0xd5d4d3d2 | total=19
# UVM_INFO ../10_tb/env/predictor.sv(169) @ 1015000: uvm_test_top.env.pred [predictor] [PRED][AHB] beat=2/4 | AHB AHB_WRITE addr=0x3404 trans=AHB_TRANS_SEQ burst=AHB_BURST_INCR4 size=4B mastlock=0 resp=AHB_RESP_OKAY waits=0 | wdata=0xd7d6d5d4
# UVM_INFO ../10_tb/env/scoreboard.sv(359) @ 1015000: uvm_test_top.env.scb [scoreboard] [SCB][AHB][PASS] AHB AHB_WRITE addr=0x3404 trans=AHB_TRANS_SEQ burst=AHB_BURST_INCR4 size=4B mastlock=0 resp=AHB_RESP_OKAY waits=0 | data=0xd7d6d5d4 | total=20
# UVM_INFO ../10_tb/env/predictor.sv(169) @ 1015000: uvm_test_top.env.pred [predictor] [PRED][AHB] beat=3/4 | AHB AHB_WRITE addr=0x3408 trans=AHB_TRANS_SEQ burst=AHB_BURST_INCR4 size=4B mastlock=0 resp=AHB_RESP_OKAY waits=0 | wdata=0xd9d8d7d6
# UVM_INFO ../10_tb/env/scoreboard.sv(359) @ 1015000: uvm_test_top.env.scb [scoreboard] [SCB][AHB][PASS] AHB AHB_WRITE addr=0x3408 trans=AHB_TRANS_SEQ burst=AHB_BURST_INCR4 size=4B mastlock=0 resp=AHB_RESP_OKAY waits=0 | data=0xd9d8d7d6 | total=21
# UVM_INFO ../10_tb/env/predictor.sv(169) @ 1015000: uvm_test_top.env.pred [predictor] [PRED][AHB] beat=4/4 | AHB AHB_WRITE addr=0x340c trans=AHB_TRANS_SEQ burst=AHB_BURST_INCR4 size=4B mastlock=0 resp=AHB_RESP_OKAY waits=0 | wdata=0xdbdad9d8
# UVM_INFO ../10_tb/ahb_slv/ahb_slv_driver.sv(201) @ 1025000: uvm_test_top.env.ahb_agent.drv [ahb_slv_driver] [DRV][AHB][RSP] AHB_WRITE addr=0x340c data=0xdbdad9d8 resp=AHB_RESP_OKAY ready_delay=0
# UVM_INFO ../10_tb/ahb_slv/ahb_slv_monitor.sv(119) @ 1025000: uvm_test_top.env.ahb_agent.mon [ahb_slv_monitor] [MON][AHB][TR] AHB AHB_WRITE addr=0x340c trans=AHB_TRANS_SEQ burst=AHB_BURST_INCR4 size=4B mastlock=0 resp=AHB_RESP_OKAY waits=0 | data=0xdbdad9d8
# UVM_INFO ../10_tb/env/scoreboard.sv(359) @ 1025000: uvm_test_top.env.scb [scoreboard] [SCB][AHB][PASS] AHB AHB_WRITE addr=0x340c trans=AHB_TRANS_SEQ burst=AHB_BURST_INCR4 size=4B mastlock=0 resp=AHB_RESP_OKAY waits=0 | data=0xdbdad9d8 | total=22
# UVM_INFO ../10_tb/axi4_mst/axi4_mst_driver.sv(250) @ 1035000: uvm_test_top.env.axi_agent.drv [axi4_mst_driver] [DRV][AXI][B] id=0xa resp=AXI4_RESP_OKAY
# UVM_INFO ../10_tb/axi4_mst/axi4_mst_monitor.sv(177) @ 1035000: uvm_test_top.env.axi_agent.mon [axi4_mst_monitor] [MON][AXI][RSP] WRITE id=0xa resp=AXI4_RESP_OKAY
# UVM_INFO ../10_tb/env/scoreboard.sv(499) @ 1035000: uvm_test_top.env.scb [scoreboard] [SCB][AXI][PASS] AXI4 AXI4_WRITE id=0xa addr=0x3400 burst=AXI4_BURST_INCR beats=4 size=4B lock=0 | bresp=AXI4_RESP_OKAY | total=10
# UVM_INFO ../10_tb/axi4_mst/axi4_mst_driver.sv(105) @ 1035000: uvm_test_top.env.axi_agent.drv [axi4_mst_driver] [DRV][AXI][REQ] AXI4 AXI4_READ id=0xf addr=0x3400 burst=AXI4_BURST_INCR beats=4 size=4B lock=0 | outstanding=1
# UVM_INFO ../10_tb/axi4_mst/axi4_mst_driver.sv(225) @ 1065000: uvm_test_top.env.axi_agent.drv [axi4_mst_driver] [DRV][AXI][AR] id=0xf addr=0x3400 burst=AXI4_BURST_INCR beats=4 size=4B
# UVM_INFO ../10_tb/axi4_mst/axi4_mst_monitor.sv(211) @ 1065000: uvm_test_top.env.axi_agent.mon [axi4_mst_monitor] [MON][AXI][REQ] AXI4 AXI4_READ id=0xf addr=0x3400 burst=AXI4_BURST_INCR beats=4 size=4B lock=0
# UVM_INFO ../10_tb/env/predictor.sv(75) @ 1065000: uvm_test_top.env.pred [predictor] [PRED][AXI][IN] AXI4 AXI4_READ id=0xf addr=0x3400 burst=AXI4_BURST_INCR beats=4 size=4B lock=0 | queued=1
# UVM_INFO ../10_tb/env/predictor.sv(138) @ 1065000: uvm_test_top.env.pred [predictor] [PRED][MAP] AXI4 AXI4_READ id=0xf addr=0x3400 burst=AXI4_BURST_INCR beats=4 size=4B lock=0 -> AHB burst=AHB_BURST_INCR4 size=4B crosses_1kb=0
# UVM_INFO ../10_tb/env/predictor.sv(175) @ 1065000: uvm_test_top.env.pred [predictor] [PRED][AHB] beat=1/4 | AHB AHB_READ addr=0x3400 trans=AHB_TRANS_NONSEQ burst=AHB_BURST_INCR4 size=4B mastlock=0 resp=AHB_RESP_OKAY waits=0
# UVM_INFO ../10_tb/env/predictor.sv(175) @ 1065000: uvm_test_top.env.pred [predictor] [PRED][AHB] beat=2/4 | AHB AHB_READ addr=0x3404 trans=AHB_TRANS_SEQ burst=AHB_BURST_INCR4 size=4B mastlock=0 resp=AHB_RESP_OKAY waits=0
# UVM_INFO ../10_tb/env/predictor.sv(175) @ 1065000: uvm_test_top.env.pred [predictor] [PRED][AHB] beat=3/4 | AHB AHB_READ addr=0x3408 trans=AHB_TRANS_SEQ burst=AHB_BURST_INCR4 size=4B mastlock=0 resp=AHB_RESP_OKAY waits=0
# UVM_INFO ../10_tb/env/predictor.sv(175) @ 1065000: uvm_test_top.env.pred [predictor] [PRED][AHB] beat=4/4 | AHB AHB_READ addr=0x340c trans=AHB_TRANS_SEQ burst=AHB_BURST_INCR4 size=4B mastlock=0 resp=AHB_RESP_OKAY waits=0
# UVM_INFO ../10_tb/ahb_slv/ahb_slv_driver.sv(87) @ 1075000: uvm_test_top.env.ahb_agent.drv [ahb_slv_driver] [DRV][AHB][REQ] AHB_READ addr=0x3400 trans=AHB_TRANS_NONSEQ burst=AHB_BURST_INCR4 size=4B
# UVM_INFO ../10_tb/ahb_slv/ahb_slv_driver.sv(201) @ 1085000: uvm_test_top.env.ahb_agent.drv [ahb_slv_driver] [DRV][AHB][RSP] AHB_READ addr=0x3400 data=0xd5d4d3d2 resp=AHB_RESP_OKAY ready_delay=0
# UVM_INFO ../10_tb/ahb_slv/ahb_slv_monitor.sv(119) @ 1085000: uvm_test_top.env.ahb_agent.mon [ahb_slv_monitor] [MON][AHB][TR] AHB AHB_READ addr=0x3400 trans=AHB_TRANS_NONSEQ burst=AHB_BURST_INCR4 size=4B mastlock=0 resp=AHB_RESP_OKAY waits=0 | data=0xd5d4d3d2
# UVM_INFO ../10_tb/env/scoreboard.sv(359) @ 1085000: uvm_test_top.env.scb [scoreboard] [SCB][AHB][PASS] AHB AHB_READ addr=0x3400 trans=AHB_TRANS_NONSEQ burst=AHB_BURST_INCR4 size=4B mastlock=0 resp=AHB_RESP_OKAY waits=0 | data=0xd5d4d3d2 | total=23
# UVM_INFO ../10_tb/ahb_slv/ahb_slv_driver.sv(87) @ 1095000: uvm_test_top.env.ahb_agent.drv [ahb_slv_driver] [DRV][AHB][REQ] AHB_READ addr=0x3404 trans=AHB_TRANS_SEQ burst=AHB_BURST_INCR4 size=4B
# UVM_INFO ../10_tb/ahb_slv/ahb_slv_driver.sv(201) @ 1105000: uvm_test_top.env.ahb_agent.drv [ahb_slv_driver] [DRV][AHB][RSP] AHB_READ addr=0x3404 data=0xd7d6d5d4 resp=AHB_RESP_OKAY ready_delay=0
# UVM_INFO ../10_tb/ahb_slv/ahb_slv_monitor.sv(119) @ 1105000: uvm_test_top.env.ahb_agent.mon [ahb_slv_monitor] [MON][AHB][TR] AHB AHB_READ addr=0x3404 trans=AHB_TRANS_SEQ burst=AHB_BURST_INCR4 size=4B mastlock=0 resp=AHB_RESP_OKAY waits=0 | data=0xd7d6d5d4
# UVM_INFO ../10_tb/env/scoreboard.sv(359) @ 1105000: uvm_test_top.env.scb [scoreboard] [SCB][AHB][PASS] AHB AHB_READ addr=0x3404 trans=AHB_TRANS_SEQ burst=AHB_BURST_INCR4 size=4B mastlock=0 resp=AHB_RESP_OKAY waits=0 | data=0xd7d6d5d4 | total=24
# UVM_INFO ../10_tb/axi4_mst/axi4_mst_driver.sv(290) @ 1105000: uvm_test_top.env.axi_agent.drv [axi4_mst_driver] [DRV][AXI][R] id=0xf beat=1/4 data=0xd5d4d3d2 resp=AXI4_RESP_OKAY last=0
# UVM_INFO ../10_tb/axi4_mst/axi4_mst_monitor.sv(256) @ 1105000: uvm_test_top.env.axi_agent.mon [axi4_mst_monitor] [MON][AXI][R] id=0xf beat=1/4 data=0xd5d4d3d2 resp=AXI4_RESP_OKAY last=0
# UVM_INFO ../10_tb/ahb_slv/ahb_slv_driver.sv(87) @ 1115000: uvm_test_top.env.ahb_agent.drv [ahb_slv_driver] [DRV][AHB][REQ] AHB_READ addr=0x3408 trans=AHB_TRANS_SEQ burst=AHB_BURST_INCR4 size=4B
# UVM_INFO ../10_tb/ahb_slv/ahb_slv_driver.sv(201) @ 1125000: uvm_test_top.env.ahb_agent.drv [ahb_slv_driver] [DRV][AHB][RSP] AHB_READ addr=0x3408 data=0xd9d8d7d6 resp=AHB_RESP_OKAY ready_delay=0
# UVM_INFO ../10_tb/ahb_slv/ahb_slv_monitor.sv(119) @ 1125000: uvm_test_top.env.ahb_agent.mon [ahb_slv_monitor] [MON][AHB][TR] AHB AHB_READ addr=0x3408 trans=AHB_TRANS_SEQ burst=AHB_BURST_INCR4 size=4B mastlock=0 resp=AHB_RESP_OKAY waits=0 | data=0xd9d8d7d6
# UVM_INFO ../10_tb/env/scoreboard.sv(359) @ 1125000: uvm_test_top.env.scb [scoreboard] [SCB][AHB][PASS] AHB AHB_READ addr=0x3408 trans=AHB_TRANS_SEQ burst=AHB_BURST_INCR4 size=4B mastlock=0 resp=AHB_RESP_OKAY waits=0 | data=0xd9d8d7d6 | total=25
# UVM_INFO ../10_tb/axi4_mst/axi4_mst_driver.sv(290) @ 1125000: uvm_test_top.env.axi_agent.drv [axi4_mst_driver] [DRV][AXI][R] id=0xf beat=2/4 data=0xd7d6d5d4 resp=AXI4_RESP_OKAY last=0
# UVM_INFO ../10_tb/axi4_mst/axi4_mst_monitor.sv(256) @ 1125000: uvm_test_top.env.axi_agent.mon [axi4_mst_monitor] [MON][AXI][R] id=0xf beat=2/4 data=0xd7d6d5d4 resp=AXI4_RESP_OKAY last=0
# UVM_INFO ../10_tb/ahb_slv/ahb_slv_driver.sv(87) @ 1135000: uvm_test_top.env.ahb_agent.drv [ahb_slv_driver] [DRV][AHB][REQ] AHB_READ addr=0x340c trans=AHB_TRANS_SEQ burst=AHB_BURST_INCR4 size=4B
# UVM_INFO ../10_tb/ahb_slv/ahb_slv_driver.sv(201) @ 1145000: uvm_test_top.env.ahb_agent.drv [ahb_slv_driver] [DRV][AHB][RSP] AHB_READ addr=0x340c data=0xdbdad9d8 resp=AHB_RESP_OKAY ready_delay=0
# UVM_INFO ../10_tb/ahb_slv/ahb_slv_monitor.sv(119) @ 1145000: uvm_test_top.env.ahb_agent.mon [ahb_slv_monitor] [MON][AHB][TR] AHB AHB_READ addr=0x340c trans=AHB_TRANS_SEQ burst=AHB_BURST_INCR4 size=4B mastlock=0 resp=AHB_RESP_OKAY waits=0 | data=0xdbdad9d8
# UVM_INFO ../10_tb/env/scoreboard.sv(359) @ 1145000: uvm_test_top.env.scb [scoreboard] [SCB][AHB][PASS] AHB AHB_READ addr=0x340c trans=AHB_TRANS_SEQ burst=AHB_BURST_INCR4 size=4B mastlock=0 resp=AHB_RESP_OKAY waits=0 | data=0xdbdad9d8 | total=26
# UVM_INFO ../10_tb/axi4_mst/axi4_mst_driver.sv(290) @ 1145000: uvm_test_top.env.axi_agent.drv [axi4_mst_driver] [DRV][AXI][R] id=0xf beat=3/4 data=0xd9d8d7d6 resp=AXI4_RESP_OKAY last=0
# UVM_INFO ../10_tb/axi4_mst/axi4_mst_monitor.sv(256) @ 1145000: uvm_test_top.env.axi_agent.mon [axi4_mst_monitor] [MON][AXI][R] id=0xf beat=3/4 data=0xd9d8d7d6 resp=AXI4_RESP_OKAY last=0
# UVM_INFO ../10_tb/axi4_mst/axi4_mst_driver.sv(290) @ 1165000: uvm_test_top.env.axi_agent.drv [axi4_mst_driver] [DRV][AXI][R] id=0xf beat=4/4 data=0xdbdad9d8 resp=AXI4_RESP_OKAY last=1
# UVM_INFO ../10_tb/axi4_mst/axi4_mst_monitor.sv(256) @ 1165000: uvm_test_top.env.axi_agent.mon [axi4_mst_monitor] [MON][AXI][R] id=0xf beat=4/4 data=0xdbdad9d8 resp=AXI4_RESP_OKAY last=1
# UVM_INFO ../10_tb/axi4_mst/axi4_mst_monitor.sv(262) @ 1165000: uvm_test_top.env.axi_agent.mon [axi4_mst_monitor] [MON][AXI][RSP] READ id=0xf beats=4
# UVM_INFO ../10_tb/env/scoreboard.sv(506) @ 1165000: uvm_test_top.env.scb [scoreboard] [SCB][AXI][PASS] AXI4 AXI4_READ id=0xf addr=0x3400 burst=AXI4_BURST_INCR beats=4 size=4B lock=0 | read beats=4 | total=11
# UVM_INFO ../10_tb/seq/axi4_mst_seq/axi4_mst_incr_mapping_seq.sv(141) @ 1165000: uvm_test_top.env.axi_agent.sqr@@axi_seq [axi4_mst_incr_mapping_seq] [11] INCR_4beat_sz4B_RD addr=0x3c00 beats=4 expected=AHB_BURST_INCR4
# UVM_INFO ../10_tb/axi4_mst/axi4_mst_driver.sv(105) @ 1165000: uvm_test_top.env.axi_agent.drv [axi4_mst_driver] [DRV][AXI][REQ] AXI4 AXI4_READ id=0x2 addr=0x3c00 burst=AXI4_BURST_INCR beats=4 size=4B lock=0 | outstanding=1
# UVM_INFO ../10_tb/axi4_mst/axi4_mst_driver.sv(225) @ 1195000: uvm_test_top.env.axi_agent.drv [axi4_mst_driver] [DRV][AXI][AR] id=0x2 addr=0x3c00 burst=AXI4_BURST_INCR beats=4 size=4B
# UVM_INFO ../10_tb/axi4_mst/axi4_mst_monitor.sv(211) @ 1195000: uvm_test_top.env.axi_agent.mon [axi4_mst_monitor] [MON][AXI][REQ] AXI4 AXI4_READ id=0x2 addr=0x3c00 burst=AXI4_BURST_INCR beats=4 size=4B lock=0
# UVM_INFO ../10_tb/env/predictor.sv(75) @ 1195000: uvm_test_top.env.pred [predictor] [PRED][AXI][IN] AXI4 AXI4_READ id=0x2 addr=0x3c00 burst=AXI4_BURST_INCR beats=4 size=4B lock=0 | queued=1
# UVM_INFO ../10_tb/env/predictor.sv(138) @ 1195000: uvm_test_top.env.pred [predictor] [PRED][MAP] AXI4 AXI4_READ id=0x2 addr=0x3c00 burst=AXI4_BURST_INCR beats=4 size=4B lock=0 -> AHB burst=AHB_BURST_INCR4 size=4B crosses_1kb=0
# UVM_INFO ../10_tb/env/predictor.sv(175) @ 1195000: uvm_test_top.env.pred [predictor] [PRED][AHB] beat=1/4 | AHB AHB_READ addr=0x3c00 trans=AHB_TRANS_NONSEQ burst=AHB_BURST_INCR4 size=4B mastlock=0 resp=AHB_RESP_OKAY waits=0
# UVM_INFO ../10_tb/env/predictor.sv(175) @ 1195000: uvm_test_top.env.pred [predictor] [PRED][AHB] beat=2/4 | AHB AHB_READ addr=0x3c04 trans=AHB_TRANS_SEQ burst=AHB_BURST_INCR4 size=4B mastlock=0 resp=AHB_RESP_OKAY waits=0
# UVM_INFO ../10_tb/env/predictor.sv(175) @ 1195000: uvm_test_top.env.pred [predictor] [PRED][AHB] beat=3/4 | AHB AHB_READ addr=0x3c08 trans=AHB_TRANS_SEQ burst=AHB_BURST_INCR4 size=4B mastlock=0 resp=AHB_RESP_OKAY waits=0
# UVM_INFO ../10_tb/env/predictor.sv(175) @ 1195000: uvm_test_top.env.pred [predictor] [PRED][AHB] beat=4/4 | AHB AHB_READ addr=0x3c0c trans=AHB_TRANS_SEQ burst=AHB_BURST_INCR4 size=4B mastlock=0 resp=AHB_RESP_OKAY waits=0
# UVM_INFO ../10_tb/ahb_slv/ahb_slv_driver.sv(87) @ 1205000: uvm_test_top.env.ahb_agent.drv [ahb_slv_driver] [DRV][AHB][REQ] AHB_READ addr=0x3c00 trans=AHB_TRANS_NONSEQ burst=AHB_BURST_INCR4 size=4B
# UVM_INFO ../10_tb/ahb_slv/ahb_slv_driver.sv(201) @ 1215000: uvm_test_top.env.ahb_agent.drv [ahb_slv_driver] [DRV][AHB][RSP] AHB_READ addr=0x3c00 data=0xffffc3ff resp=AHB_RESP_OKAY ready_delay=0
# UVM_INFO ../10_tb/ahb_slv/ahb_slv_monitor.sv(119) @ 1215000: uvm_test_top.env.ahb_agent.mon [ahb_slv_monitor] [MON][AHB][TR] AHB AHB_READ addr=0x3c00 trans=AHB_TRANS_NONSEQ burst=AHB_BURST_INCR4 size=4B mastlock=0 resp=AHB_RESP_OKAY waits=0 | data=0xffffc3ff
# UVM_INFO ../10_tb/env/scoreboard.sv(359) @ 1215000: uvm_test_top.env.scb [scoreboard] [SCB][AHB][PASS] AHB AHB_READ addr=0x3c00 trans=AHB_TRANS_NONSEQ burst=AHB_BURST_INCR4 size=4B mastlock=0 resp=AHB_RESP_OKAY waits=0 | data=0xffffc3ff | total=27
# UVM_INFO ../10_tb/ahb_slv/ahb_slv_driver.sv(87) @ 1225000: uvm_test_top.env.ahb_agent.drv [ahb_slv_driver] [DRV][AHB][REQ] AHB_READ addr=0x3c04 trans=AHB_TRANS_SEQ burst=AHB_BURST_INCR4 size=4B
# UVM_INFO ../10_tb/ahb_slv/ahb_slv_driver.sv(201) @ 1235000: uvm_test_top.env.ahb_agent.drv [ahb_slv_driver] [DRV][AHB][RSP] AHB_READ addr=0x3c04 data=0xffffc3fb resp=AHB_RESP_OKAY ready_delay=0
# UVM_INFO ../10_tb/ahb_slv/ahb_slv_monitor.sv(119) @ 1235000: uvm_test_top.env.ahb_agent.mon [ahb_slv_monitor] [MON][AHB][TR] AHB AHB_READ addr=0x3c04 trans=AHB_TRANS_SEQ burst=AHB_BURST_INCR4 size=4B mastlock=0 resp=AHB_RESP_OKAY waits=0 | data=0xffffc3fb
# UVM_INFO ../10_tb/env/scoreboard.sv(359) @ 1235000: uvm_test_top.env.scb [scoreboard] [SCB][AHB][PASS] AHB AHB_READ addr=0x3c04 trans=AHB_TRANS_SEQ burst=AHB_BURST_INCR4 size=4B mastlock=0 resp=AHB_RESP_OKAY waits=0 | data=0xffffc3fb | total=28
# UVM_INFO ../10_tb/axi4_mst/axi4_mst_driver.sv(290) @ 1235000: uvm_test_top.env.axi_agent.drv [axi4_mst_driver] [DRV][AXI][R] id=0x2 beat=1/4 data=0xffffc3ff resp=AXI4_RESP_OKAY last=0
# UVM_INFO ../10_tb/axi4_mst/axi4_mst_monitor.sv(256) @ 1235000: uvm_test_top.env.axi_agent.mon [axi4_mst_monitor] [MON][AXI][R] id=0x2 beat=1/4 data=0xffffc3ff resp=AXI4_RESP_OKAY last=0
# UVM_INFO ../10_tb/ahb_slv/ahb_slv_driver.sv(87) @ 1245000: uvm_test_top.env.ahb_agent.drv [ahb_slv_driver] [DRV][AHB][REQ] AHB_READ addr=0x3c08 trans=AHB_TRANS_SEQ burst=AHB_BURST_INCR4 size=4B
# UVM_INFO ../10_tb/ahb_slv/ahb_slv_driver.sv(201) @ 1255000: uvm_test_top.env.ahb_agent.drv [ahb_slv_driver] [DRV][AHB][RSP] AHB_READ addr=0x3c08 data=0xffffc3f7 resp=AHB_RESP_OKAY ready_delay=0
# UVM_INFO ../10_tb/ahb_slv/ahb_slv_monitor.sv(119) @ 1255000: uvm_test_top.env.ahb_agent.mon [ahb_slv_monitor] [MON][AHB][TR] AHB AHB_READ addr=0x3c08 trans=AHB_TRANS_SEQ burst=AHB_BURST_INCR4 size=4B mastlock=0 resp=AHB_RESP_OKAY waits=0 | data=0xffffc3f7
# UVM_INFO ../10_tb/env/scoreboard.sv(359) @ 1255000: uvm_test_top.env.scb [scoreboard] [SCB][AHB][PASS] AHB AHB_READ addr=0x3c08 trans=AHB_TRANS_SEQ burst=AHB_BURST_INCR4 size=4B mastlock=0 resp=AHB_RESP_OKAY waits=0 | data=0xffffc3f7 | total=29
# UVM_INFO ../10_tb/axi4_mst/axi4_mst_driver.sv(290) @ 1255000: uvm_test_top.env.axi_agent.drv [axi4_mst_driver] [DRV][AXI][R] id=0x2 beat=2/4 data=0xffffc3fb resp=AXI4_RESP_OKAY last=0
# UVM_INFO ../10_tb/axi4_mst/axi4_mst_monitor.sv(256) @ 1255000: uvm_test_top.env.axi_agent.mon [axi4_mst_monitor] [MON][AXI][R] id=0x2 beat=2/4 data=0xffffc3fb resp=AXI4_RESP_OKAY last=0
# UVM_INFO ../10_tb/ahb_slv/ahb_slv_driver.sv(87) @ 1265000: uvm_test_top.env.ahb_agent.drv [ahb_slv_driver] [DRV][AHB][REQ] AHB_READ addr=0x3c0c trans=AHB_TRANS_SEQ burst=AHB_BURST_INCR4 size=4B
# UVM_INFO ../10_tb/ahb_slv/ahb_slv_driver.sv(201) @ 1275000: uvm_test_top.env.ahb_agent.drv [ahb_slv_driver] [DRV][AHB][RSP] AHB_READ addr=0x3c0c data=0xffffc3f3 resp=AHB_RESP_OKAY ready_delay=0
# UVM_INFO ../10_tb/ahb_slv/ahb_slv_monitor.sv(119) @ 1275000: uvm_test_top.env.ahb_agent.mon [ahb_slv_monitor] [MON][AHB][TR] AHB AHB_READ addr=0x3c0c trans=AHB_TRANS_SEQ burst=AHB_BURST_INCR4 size=4B mastlock=0 resp=AHB_RESP_OKAY waits=0 | data=0xffffc3f3
# UVM_INFO ../10_tb/env/scoreboard.sv(359) @ 1275000: uvm_test_top.env.scb [scoreboard] [SCB][AHB][PASS] AHB AHB_READ addr=0x3c0c trans=AHB_TRANS_SEQ burst=AHB_BURST_INCR4 size=4B mastlock=0 resp=AHB_RESP_OKAY waits=0 | data=0xffffc3f3 | total=30
# UVM_INFO ../10_tb/axi4_mst/axi4_mst_driver.sv(290) @ 1275000: uvm_test_top.env.axi_agent.drv [axi4_mst_driver] [DRV][AXI][R] id=0x2 beat=3/4 data=0xffffc3f7 resp=AXI4_RESP_OKAY last=0
# UVM_INFO ../10_tb/axi4_mst/axi4_mst_monitor.sv(256) @ 1275000: uvm_test_top.env.axi_agent.mon [axi4_mst_monitor] [MON][AXI][R] id=0x2 beat=3/4 data=0xffffc3f7 resp=AXI4_RESP_OKAY last=0
# UVM_INFO ../10_tb/axi4_mst/axi4_mst_driver.sv(290) @ 1295000: uvm_test_top.env.axi_agent.drv [axi4_mst_driver] [DRV][AXI][R] id=0x2 beat=4/4 data=0xffffc3f3 resp=AXI4_RESP_OKAY last=1
# UVM_INFO ../10_tb/axi4_mst/axi4_mst_monitor.sv(256) @ 1295000: uvm_test_top.env.axi_agent.mon [axi4_mst_monitor] [MON][AXI][R] id=0x2 beat=4/4 data=0xffffc3f3 resp=AXI4_RESP_OKAY last=1
# UVM_INFO ../10_tb/axi4_mst/axi4_mst_monitor.sv(262) @ 1295000: uvm_test_top.env.axi_agent.mon [axi4_mst_monitor] [MON][AXI][RSP] READ id=0x2 beats=4
# UVM_INFO ../10_tb/env/scoreboard.sv(506) @ 1295000: uvm_test_top.env.scb [scoreboard] [SCB][AXI][PASS] AXI4 AXI4_READ id=0x2 addr=0x3c00 burst=AXI4_BURST_INCR beats=4 size=4B lock=0 | read beats=4 | total=12
# UVM_INFO ../10_tb/seq/axi4_mst_seq/axi4_mst_incr_mapping_seq.sv(141) @ 1295000: uvm_test_top.env.axi_agent.sqr@@axi_seq [axi4_mst_incr_mapping_seq] [12] INCR_5beat_sz4B_WR addr=0x4000 beats=5 expected=AHB_BURST_INCR
# UVM_INFO ../10_tb/axi4_mst/axi4_mst_driver.sv(105) @ 1295000: uvm_test_top.env.axi_agent.drv [axi4_mst_driver] [DRV][AXI][REQ] AXI4 AXI4_WRITE id=0x8 addr=0x4000 burst=AXI4_BURST_INCR beats=5 size=4B lock=0 | outstanding=1
# UVM_INFO ../10_tb/axi4_mst/axi4_mst_driver.sv(178) @ 1335000: uvm_test_top.env.axi_agent.drv [axi4_mst_driver] [DRV][AXI][AW] id=0x8 addr=0x4000 burst=AXI4_BURST_INCR beats=5 size=4B
# UVM_INFO ../10_tb/axi4_mst/axi4_mst_driver.sv(198) @ 1335000: uvm_test_top.env.axi_agent.drv [axi4_mst_driver] [DRV][AXI][W] id=0x8 beat=1/5 data=0xdbdad9d8 strb=0xf last=0
# UVM_INFO ../10_tb/ahb_slv/ahb_slv_driver.sv(87) @ 1345000: uvm_test_top.env.ahb_agent.drv [ahb_slv_driver] [DRV][AHB][REQ] AHB_WRITE addr=0x4000 trans=AHB_TRANS_NONSEQ burst=AHB_BURST_INCR size=4B
# UVM_INFO ../10_tb/ahb_slv/ahb_slv_driver.sv(201) @ 1355000: uvm_test_top.env.ahb_agent.drv [ahb_slv_driver] [DRV][AHB][RSP] AHB_WRITE addr=0x4000 data=0xdbdad9d8 resp=AHB_RESP_OKAY ready_delay=0
# UVM_INFO ../10_tb/ahb_slv/ahb_slv_monitor.sv(119) @ 1355000: uvm_test_top.env.ahb_agent.mon [ahb_slv_monitor] [MON][AHB][TR] AHB AHB_WRITE addr=0x4000 trans=AHB_TRANS_NONSEQ burst=AHB_BURST_INCR size=4B mastlock=0 resp=AHB_RESP_OKAY waits=0 | data=0xdbdad9d8
# UVM_INFO ../10_tb/ahb_slv/ahb_slv_driver.sv(87) @ 1365000: uvm_test_top.env.ahb_agent.drv [ahb_slv_driver] [DRV][AHB][REQ] AHB_WRITE addr=0x4004 trans=AHB_TRANS_SEQ burst=AHB_BURST_INCR size=4B
# UVM_INFO ../10_tb/axi4_mst/axi4_mst_driver.sv(198) @ 1365000: uvm_test_top.env.axi_agent.drv [axi4_mst_driver] [DRV][AXI][W] id=0x8 beat=2/5 data=0xdddcdbda strb=0xf last=0
# UVM_INFO ../10_tb/ahb_slv/ahb_slv_driver.sv(201) @ 1375000: uvm_test_top.env.ahb_agent.drv [ahb_slv_driver] [DRV][AHB][RSP] AHB_WRITE addr=0x4004 data=0xdddcdbda resp=AHB_RESP_OKAY ready_delay=0
# UVM_INFO ../10_tb/ahb_slv/ahb_slv_monitor.sv(119) @ 1375000: uvm_test_top.env.ahb_agent.mon [ahb_slv_monitor] [MON][AHB][TR] AHB AHB_WRITE addr=0x4004 trans=AHB_TRANS_SEQ burst=AHB_BURST_INCR size=4B mastlock=0 resp=AHB_RESP_OKAY waits=0 | data=0xdddcdbda
# UVM_INFO ../10_tb/ahb_slv/ahb_slv_driver.sv(87) @ 1385000: uvm_test_top.env.ahb_agent.drv [ahb_slv_driver] [DRV][AHB][REQ] AHB_WRITE addr=0x4008 trans=AHB_TRANS_SEQ burst=AHB_BURST_INCR size=4B
# UVM_INFO ../10_tb/axi4_mst/axi4_mst_driver.sv(198) @ 1385000: uvm_test_top.env.axi_agent.drv [axi4_mst_driver] [DRV][AXI][W] id=0x8 beat=3/5 data=0xdfdedddc strb=0xf last=0
# UVM_INFO ../10_tb/ahb_slv/ahb_slv_driver.sv(201) @ 1395000: uvm_test_top.env.ahb_agent.drv [ahb_slv_driver] [DRV][AHB][RSP] AHB_WRITE addr=0x4008 data=0xdfdedddc resp=AHB_RESP_OKAY ready_delay=0
# UVM_INFO ../10_tb/ahb_slv/ahb_slv_monitor.sv(119) @ 1395000: uvm_test_top.env.ahb_agent.mon [ahb_slv_monitor] [MON][AHB][TR] AHB AHB_WRITE addr=0x4008 trans=AHB_TRANS_SEQ burst=AHB_BURST_INCR size=4B mastlock=0 resp=AHB_RESP_OKAY waits=0 | data=0xdfdedddc
# UVM_INFO ../10_tb/ahb_slv/ahb_slv_driver.sv(87) @ 1405000: uvm_test_top.env.ahb_agent.drv [ahb_slv_driver] [DRV][AHB][REQ] AHB_WRITE addr=0x400c trans=AHB_TRANS_SEQ burst=AHB_BURST_INCR size=4B
# UVM_INFO ../10_tb/axi4_mst/axi4_mst_driver.sv(198) @ 1405000: uvm_test_top.env.axi_agent.drv [axi4_mst_driver] [DRV][AXI][W] id=0x8 beat=4/5 data=0xe1e0dfde strb=0xf last=0
# UVM_INFO ../10_tb/ahb_slv/ahb_slv_driver.sv(201) @ 1415000: uvm_test_top.env.ahb_agent.drv [ahb_slv_driver] [DRV][AHB][RSP] AHB_WRITE addr=0x400c data=0xe1e0dfde resp=AHB_RESP_OKAY ready_delay=0
# UVM_INFO ../10_tb/ahb_slv/ahb_slv_monitor.sv(119) @ 1415000: uvm_test_top.env.ahb_agent.mon [ahb_slv_monitor] [MON][AHB][TR] AHB AHB_WRITE addr=0x400c trans=AHB_TRANS_SEQ burst=AHB_BURST_INCR size=4B mastlock=0 resp=AHB_RESP_OKAY waits=0 | data=0xe1e0dfde
# UVM_INFO ../10_tb/ahb_slv/ahb_slv_driver.sv(87) @ 1425000: uvm_test_top.env.ahb_agent.drv [ahb_slv_driver] [DRV][AHB][REQ] AHB_WRITE addr=0x4010 trans=AHB_TRANS_SEQ burst=AHB_BURST_INCR size=4B
# UVM_INFO ../10_tb/axi4_mst/axi4_mst_driver.sv(198) @ 1425000: uvm_test_top.env.axi_agent.drv [axi4_mst_driver] [DRV][AXI][W] id=0x8 beat=5/5 data=0xe3e2e1e0 strb=0xf last=1
# UVM_INFO ../10_tb/axi4_mst/axi4_mst_monitor.sv(151) @ 1425000: uvm_test_top.env.axi_agent.mon [axi4_mst_monitor] [MON][AXI][REQ] AXI4 AXI4_WRITE id=0x8 addr=0x4000 burst=AXI4_BURST_INCR beats=5 size=4B lock=0
# UVM_INFO ../10_tb/env/predictor.sv(75) @ 1425000: uvm_test_top.env.pred [predictor] [PRED][AXI][IN] AXI4 AXI4_WRITE id=0x8 addr=0x4000 burst=AXI4_BURST_INCR beats=5 size=4B lock=0 | queued=1
# UVM_INFO ../10_tb/env/predictor.sv(138) @ 1425000: uvm_test_top.env.pred [predictor] [PRED][MAP] AXI4 AXI4_WRITE id=0x8 addr=0x4000 burst=AXI4_BURST_INCR beats=5 size=4B lock=0 -> AHB burst=AHB_BURST_INCR size=4B crosses_1kb=0
# UVM_INFO ../10_tb/env/predictor.sv(169) @ 1425000: uvm_test_top.env.pred [predictor] [PRED][AHB] beat=1/5 | AHB AHB_WRITE addr=0x4000 trans=AHB_TRANS_NONSEQ burst=AHB_BURST_INCR size=4B mastlock=0 resp=AHB_RESP_OKAY waits=0 | wdata=0xdbdad9d8
# UVM_INFO ../10_tb/env/scoreboard.sv(359) @ 1425000: uvm_test_top.env.scb [scoreboard] [SCB][AHB][PASS] AHB AHB_WRITE addr=0x4000 trans=AHB_TRANS_NONSEQ burst=AHB_BURST_INCR size=4B mastlock=0 resp=AHB_RESP_OKAY waits=0 | data=0xdbdad9d8 | total=31
# UVM_INFO ../10_tb/env/predictor.sv(169) @ 1425000: uvm_test_top.env.pred [predictor] [PRED][AHB] beat=2/5 | AHB AHB_WRITE addr=0x4004 trans=AHB_TRANS_SEQ burst=AHB_BURST_INCR size=4B mastlock=0 resp=AHB_RESP_OKAY waits=0 | wdata=0xdddcdbda
# UVM_INFO ../10_tb/env/scoreboard.sv(359) @ 1425000: uvm_test_top.env.scb [scoreboard] [SCB][AHB][PASS] AHB AHB_WRITE addr=0x4004 trans=AHB_TRANS_SEQ burst=AHB_BURST_INCR size=4B mastlock=0 resp=AHB_RESP_OKAY waits=0 | data=0xdddcdbda | total=32
# UVM_INFO ../10_tb/env/predictor.sv(169) @ 1425000: uvm_test_top.env.pred [predictor] [PRED][AHB] beat=3/5 | AHB AHB_WRITE addr=0x4008 trans=AHB_TRANS_SEQ burst=AHB_BURST_INCR size=4B mastlock=0 resp=AHB_RESP_OKAY waits=0 | wdata=0xdfdedddc
# UVM_INFO ../10_tb/env/scoreboard.sv(359) @ 1425000: uvm_test_top.env.scb [scoreboard] [SCB][AHB][PASS] AHB AHB_WRITE addr=0x4008 trans=AHB_TRANS_SEQ burst=AHB_BURST_INCR size=4B mastlock=0 resp=AHB_RESP_OKAY waits=0 | data=0xdfdedddc | total=33
# UVM_INFO ../10_tb/env/predictor.sv(169) @ 1425000: uvm_test_top.env.pred [predictor] [PRED][AHB] beat=4/5 | AHB AHB_WRITE addr=0x400c trans=AHB_TRANS_SEQ burst=AHB_BURST_INCR size=4B mastlock=0 resp=AHB_RESP_OKAY waits=0 | wdata=0xe1e0dfde
# UVM_INFO ../10_tb/env/scoreboard.sv(359) @ 1425000: uvm_test_top.env.scb [scoreboard] [SCB][AHB][PASS] AHB AHB_WRITE addr=0x400c trans=AHB_TRANS_SEQ burst=AHB_BURST_INCR size=4B mastlock=0 resp=AHB_RESP_OKAY waits=0 | data=0xe1e0dfde | total=34
# UVM_INFO ../10_tb/env/predictor.sv(169) @ 1425000: uvm_test_top.env.pred [predictor] [PRED][AHB] beat=5/5 | AHB AHB_WRITE addr=0x4010 trans=AHB_TRANS_SEQ burst=AHB_BURST_INCR size=4B mastlock=0 resp=AHB_RESP_OKAY waits=0 | wdata=0xe3e2e1e0
# UVM_INFO ../10_tb/ahb_slv/ahb_slv_driver.sv(201) @ 1435000: uvm_test_top.env.ahb_agent.drv [ahb_slv_driver] [DRV][AHB][RSP] AHB_WRITE addr=0x4010 data=0xe3e2e1e0 resp=AHB_RESP_OKAY ready_delay=0
# UVM_INFO ../10_tb/ahb_slv/ahb_slv_monitor.sv(119) @ 1435000: uvm_test_top.env.ahb_agent.mon [ahb_slv_monitor] [MON][AHB][TR] AHB AHB_WRITE addr=0x4010 trans=AHB_TRANS_SEQ burst=AHB_BURST_INCR size=4B mastlock=0 resp=AHB_RESP_OKAY waits=0 | data=0xe3e2e1e0
# UVM_INFO ../10_tb/env/scoreboard.sv(359) @ 1435000: uvm_test_top.env.scb [scoreboard] [SCB][AHB][PASS] AHB AHB_WRITE addr=0x4010 trans=AHB_TRANS_SEQ burst=AHB_BURST_INCR size=4B mastlock=0 resp=AHB_RESP_OKAY waits=0 | data=0xe3e2e1e0 | total=35
# UVM_INFO ../10_tb/axi4_mst/axi4_mst_driver.sv(250) @ 1445000: uvm_test_top.env.axi_agent.drv [axi4_mst_driver] [DRV][AXI][B] id=0x8 resp=AXI4_RESP_OKAY
# UVM_INFO ../10_tb/axi4_mst/axi4_mst_monitor.sv(177) @ 1445000: uvm_test_top.env.axi_agent.mon [axi4_mst_monitor] [MON][AXI][RSP] WRITE id=0x8 resp=AXI4_RESP_OKAY
# UVM_INFO ../10_tb/env/scoreboard.sv(499) @ 1445000: uvm_test_top.env.scb [scoreboard] [SCB][AXI][PASS] AXI4 AXI4_WRITE id=0x8 addr=0x4000 burst=AXI4_BURST_INCR beats=5 size=4B lock=0 | bresp=AXI4_RESP_OKAY | total=13
# UVM_INFO ../10_tb/axi4_mst/axi4_mst_driver.sv(105) @ 1445000: uvm_test_top.env.axi_agent.drv [axi4_mst_driver] [DRV][AXI][REQ] AXI4 AXI4_READ id=0xa addr=0x4000 burst=AXI4_BURST_INCR beats=5 size=4B lock=0 | outstanding=1
# UVM_INFO ../10_tb/axi4_mst/axi4_mst_driver.sv(225) @ 1475000: uvm_test_top.env.axi_agent.drv [axi4_mst_driver] [DRV][AXI][AR] id=0xa addr=0x4000 burst=AXI4_BURST_INCR beats=5 size=4B
# UVM_INFO ../10_tb/axi4_mst/axi4_mst_monitor.sv(211) @ 1475000: uvm_test_top.env.axi_agent.mon [axi4_mst_monitor] [MON][AXI][REQ] AXI4 AXI4_READ id=0xa addr=0x4000 burst=AXI4_BURST_INCR beats=5 size=4B lock=0
# UVM_INFO ../10_tb/env/predictor.sv(75) @ 1475000: uvm_test_top.env.pred [predictor] [PRED][AXI][IN] AXI4 AXI4_READ id=0xa addr=0x4000 burst=AXI4_BURST_INCR beats=5 size=4B lock=0 | queued=1
# UVM_INFO ../10_tb/env/predictor.sv(138) @ 1475000: uvm_test_top.env.pred [predictor] [PRED][MAP] AXI4 AXI4_READ id=0xa addr=0x4000 burst=AXI4_BURST_INCR beats=5 size=4B lock=0 -> AHB burst=AHB_BURST_INCR size=4B crosses_1kb=0
# UVM_INFO ../10_tb/env/predictor.sv(175) @ 1475000: uvm_test_top.env.pred [predictor] [PRED][AHB] beat=1/5 | AHB AHB_READ addr=0x4000 trans=AHB_TRANS_NONSEQ burst=AHB_BURST_INCR size=4B mastlock=0 resp=AHB_RESP_OKAY waits=0
# UVM_INFO ../10_tb/env/predictor.sv(175) @ 1475000: uvm_test_top.env.pred [predictor] [PRED][AHB] beat=2/5 | AHB AHB_READ addr=0x4004 trans=AHB_TRANS_SEQ burst=AHB_BURST_INCR size=4B mastlock=0 resp=AHB_RESP_OKAY waits=0
# UVM_INFO ../10_tb/env/predictor.sv(175) @ 1475000: uvm_test_top.env.pred [predictor] [PRED][AHB] beat=3/5 | AHB AHB_READ addr=0x4008 trans=AHB_TRANS_SEQ burst=AHB_BURST_INCR size=4B mastlock=0 resp=AHB_RESP_OKAY waits=0
# UVM_INFO ../10_tb/env/predictor.sv(175) @ 1475000: uvm_test_top.env.pred [predictor] [PRED][AHB] beat=4/5 | AHB AHB_READ addr=0x400c trans=AHB_TRANS_SEQ burst=AHB_BURST_INCR size=4B mastlock=0 resp=AHB_RESP_OKAY waits=0
# UVM_INFO ../10_tb/env/predictor.sv(175) @ 1475000: uvm_test_top.env.pred [predictor] [PRED][AHB] beat=5/5 | AHB AHB_READ addr=0x4010 trans=AHB_TRANS_SEQ burst=AHB_BURST_INCR size=4B mastlock=0 resp=AHB_RESP_OKAY waits=0
# UVM_INFO ../10_tb/ahb_slv/ahb_slv_driver.sv(87) @ 1485000: uvm_test_top.env.ahb_agent.drv [ahb_slv_driver] [DRV][AHB][REQ] AHB_READ addr=0x4000 trans=AHB_TRANS_NONSEQ burst=AHB_BURST_INCR size=4B
# UVM_INFO ../10_tb/ahb_slv/ahb_slv_driver.sv(201) @ 1495000: uvm_test_top.env.ahb_agent.drv [ahb_slv_driver] [DRV][AHB][RSP] AHB_READ addr=0x4000 data=0xdbdad9d8 resp=AHB_RESP_OKAY ready_delay=0
# UVM_INFO ../10_tb/ahb_slv/ahb_slv_monitor.sv(119) @ 1495000: uvm_test_top.env.ahb_agent.mon [ahb_slv_monitor] [MON][AHB][TR] AHB AHB_READ addr=0x4000 trans=AHB_TRANS_NONSEQ burst=AHB_BURST_INCR size=4B mastlock=0 resp=AHB_RESP_OKAY waits=0 | data=0xdbdad9d8
# UVM_INFO ../10_tb/env/scoreboard.sv(359) @ 1495000: uvm_test_top.env.scb [scoreboard] [SCB][AHB][PASS] AHB AHB_READ addr=0x4000 trans=AHB_TRANS_NONSEQ burst=AHB_BURST_INCR size=4B mastlock=0 resp=AHB_RESP_OKAY waits=0 | data=0xdbdad9d8 | total=36
# UVM_INFO ../10_tb/ahb_slv/ahb_slv_driver.sv(87) @ 1505000: uvm_test_top.env.ahb_agent.drv [ahb_slv_driver] [DRV][AHB][REQ] AHB_READ addr=0x4004 trans=AHB_TRANS_SEQ burst=AHB_BURST_INCR size=4B
# UVM_INFO ../10_tb/ahb_slv/ahb_slv_driver.sv(201) @ 1515000: uvm_test_top.env.ahb_agent.drv [ahb_slv_driver] [DRV][AHB][RSP] AHB_READ addr=0x4004 data=0xdddcdbda resp=AHB_RESP_OKAY ready_delay=0
# UVM_INFO ../10_tb/ahb_slv/ahb_slv_monitor.sv(119) @ 1515000: uvm_test_top.env.ahb_agent.mon [ahb_slv_monitor] [MON][AHB][TR] AHB AHB_READ addr=0x4004 trans=AHB_TRANS_SEQ burst=AHB_BURST_INCR size=4B mastlock=0 resp=AHB_RESP_OKAY waits=0 | data=0xdddcdbda
# UVM_INFO ../10_tb/env/scoreboard.sv(359) @ 1515000: uvm_test_top.env.scb [scoreboard] [SCB][AHB][PASS] AHB AHB_READ addr=0x4004 trans=AHB_TRANS_SEQ burst=AHB_BURST_INCR size=4B mastlock=0 resp=AHB_RESP_OKAY waits=0 | data=0xdddcdbda | total=37
# UVM_INFO ../10_tb/axi4_mst/axi4_mst_driver.sv(290) @ 1515000: uvm_test_top.env.axi_agent.drv [axi4_mst_driver] [DRV][AXI][R] id=0xa beat=1/5 data=0xdbdad9d8 resp=AXI4_RESP_OKAY last=0
# UVM_INFO ../10_tb/axi4_mst/axi4_mst_monitor.sv(256) @ 1515000: uvm_test_top.env.axi_agent.mon [axi4_mst_monitor] [MON][AXI][R] id=0xa beat=1/5 data=0xdbdad9d8 resp=AXI4_RESP_OKAY last=0
# UVM_INFO ../10_tb/ahb_slv/ahb_slv_driver.sv(87) @ 1525000: uvm_test_top.env.ahb_agent.drv [ahb_slv_driver] [DRV][AHB][REQ] AHB_READ addr=0x4008 trans=AHB_TRANS_SEQ burst=AHB_BURST_INCR size=4B
# UVM_INFO ../10_tb/ahb_slv/ahb_slv_driver.sv(201) @ 1535000: uvm_test_top.env.ahb_agent.drv [ahb_slv_driver] [DRV][AHB][RSP] AHB_READ addr=0x4008 data=0xdfdedddc resp=AHB_RESP_OKAY ready_delay=0
# UVM_INFO ../10_tb/ahb_slv/ahb_slv_monitor.sv(119) @ 1535000: uvm_test_top.env.ahb_agent.mon [ahb_slv_monitor] [MON][AHB][TR] AHB AHB_READ addr=0x4008 trans=AHB_TRANS_SEQ burst=AHB_BURST_INCR size=4B mastlock=0 resp=AHB_RESP_OKAY waits=0 | data=0xdfdedddc
# UVM_INFO ../10_tb/env/scoreboard.sv(359) @ 1535000: uvm_test_top.env.scb [scoreboard] [SCB][AHB][PASS] AHB AHB_READ addr=0x4008 trans=AHB_TRANS_SEQ burst=AHB_BURST_INCR size=4B mastlock=0 resp=AHB_RESP_OKAY waits=0 | data=0xdfdedddc | total=38
# UVM_INFO ../10_tb/axi4_mst/axi4_mst_driver.sv(290) @ 1535000: uvm_test_top.env.axi_agent.drv [axi4_mst_driver] [DRV][AXI][R] id=0xa beat=2/5 data=0xdddcdbda resp=AXI4_RESP_OKAY last=0
# UVM_INFO ../10_tb/axi4_mst/axi4_mst_monitor.sv(256) @ 1535000: uvm_test_top.env.axi_agent.mon [axi4_mst_monitor] [MON][AXI][R] id=0xa beat=2/5 data=0xdddcdbda resp=AXI4_RESP_OKAY last=0
# UVM_INFO ../10_tb/ahb_slv/ahb_slv_driver.sv(87) @ 1545000: uvm_test_top.env.ahb_agent.drv [ahb_slv_driver] [DRV][AHB][REQ] AHB_READ addr=0x400c trans=AHB_TRANS_SEQ burst=AHB_BURST_INCR size=4B
# UVM_INFO ../10_tb/ahb_slv/ahb_slv_driver.sv(201) @ 1555000: uvm_test_top.env.ahb_agent.drv [ahb_slv_driver] [DRV][AHB][RSP] AHB_READ addr=0x400c data=0xe1e0dfde resp=AHB_RESP_OKAY ready_delay=0
# UVM_INFO ../10_tb/ahb_slv/ahb_slv_monitor.sv(119) @ 1555000: uvm_test_top.env.ahb_agent.mon [ahb_slv_monitor] [MON][AHB][TR] AHB AHB_READ addr=0x400c trans=AHB_TRANS_SEQ burst=AHB_BURST_INCR size=4B mastlock=0 resp=AHB_RESP_OKAY waits=0 | data=0xe1e0dfde
# UVM_INFO ../10_tb/env/scoreboard.sv(359) @ 1555000: uvm_test_top.env.scb [scoreboard] [SCB][AHB][PASS] AHB AHB_READ addr=0x400c trans=AHB_TRANS_SEQ burst=AHB_BURST_INCR size=4B mastlock=0 resp=AHB_RESP_OKAY waits=0 | data=0xe1e0dfde | total=39
# UVM_INFO ../10_tb/axi4_mst/axi4_mst_driver.sv(290) @ 1555000: uvm_test_top.env.axi_agent.drv [axi4_mst_driver] [DRV][AXI][R] id=0xa beat=3/5 data=0xdfdedddc resp=AXI4_RESP_OKAY last=0
# UVM_INFO ../10_tb/axi4_mst/axi4_mst_monitor.sv(256) @ 1555000: uvm_test_top.env.axi_agent.mon [axi4_mst_monitor] [MON][AXI][R] id=0xa beat=3/5 data=0xdfdedddc resp=AXI4_RESP_OKAY last=0
# UVM_INFO ../10_tb/ahb_slv/ahb_slv_driver.sv(87) @ 1565000: uvm_test_top.env.ahb_agent.drv [ahb_slv_driver] [DRV][AHB][REQ] AHB_READ addr=0x4010 trans=AHB_TRANS_SEQ burst=AHB_BURST_INCR size=4B
# UVM_INFO ../10_tb/ahb_slv/ahb_slv_driver.sv(201) @ 1575000: uvm_test_top.env.ahb_agent.drv [ahb_slv_driver] [DRV][AHB][RSP] AHB_READ addr=0x4010 data=0xe3e2e1e0 resp=AHB_RESP_OKAY ready_delay=0
# UVM_INFO ../10_tb/ahb_slv/ahb_slv_monitor.sv(119) @ 1575000: uvm_test_top.env.ahb_agent.mon [ahb_slv_monitor] [MON][AHB][TR] AHB AHB_READ addr=0x4010 trans=AHB_TRANS_SEQ burst=AHB_BURST_INCR size=4B mastlock=0 resp=AHB_RESP_OKAY waits=0 | data=0xe3e2e1e0
# UVM_INFO ../10_tb/env/scoreboard.sv(359) @ 1575000: uvm_test_top.env.scb [scoreboard] [SCB][AHB][PASS] AHB AHB_READ addr=0x4010 trans=AHB_TRANS_SEQ burst=AHB_BURST_INCR size=4B mastlock=0 resp=AHB_RESP_OKAY waits=0 | data=0xe3e2e1e0 | total=40
# UVM_INFO ../10_tb/axi4_mst/axi4_mst_driver.sv(290) @ 1575000: uvm_test_top.env.axi_agent.drv [axi4_mst_driver] [DRV][AXI][R] id=0xa beat=4/5 data=0xe1e0dfde resp=AXI4_RESP_OKAY last=0
# UVM_INFO ../10_tb/axi4_mst/axi4_mst_monitor.sv(256) @ 1575000: uvm_test_top.env.axi_agent.mon [axi4_mst_monitor] [MON][AXI][R] id=0xa beat=4/5 data=0xe1e0dfde resp=AXI4_RESP_OKAY last=0
# UVM_INFO ../10_tb/axi4_mst/axi4_mst_driver.sv(290) @ 1595000: uvm_test_top.env.axi_agent.drv [axi4_mst_driver] [DRV][AXI][R] id=0xa beat=5/5 data=0xe3e2e1e0 resp=AXI4_RESP_OKAY last=1
# UVM_INFO ../10_tb/axi4_mst/axi4_mst_monitor.sv(256) @ 1595000: uvm_test_top.env.axi_agent.mon [axi4_mst_monitor] [MON][AXI][R] id=0xa beat=5/5 data=0xe3e2e1e0 resp=AXI4_RESP_OKAY last=1
# UVM_INFO ../10_tb/axi4_mst/axi4_mst_monitor.sv(262) @ 1595000: uvm_test_top.env.axi_agent.mon [axi4_mst_monitor] [MON][AXI][RSP] READ id=0xa beats=5
# UVM_INFO ../10_tb/env/scoreboard.sv(506) @ 1595000: uvm_test_top.env.scb [scoreboard] [SCB][AXI][PASS] AXI4 AXI4_READ id=0xa addr=0x4000 burst=AXI4_BURST_INCR beats=5 size=4B lock=0 | read beats=5 | total=14
# UVM_INFO ../10_tb/seq/axi4_mst_seq/axi4_mst_incr_mapping_seq.sv(141) @ 1595000: uvm_test_top.env.axi_agent.sqr@@axi_seq [axi4_mst_incr_mapping_seq] [14] INCR_5beat_sz4B_RD addr=0x4800 beats=5 expected=AHB_BURST_INCR
# UVM_INFO ../10_tb/axi4_mst/axi4_mst_driver.sv(105) @ 1595000: uvm_test_top.env.axi_agent.drv [axi4_mst_driver] [DRV][AXI][REQ] AXI4 AXI4_READ id=0xe addr=0x4800 burst=AXI4_BURST_INCR beats=5 size=4B lock=0 | outstanding=1
# UVM_INFO ../10_tb/axi4_mst/axi4_mst_driver.sv(225) @ 1625000: uvm_test_top.env.axi_agent.drv [axi4_mst_driver] [DRV][AXI][AR] id=0xe addr=0x4800 burst=AXI4_BURST_INCR beats=5 size=4B
# UVM_INFO ../10_tb/axi4_mst/axi4_mst_monitor.sv(211) @ 1625000: uvm_test_top.env.axi_agent.mon [axi4_mst_monitor] [MON][AXI][REQ] AXI4 AXI4_READ id=0xe addr=0x4800 burst=AXI4_BURST_INCR beats=5 size=4B lock=0
# UVM_INFO ../10_tb/env/predictor.sv(75) @ 1625000: uvm_test_top.env.pred [predictor] [PRED][AXI][IN] AXI4 AXI4_READ id=0xe addr=0x4800 burst=AXI4_BURST_INCR beats=5 size=4B lock=0 | queued=1
# UVM_INFO ../10_tb/env/predictor.sv(138) @ 1625000: uvm_test_top.env.pred [predictor] [PRED][MAP] AXI4 AXI4_READ id=0xe addr=0x4800 burst=AXI4_BURST_INCR beats=5 size=4B lock=0 -> AHB burst=AHB_BURST_INCR size=4B crosses_1kb=0
# UVM_INFO ../10_tb/env/predictor.sv(175) @ 1625000: uvm_test_top.env.pred [predictor] [PRED][AHB] beat=1/5 | AHB AHB_READ addr=0x4800 trans=AHB_TRANS_NONSEQ burst=AHB_BURST_INCR size=4B mastlock=0 resp=AHB_RESP_OKAY waits=0
# UVM_INFO ../10_tb/env/predictor.sv(175) @ 1625000: uvm_test_top.env.pred [predictor] [PRED][AHB] beat=2/5 | AHB AHB_READ addr=0x4804 trans=AHB_TRANS_SEQ burst=AHB_BURST_INCR size=4B mastlock=0 resp=AHB_RESP_OKAY waits=0
# UVM_INFO ../10_tb/env/predictor.sv(175) @ 1625000: uvm_test_top.env.pred [predictor] [PRED][AHB] beat=3/5 | AHB AHB_READ addr=0x4808 trans=AHB_TRANS_SEQ burst=AHB_BURST_INCR size=4B mastlock=0 resp=AHB_RESP_OKAY waits=0
# UVM_INFO ../10_tb/env/predictor.sv(175) @ 1625000: uvm_test_top.env.pred [predictor] [PRED][AHB] beat=4/5 | AHB AHB_READ addr=0x480c trans=AHB_TRANS_SEQ burst=AHB_BURST_INCR size=4B mastlock=0 resp=AHB_RESP_OKAY waits=0
# UVM_INFO ../10_tb/env/predictor.sv(175) @ 1625000: uvm_test_top.env.pred [predictor] [PRED][AHB] beat=5/5 | AHB AHB_READ addr=0x4810 trans=AHB_TRANS_SEQ burst=AHB_BURST_INCR size=4B mastlock=0 resp=AHB_RESP_OKAY waits=0
# UVM_INFO ../10_tb/ahb_slv/ahb_slv_driver.sv(87) @ 1635000: uvm_test_top.env.ahb_agent.drv [ahb_slv_driver] [DRV][AHB][REQ] AHB_READ addr=0x4800 trans=AHB_TRANS_NONSEQ burst=AHB_BURST_INCR size=4B
# UVM_INFO ../10_tb/ahb_slv/ahb_slv_driver.sv(201) @ 1645000: uvm_test_top.env.ahb_agent.drv [ahb_slv_driver] [DRV][AHB][RSP] AHB_READ addr=0x4800 data=0xffffb7ff resp=AHB_RESP_OKAY ready_delay=0
# UVM_INFO ../10_tb/ahb_slv/ahb_slv_monitor.sv(119) @ 1645000: uvm_test_top.env.ahb_agent.mon [ahb_slv_monitor] [MON][AHB][TR] AHB AHB_READ addr=0x4800 trans=AHB_TRANS_NONSEQ burst=AHB_BURST_INCR size=4B mastlock=0 resp=AHB_RESP_OKAY waits=0 | data=0xffffb7ff
# UVM_INFO ../10_tb/env/scoreboard.sv(359) @ 1645000: uvm_test_top.env.scb [scoreboard] [SCB][AHB][PASS] AHB AHB_READ addr=0x4800 trans=AHB_TRANS_NONSEQ burst=AHB_BURST_INCR size=4B mastlock=0 resp=AHB_RESP_OKAY waits=0 | data=0xffffb7ff | total=41
# UVM_INFO ../10_tb/ahb_slv/ahb_slv_driver.sv(87) @ 1655000: uvm_test_top.env.ahb_agent.drv [ahb_slv_driver] [DRV][AHB][REQ] AHB_READ addr=0x4804 trans=AHB_TRANS_SEQ burst=AHB_BURST_INCR size=4B
# UVM_INFO ../10_tb/ahb_slv/ahb_slv_driver.sv(201) @ 1665000: uvm_test_top.env.ahb_agent.drv [ahb_slv_driver] [DRV][AHB][RSP] AHB_READ addr=0x4804 data=0xffffb7fb resp=AHB_RESP_OKAY ready_delay=0
# UVM_INFO ../10_tb/ahb_slv/ahb_slv_monitor.sv(119) @ 1665000: uvm_test_top.env.ahb_agent.mon [ahb_slv_monitor] [MON][AHB][TR] AHB AHB_READ addr=0x4804 trans=AHB_TRANS_SEQ burst=AHB_BURST_INCR size=4B mastlock=0 resp=AHB_RESP_OKAY waits=0 | data=0xffffb7fb
# UVM_INFO ../10_tb/env/scoreboard.sv(359) @ 1665000: uvm_test_top.env.scb [scoreboard] [SCB][AHB][PASS] AHB AHB_READ addr=0x4804 trans=AHB_TRANS_SEQ burst=AHB_BURST_INCR size=4B mastlock=0 resp=AHB_RESP_OKAY waits=0 | data=0xffffb7fb | total=42
# UVM_INFO ../10_tb/axi4_mst/axi4_mst_driver.sv(290) @ 1665000: uvm_test_top.env.axi_agent.drv [axi4_mst_driver] [DRV][AXI][R] id=0xe beat=1/5 data=0xffffb7ff resp=AXI4_RESP_OKAY last=0
# UVM_INFO ../10_tb/axi4_mst/axi4_mst_monitor.sv(256) @ 1665000: uvm_test_top.env.axi_agent.mon [axi4_mst_monitor] [MON][AXI][R] id=0xe beat=1/5 data=0xffffb7ff resp=AXI4_RESP_OKAY last=0
# UVM_INFO ../10_tb/ahb_slv/ahb_slv_driver.sv(87) @ 1675000: uvm_test_top.env.ahb_agent.drv [ahb_slv_driver] [DRV][AHB][REQ] AHB_READ addr=0x4808 trans=AHB_TRANS_SEQ burst=AHB_BURST_INCR size=4B
# UVM_INFO ../10_tb/ahb_slv/ahb_slv_driver.sv(201) @ 1685000: uvm_test_top.env.ahb_agent.drv [ahb_slv_driver] [DRV][AHB][RSP] AHB_READ addr=0x4808 data=0xffffb7f7 resp=AHB_RESP_OKAY ready_delay=0
# UVM_INFO ../10_tb/ahb_slv/ahb_slv_monitor.sv(119) @ 1685000: uvm_test_top.env.ahb_agent.mon [ahb_slv_monitor] [MON][AHB][TR] AHB AHB_READ addr=0x4808 trans=AHB_TRANS_SEQ burst=AHB_BURST_INCR size=4B mastlock=0 resp=AHB_RESP_OKAY waits=0 | data=0xffffb7f7
# UVM_INFO ../10_tb/env/scoreboard.sv(359) @ 1685000: uvm_test_top.env.scb [scoreboard] [SCB][AHB][PASS] AHB AHB_READ addr=0x4808 trans=AHB_TRANS_SEQ burst=AHB_BURST_INCR size=4B mastlock=0 resp=AHB_RESP_OKAY waits=0 | data=0xffffb7f7 | total=43
# UVM_INFO ../10_tb/axi4_mst/axi4_mst_driver.sv(290) @ 1685000: uvm_test_top.env.axi_agent.drv [axi4_mst_driver] [DRV][AXI][R] id=0xe beat=2/5 data=0xffffb7fb resp=AXI4_RESP_OKAY last=0
# UVM_INFO ../10_tb/axi4_mst/axi4_mst_monitor.sv(256) @ 1685000: uvm_test_top.env.axi_agent.mon [axi4_mst_monitor] [MON][AXI][R] id=0xe beat=2/5 data=0xffffb7fb resp=AXI4_RESP_OKAY last=0
# UVM_INFO ../10_tb/ahb_slv/ahb_slv_driver.sv(87) @ 1695000: uvm_test_top.env.ahb_agent.drv [ahb_slv_driver] [DRV][AHB][REQ] AHB_READ addr=0x480c trans=AHB_TRANS_SEQ burst=AHB_BURST_INCR size=4B
# UVM_INFO ../10_tb/ahb_slv/ahb_slv_driver.sv(201) @ 1705000: uvm_test_top.env.ahb_agent.drv [ahb_slv_driver] [DRV][AHB][RSP] AHB_READ addr=0x480c data=0xffffb7f3 resp=AHB_RESP_OKAY ready_delay=0
# UVM_INFO ../10_tb/ahb_slv/ahb_slv_monitor.sv(119) @ 1705000: uvm_test_top.env.ahb_agent.mon [ahb_slv_monitor] [MON][AHB][TR] AHB AHB_READ addr=0x480c trans=AHB_TRANS_SEQ burst=AHB_BURST_INCR size=4B mastlock=0 resp=AHB_RESP_OKAY waits=0 | data=0xffffb7f3
# UVM_INFO ../10_tb/env/scoreboard.sv(359) @ 1705000: uvm_test_top.env.scb [scoreboard] [SCB][AHB][PASS] AHB AHB_READ addr=0x480c trans=AHB_TRANS_SEQ burst=AHB_BURST_INCR size=4B mastlock=0 resp=AHB_RESP_OKAY waits=0 | data=0xffffb7f3 | total=44
# UVM_INFO ../10_tb/axi4_mst/axi4_mst_driver.sv(290) @ 1705000: uvm_test_top.env.axi_agent.drv [axi4_mst_driver] [DRV][AXI][R] id=0xe beat=3/5 data=0xffffb7f7 resp=AXI4_RESP_OKAY last=0
# UVM_INFO ../10_tb/axi4_mst/axi4_mst_monitor.sv(256) @ 1705000: uvm_test_top.env.axi_agent.mon [axi4_mst_monitor] [MON][AXI][R] id=0xe beat=3/5 data=0xffffb7f7 resp=AXI4_RESP_OKAY last=0
# UVM_INFO ../10_tb/ahb_slv/ahb_slv_driver.sv(87) @ 1715000: uvm_test_top.env.ahb_agent.drv [ahb_slv_driver] [DRV][AHB][REQ] AHB_READ addr=0x4810 trans=AHB_TRANS_SEQ burst=AHB_BURST_INCR size=4B
# UVM_INFO ../10_tb/ahb_slv/ahb_slv_driver.sv(201) @ 1725000: uvm_test_top.env.ahb_agent.drv [ahb_slv_driver] [DRV][AHB][RSP] AHB_READ addr=0x4810 data=0xffffb7ef resp=AHB_RESP_OKAY ready_delay=0
# UVM_INFO ../10_tb/ahb_slv/ahb_slv_monitor.sv(119) @ 1725000: uvm_test_top.env.ahb_agent.mon [ahb_slv_monitor] [MON][AHB][TR] AHB AHB_READ addr=0x4810 trans=AHB_TRANS_SEQ burst=AHB_BURST_INCR size=4B mastlock=0 resp=AHB_RESP_OKAY waits=0 | data=0xffffb7ef
# UVM_INFO ../10_tb/env/scoreboard.sv(359) @ 1725000: uvm_test_top.env.scb [scoreboard] [SCB][AHB][PASS] AHB AHB_READ addr=0x4810 trans=AHB_TRANS_SEQ burst=AHB_BURST_INCR size=4B mastlock=0 resp=AHB_RESP_OKAY waits=0 | data=0xffffb7ef | total=45
# UVM_INFO ../10_tb/axi4_mst/axi4_mst_driver.sv(290) @ 1725000: uvm_test_top.env.axi_agent.drv [axi4_mst_driver] [DRV][AXI][R] id=0xe beat=4/5 data=0xffffb7f3 resp=AXI4_RESP_OKAY last=0
# UVM_INFO ../10_tb/axi4_mst/axi4_mst_monitor.sv(256) @ 1725000: uvm_test_top.env.axi_agent.mon [axi4_mst_monitor] [MON][AXI][R] id=0xe beat=4/5 data=0xffffb7f3 resp=AXI4_RESP_OKAY last=0
# UVM_INFO ../10_tb/axi4_mst/axi4_mst_driver.sv(290) @ 1745000: uvm_test_top.env.axi_agent.drv [axi4_mst_driver] [DRV][AXI][R] id=0xe beat=5/5 data=0xffffb7ef resp=AXI4_RESP_OKAY last=1
# UVM_INFO ../10_tb/axi4_mst/axi4_mst_monitor.sv(256) @ 1745000: uvm_test_top.env.axi_agent.mon [axi4_mst_monitor] [MON][AXI][R] id=0xe beat=5/5 data=0xffffb7ef resp=AXI4_RESP_OKAY last=1
# UVM_INFO ../10_tb/axi4_mst/axi4_mst_monitor.sv(262) @ 1745000: uvm_test_top.env.axi_agent.mon [axi4_mst_monitor] [MON][AXI][RSP] READ id=0xe beats=5
# UVM_INFO ../10_tb/env/scoreboard.sv(506) @ 1745000: uvm_test_top.env.scb [scoreboard] [SCB][AXI][PASS] AXI4 AXI4_READ id=0xe addr=0x4800 burst=AXI4_BURST_INCR beats=5 size=4B lock=0 | read beats=5 | total=15
# UVM_INFO ../10_tb/seq/axi4_mst_seq/axi4_mst_incr_mapping_seq.sv(141) @ 1745000: uvm_test_top.env.axi_agent.sqr@@axi_seq [axi4_mst_incr_mapping_seq] [15] INCR_8beat_sz4B_WR addr=0x4c00 beats=8 expected=AHB_BURST_INCR8
# UVM_INFO ../10_tb/axi4_mst/axi4_mst_driver.sv(105) @ 1745000: uvm_test_top.env.axi_agent.drv [axi4_mst_driver] [DRV][AXI][REQ] AXI4 AXI4_WRITE id=0x6 addr=0x4c00 burst=AXI4_BURST_INCR beats=8 size=4B lock=0 | outstanding=1
# UVM_INFO ../10_tb/axi4_mst/axi4_mst_driver.sv(178) @ 1785000: uvm_test_top.env.axi_agent.drv [axi4_mst_driver] [DRV][AXI][AW] id=0x6 addr=0x4c00 burst=AXI4_BURST_INCR beats=8 size=4B
# UVM_INFO ../10_tb/axi4_mst/axi4_mst_driver.sv(198) @ 1785000: uvm_test_top.env.axi_agent.drv [axi4_mst_driver] [DRV][AXI][W] id=0x6 beat=1/8 data=0xe1e0dfde strb=0xf last=0
# UVM_INFO ../10_tb/ahb_slv/ahb_slv_driver.sv(87) @ 1795000: uvm_test_top.env.ahb_agent.drv [ahb_slv_driver] [DRV][AHB][REQ] AHB_WRITE addr=0x4c00 trans=AHB_TRANS_NONSEQ burst=AHB_BURST_INCR8 size=4B
# UVM_INFO ../10_tb/ahb_slv/ahb_slv_driver.sv(201) @ 1805000: uvm_test_top.env.ahb_agent.drv [ahb_slv_driver] [DRV][AHB][RSP] AHB_WRITE addr=0x4c00 data=0xe1e0dfde resp=AHB_RESP_OKAY ready_delay=0
# UVM_INFO ../10_tb/ahb_slv/ahb_slv_monitor.sv(119) @ 1805000: uvm_test_top.env.ahb_agent.mon [ahb_slv_monitor] [MON][AHB][TR] AHB AHB_WRITE addr=0x4c00 trans=AHB_TRANS_NONSEQ burst=AHB_BURST_INCR8 size=4B mastlock=0 resp=AHB_RESP_OKAY waits=0 | data=0xe1e0dfde
# UVM_INFO ../10_tb/ahb_slv/ahb_slv_driver.sv(87) @ 1815000: uvm_test_top.env.ahb_agent.drv [ahb_slv_driver] [DRV][AHB][REQ] AHB_WRITE addr=0x4c04 trans=AHB_TRANS_SEQ burst=AHB_BURST_INCR8 size=4B
# UVM_INFO ../10_tb/axi4_mst/axi4_mst_driver.sv(198) @ 1815000: uvm_test_top.env.axi_agent.drv [axi4_mst_driver] [DRV][AXI][W] id=0x6 beat=2/8 data=0xe3e2e1e0 strb=0xf last=0
# UVM_INFO ../10_tb/ahb_slv/ahb_slv_driver.sv(201) @ 1825000: uvm_test_top.env.ahb_agent.drv [ahb_slv_driver] [DRV][AHB][RSP] AHB_WRITE addr=0x4c04 data=0xe3e2e1e0 resp=AHB_RESP_OKAY ready_delay=0
# UVM_INFO ../10_tb/ahb_slv/ahb_slv_monitor.sv(119) @ 1825000: uvm_test_top.env.ahb_agent.mon [ahb_slv_monitor] [MON][AHB][TR] AHB AHB_WRITE addr=0x4c04 trans=AHB_TRANS_SEQ burst=AHB_BURST_INCR8 size=4B mastlock=0 resp=AHB_RESP_OKAY waits=0 | data=0xe3e2e1e0
# UVM_INFO ../10_tb/ahb_slv/ahb_slv_driver.sv(87) @ 1835000: uvm_test_top.env.ahb_agent.drv [ahb_slv_driver] [DRV][AHB][REQ] AHB_WRITE addr=0x4c08 trans=AHB_TRANS_SEQ burst=AHB_BURST_INCR8 size=4B
# UVM_INFO ../10_tb/axi4_mst/axi4_mst_driver.sv(198) @ 1835000: uvm_test_top.env.axi_agent.drv [axi4_mst_driver] [DRV][AXI][W] id=0x6 beat=3/8 data=0xe5e4e3e2 strb=0xf last=0
# UVM_INFO ../10_tb/ahb_slv/ahb_slv_driver.sv(201) @ 1845000: uvm_test_top.env.ahb_agent.drv [ahb_slv_driver] [DRV][AHB][RSP] AHB_WRITE addr=0x4c08 data=0xe5e4e3e2 resp=AHB_RESP_OKAY ready_delay=0
