# vsim -c -coverage -sv_seed 43779468 "+UVM_TESTNAME=bridge_ordering_test" "+UVM_VERBOSITY=UVM_HIGH" -l report/logs/bridge_ordering_test_run_1_seed_43779468.log -wlf report/wlf/bridge_ordering_test_run_1_seed_43779468.wlf -do "coverage save -onexit report/coverage/bridge_ordering_test_run_1_seed_43779468.ucdb; run -all; quit -f" work.opt_bridge_tb_top 
# Start time: 09:23:06 on Sep 29,2026
# //  Questa Sim-64
# //  Version 10.6b linux_x86_64 May 25 2017
# //
# //  Copyright 1991-2017 Mentor Graphics Corporation
# //  All Rights Reserved.
# //
# //  QuestaSim and its associated documentation contain trade
# //  secrets and commercial or financial information that are the property of
# //  Mentor Graphics Corporation and are privileged, confidential,
# //  and exempt from disclosure under the Freedom of Information Act,
# //  5 U.S.C. Section 552. Furthermore, this information
# //  is prohibited from disclosure under the Trade Secrets Act,
# //  18 U.S.C. Section 1905.
# //
# Loading sv_std.std
# Loading work.axi4_if(fast)
# Loading work.ahb_if(fast)
# Loading mtiUvm.uvm_pkg
# Loading work.bridge_vip_pkg(fast)
# Loading work.bridge_seq_pkg(fast)
# Loading work.bridge_test_pkg(fast)
# Loading work.bridge_tb_top(fast)
# Loading work.axi4_if(fast)
# Loading work.ahb_if(fast)
# Loading work.axi_ahblite_bridge(fast)
# Loading work.ahb_skid_buf(fast)
# Loading work.axi_slv_if(fast)
# Loading work.ahb_mstr_if(fast)
# Loading work.time_out(fast)
# Loading work.axi4_sva(fast)
# Loading work.ahb_sva(fast)
# Loading mtiUvm.questa_uvm_pkg(fast)
# Loading /cadtools/mentor/Questa_10.6b/questasim/uvm-1.1d/linux_x86_64/uvm_dpi.so
# coverage save -onexit report/coverage/bridge_ordering_test_run_1_seed_43779468.ucdb
#  run -all
# ----------------------------------------------------------------
# UVM-1.1d
# (C) 2007-2013 Mentor Graphics Corporation
# (C) 2007-2013 Cadence Design Systems, Inc.
# (C) 2006-2013 Synopsys, Inc.
# (C) 2011-2013 Cypress Semiconductor Corp.
# ----------------------------------------------------------------
# 
#   ***********       IMPORTANT RELEASE NOTES         ************
# 
#   You are using a version of the UVM library that has been compiled
#   with `UVM_NO_DEPRECATED undefined.
#   See http://www.eda.org/svdb/view.php?id=3313 for more details.
# 
#   You are using a version of the UVM library that has been compiled
#   with `UVM_OBJECT_MUST_HAVE_CONSTRUCTOR undefined.
#   See http://www.eda.org/svdb/view.php?id=3770 for more details.
# 
#       (Specify +UVM_NO_RELNOTES to turn off this notice)
# 
# UVM_INFO verilog_src/questa_uvm_pkg-1.2/src/questa_uvm_pkg.sv(215) @ 0: reporter [Questa UVM] QUESTA_UVM-1.2.3
# UVM_INFO verilog_src/questa_uvm_pkg-1.2/src/questa_uvm_pkg.sv(217) @ 0: reporter [Questa UVM]  questa_uvm::init(+struct)
# UVM_INFO @ 0: reporter [RNTST] Running test bridge_ordering_test...
# UVM_INFO @ 0: reporter [UVMTOP] UVM testbench topology:
# -------------------------------------------------------------------------
# Name                       Type                               Size  Value
# -------------------------------------------------------------------------
# uvm_test_top               bridge_ordering_test               -     @490 
#   env                      vip_env                            -     @508 
#     ahb_agent              ahb_slv_agent                      -     @529 
#       ap                   uvm_analysis_port                  -     @667 
#       cov                  ahb_slv_coverage                   -     @693 
#         analysis_imp       uvm_analysis_imp                   -     @700 
#         trans_export       uvm_analysis_imp_ahb_trans         -     @841 
#       drv                  ahb_slv_driver                     -     @818 
#         rsp_port           uvm_analysis_port                  -     @833 
#         seq_item_port      uvm_seq_item_pull_port             -     @825 
#       mon                  ahb_slv_monitor                    -     @686 
#         ap                 uvm_analysis_port                  -     @850 
#         trans_ap           uvm_analysis_port                  -     @858 
#       sqr                  ahb_slv_sequencer                  -     @709 
#         rsp_export         uvm_analysis_export                -     @716 
#         seq_item_export    uvm_seq_item_pull_imp              -     @810 
#         arbitration_queue  array                              0     -    
#         lock_queue         array                              0     -    
#         num_last_reqs      integral                           32    'd1  
#         num_last_rsps      integral                           32    'd1  
#       trans_ap             uvm_analysis_port                  -     @675 
#     axi_agent              axi4_mst_agent                     -     @522 
#       ap                   uvm_analysis_port                  -     @881 
#       cov                  axi4_mst_coverage                  -     @899 
#         analysis_imp       uvm_analysis_imp                   -     @906 
#       drv                  axi4_mst_driver                    -     @1024
#         rsp_port           uvm_analysis_port                  -     @1039
#         seq_item_port      uvm_seq_item_pull_port             -     @1031
#       mon                  axi4_mst_monitor                   -     @892 
#         ap                 uvm_analysis_port                  -     @1056
#         req_ap             uvm_analysis_port                  -     @1048
#       req_ap               uvm_analysis_port                  -     @873 
#       sqr                  axi4_mst_sequencer                 -     @915 
#         rsp_export         uvm_analysis_export                -     @922 
#         seq_item_export    uvm_seq_item_pull_imp              -     @1016
#         arbitration_queue  array                              0     -    
#         lock_queue         array                              0     -    
#         num_last_reqs      integral                           32    'd1  
#         num_last_rsps      integral                           32    'd1  
#     cov                    e2e_cov                            -     @659 
#       actual_ahb_export    uvm_analysis_imp_e2e_actual_ahb    -     @1086
#       axi_req_export       uvm_analysis_imp_e2e_axi_req       -     @1070
#       axi_rsp_export       uvm_analysis_imp_e2e_axi_rsp       -     @1094
#       expected_ahb_export  uvm_analysis_imp_e2e_expected_ahb  -     @1078
#     pred                   predictor                          -     @645 
#       axi_request_export   uvm_analysis_imp_axi_request       -     @1102
#       expected_ahb_ap      uvm_analysis_port                  -     @1110
#       expected_axi_ap      uvm_analysis_port                  -     @1118
#     scb                    scoreboard                         -     @652 
#       actual_ahb_export    uvm_analysis_imp_actual_ahb        -     @1134
#       actual_axi_export    uvm_analysis_imp_actual_axi        -     @1150
#       expected_ahb_export  uvm_analysis_imp_expected_ahb      -     @1126
#       expected_axi_export  uvm_analysis_imp_expected_axi      -     @1142
#     vseqr                  virtual_sequencer                  -     @536 
#       rsp_export           uvm_analysis_export                -     @543 
#       seq_item_export      uvm_seq_item_pull_imp              -     @637 
#       arbitration_queue    array                              0     -    
#       lock_queue           array                              0     -    
#       num_last_reqs        integral                           32    'd1  
#       num_last_rsps        integral                           32    'd1  
# -------------------------------------------------------------------------
# 
# UVM_INFO verilog_src/questa_uvm_pkg-1.2/src/questa_uvm_pkg.sv(277) @ 0: reporter [Questa UVM] End Of Elaboration
# UVM_INFO ../10_tb/bridge_tb_top.sv(47) @ 95000: reporter [BRIDGE_TB_TOP] Power-on reset released
# UVM_INFO ../10_tb/seq/axi4_mst_seq/axi4_mst_ordering_seq.sv(194) @ 95000: uvm_test_top.env.axi_agent.sqr@@axi_seq [axi4_mst_ordering_seq] Ordering: base=0x2000 slot=256 bytes, stress=24 requests over 8 slots
# UVM_INFO ../10_tb/axi4_mst/axi4_mst_driver.sv(105) @ 95000: uvm_test_top.env.axi_agent.drv [axi4_mst_driver] [DRV][AXI][REQ] AXI4 AXI4_READ id=0x3 addr=0x2000 burst=AXI4_BURST_INCR beats=1 size=4B lock=0 | outstanding=1
# UVM_INFO ../10_tb/axi4_mst/axi4_mst_driver.sv(105) @ 95000: uvm_test_top.env.axi_agent.drv [axi4_mst_driver] [DRV][AXI][REQ] AXI4 AXI4_READ id=0x3 addr=0x2100 burst=AXI4_BURST_INCR beats=4 size=4B lock=0 | outstanding=2
# UVM_INFO ../10_tb/axi4_mst/axi4_mst_driver.sv(105) @ 95000: uvm_test_top.env.axi_agent.drv [axi4_mst_driver] [DRV][AXI][REQ] AXI4 AXI4_READ id=0x3 addr=0x2200 burst=AXI4_BURST_INCR beats=2 size=4B lock=0 | outstanding=3
# UVM_INFO ../10_tb/axi4_mst/axi4_mst_driver.sv(105) @ 95000: uvm_test_top.env.axi_agent.drv [axi4_mst_driver] [DRV][AXI][REQ] AXI4 AXI4_READ id=0x3 addr=0x2300 burst=AXI4_BURST_INCR beats=8 size=4B lock=0 | outstanding=4
# UVM_INFO ../10_tb/axi4_mst/axi4_mst_driver.sv(105) @ 95000: uvm_test_top.env.axi_agent.drv [axi4_mst_driver] [DRV][AXI][REQ] AXI4 AXI4_READ id=0x3 addr=0x2400 burst=AXI4_BURST_INCR beats=1 size=4B lock=0 | outstanding=5
# UVM_INFO ../10_tb/axi4_mst/axi4_mst_driver.sv(105) @ 95000: uvm_test_top.env.axi_agent.drv [axi4_mst_driver] [DRV][AXI][REQ] AXI4 AXI4_READ id=0x3 addr=0x2500 burst=AXI4_BURST_INCR beats=4 size=4B lock=0 | outstanding=6
# UVM_INFO ../10_tb/axi4_mst/axi4_mst_driver.sv(105) @ 95000: uvm_test_top.env.axi_agent.drv [axi4_mst_driver] [DRV][AXI][REQ] AXI4 AXI4_READ id=0x3 addr=0x2600 burst=AXI4_BURST_INCR beats=1 size=4B lock=0 | outstanding=7
# UVM_INFO ../10_tb/axi4_mst/axi4_mst_driver.sv(105) @ 95000: uvm_test_top.env.axi_agent.drv [axi4_mst_driver] [DRV][AXI][REQ] AXI4 AXI4_READ id=0x3 addr=0x2700 burst=AXI4_BURST_INCR beats=2 size=4B lock=0 | outstanding=8
# UVM_INFO ../10_tb/axi4_mst/axi4_mst_driver.sv(225) @ 125000: uvm_test_top.env.axi_agent.drv [axi4_mst_driver] [DRV][AXI][AR] id=0x3 addr=0x2000 burst=AXI4_BURST_INCR beats=1 size=4B
# UVM_INFO ../10_tb/axi4_mst/axi4_mst_monitor.sv(211) @ 125000: uvm_test_top.env.axi_agent.mon [axi4_mst_monitor] [MON][AXI][REQ] AXI4 AXI4_READ id=0x3 addr=0x2000 burst=AXI4_BURST_INCR beats=1 size=4B lock=0
# UVM_INFO ../10_tb/env/predictor.sv(75) @ 125000: uvm_test_top.env.pred [predictor] [PRED][AXI][IN] AXI4 AXI4_READ id=0x3 addr=0x2000 burst=AXI4_BURST_INCR beats=1 size=4B lock=0 | queued=1
# UVM_INFO ../10_tb/env/predictor.sv(138) @ 125000: uvm_test_top.env.pred [predictor] [PRED][MAP] AXI4 AXI4_READ id=0x3 addr=0x2000 burst=AXI4_BURST_INCR beats=1 size=4B lock=0 -> AHB burst=AHB_BURST_SINGLE size=4B crosses_1kb=0
# UVM_INFO ../10_tb/env/predictor.sv(175) @ 125000: uvm_test_top.env.pred [predictor] [PRED][AHB] beat=1/1 | AHB AHB_READ addr=0x2000 trans=AHB_TRANS_NONSEQ burst=AHB_BURST_SINGLE size=4B mastlock=0 resp=AHB_RESP_OKAY waits=0
# UVM_INFO ../10_tb/ahb_slv/ahb_slv_driver.sv(87) @ 135000: uvm_test_top.env.ahb_agent.drv [ahb_slv_driver] [DRV][AHB][REQ] AHB_READ addr=0x2000 trans=AHB_TRANS_NONSEQ burst=AHB_BURST_SINGLE size=4B
# UVM_INFO ../10_tb/ahb_slv/ahb_slv_driver.sv(201) @ 145000: uvm_test_top.env.ahb_agent.drv [ahb_slv_driver] [DRV][AHB][RSP] AHB_READ addr=0x2000 data=0xffffdfff resp=AHB_RESP_OKAY ready_delay=0
# UVM_INFO ../10_tb/ahb_slv/ahb_slv_monitor.sv(119) @ 145000: uvm_test_top.env.ahb_agent.mon [ahb_slv_monitor] [MON][AHB][TR] AHB AHB_READ addr=0x2000 trans=AHB_TRANS_NONSEQ burst=AHB_BURST_SINGLE size=4B mastlock=0 resp=AHB_RESP_OKAY waits=0 | data=0xffffdfff
# UVM_INFO ../10_tb/env/scoreboard.sv(359) @ 145000: uvm_test_top.env.scb [scoreboard] [SCB][AHB][PASS] AHB AHB_READ addr=0x2000 trans=AHB_TRANS_NONSEQ burst=AHB_BURST_SINGLE size=4B mastlock=0 resp=AHB_RESP_OKAY waits=0 | data=0xffffdfff | total=1
# UVM_INFO ../10_tb/axi4_mst/axi4_mst_driver.sv(290) @ 165000: uvm_test_top.env.axi_agent.drv [axi4_mst_driver] [DRV][AXI][R] id=0x3 beat=1/1 data=0xffffdfff resp=AXI4_RESP_OKAY last=1
# UVM_INFO ../10_tb/axi4_mst/axi4_mst_monitor.sv(256) @ 165000: uvm_test_top.env.axi_agent.mon [axi4_mst_monitor] [MON][AXI][R] id=0x3 beat=1/1 data=0xffffdfff resp=AXI4_RESP_OKAY last=1
# UVM_INFO ../10_tb/axi4_mst/axi4_mst_monitor.sv(262) @ 165000: uvm_test_top.env.axi_agent.mon [axi4_mst_monitor] [MON][AXI][RSP] READ id=0x3 beats=1
# UVM_INFO ../10_tb/env/scoreboard.sv(506) @ 165000: uvm_test_top.env.scb [scoreboard] [SCB][AXI][PASS] AXI4 AXI4_READ id=0x3 addr=0x2000 burst=AXI4_BURST_INCR beats=1 size=4B lock=0 | read beats=1 | total=1
# UVM_INFO ../10_tb/axi4_mst/axi4_mst_driver.sv(225) @ 175000: uvm_test_top.env.axi_agent.drv [axi4_mst_driver] [DRV][AXI][AR] id=0x3 addr=0x2100 burst=AXI4_BURST_INCR beats=4 size=4B
# UVM_INFO ../10_tb/axi4_mst/axi4_mst_monitor.sv(211) @ 175000: uvm_test_top.env.axi_agent.mon [axi4_mst_monitor] [MON][AXI][REQ] AXI4 AXI4_READ id=0x3 addr=0x2100 burst=AXI4_BURST_INCR beats=4 size=4B lock=0
# UVM_INFO ../10_tb/env/predictor.sv(75) @ 175000: uvm_test_top.env.pred [predictor] [PRED][AXI][IN] AXI4 AXI4_READ id=0x3 addr=0x2100 burst=AXI4_BURST_INCR beats=4 size=4B lock=0 | queued=1
# UVM_INFO ../10_tb/env/predictor.sv(138) @ 175000: uvm_test_top.env.pred [predictor] [PRED][MAP] AXI4 AXI4_READ id=0x3 addr=0x2100 burst=AXI4_BURST_INCR beats=4 size=4B lock=0 -> AHB burst=AHB_BURST_INCR4 size=4B crosses_1kb=0
# UVM_INFO ../10_tb/env/predictor.sv(175) @ 175000: uvm_test_top.env.pred [predictor] [PRED][AHB] beat=1/4 | AHB AHB_READ addr=0x2100 trans=AHB_TRANS_NONSEQ burst=AHB_BURST_INCR4 size=4B mastlock=0 resp=AHB_RESP_OKAY waits=0
# UVM_INFO ../10_tb/env/predictor.sv(175) @ 175000: uvm_test_top.env.pred [predictor] [PRED][AHB] beat=2/4 | AHB AHB_READ addr=0x2104 trans=AHB_TRANS_SEQ burst=AHB_BURST_INCR4 size=4B mastlock=0 resp=AHB_RESP_OKAY waits=0
# UVM_INFO ../10_tb/env/predictor.sv(175) @ 175000: uvm_test_top.env.pred [predictor] [PRED][AHB] beat=3/4 | AHB AHB_READ addr=0x2108 trans=AHB_TRANS_SEQ burst=AHB_BURST_INCR4 size=4B mastlock=0 resp=AHB_RESP_OKAY waits=0
# UVM_INFO ../10_tb/env/predictor.sv(175) @ 175000: uvm_test_top.env.pred [predictor] [PRED][AHB] beat=4/4 | AHB AHB_READ addr=0x210c trans=AHB_TRANS_SEQ burst=AHB_BURST_INCR4 size=4B mastlock=0 resp=AHB_RESP_OKAY waits=0
# UVM_INFO ../10_tb/ahb_slv/ahb_slv_driver.sv(87) @ 185000: uvm_test_top.env.ahb_agent.drv [ahb_slv_driver] [DRV][AHB][REQ] AHB_READ addr=0x2100 trans=AHB_TRANS_NONSEQ burst=AHB_BURST_INCR4 size=4B
# UVM_INFO ../10_tb/ahb_slv/ahb_slv_driver.sv(201) @ 195000: uvm_test_top.env.ahb_agent.drv [ahb_slv_driver] [DRV][AHB][RSP] AHB_READ addr=0x2100 data=0xffffdeff resp=AHB_RESP_OKAY ready_delay=0
# UVM_INFO ../10_tb/ahb_slv/ahb_slv_monitor.sv(119) @ 195000: uvm_test_top.env.ahb_agent.mon [ahb_slv_monitor] [MON][AHB][TR] AHB AHB_READ addr=0x2100 trans=AHB_TRANS_NONSEQ burst=AHB_BURST_INCR4 size=4B mastlock=0 resp=AHB_RESP_OKAY waits=0 | data=0xffffdeff
# UVM_INFO ../10_tb/env/scoreboard.sv(359) @ 195000: uvm_test_top.env.scb [scoreboard] [SCB][AHB][PASS] AHB AHB_READ addr=0x2100 trans=AHB_TRANS_NONSEQ burst=AHB_BURST_INCR4 size=4B mastlock=0 resp=AHB_RESP_OKAY waits=0 | data=0xffffdeff | total=2
# UVM_INFO ../10_tb/ahb_slv/ahb_slv_driver.sv(87) @ 205000: uvm_test_top.env.ahb_agent.drv [ahb_slv_driver] [DRV][AHB][REQ] AHB_READ addr=0x2104 trans=AHB_TRANS_SEQ burst=AHB_BURST_INCR4 size=4B
# UVM_INFO ../10_tb/ahb_slv/ahb_slv_driver.sv(201) @ 215000: uvm_test_top.env.ahb_agent.drv [ahb_slv_driver] [DRV][AHB][RSP] AHB_READ addr=0x2104 data=0xffffdefb resp=AHB_RESP_OKAY ready_delay=0
# UVM_INFO ../10_tb/ahb_slv/ahb_slv_monitor.sv(119) @ 215000: uvm_test_top.env.ahb_agent.mon [ahb_slv_monitor] [MON][AHB][TR] AHB AHB_READ addr=0x2104 trans=AHB_TRANS_SEQ burst=AHB_BURST_INCR4 size=4B mastlock=0 resp=AHB_RESP_OKAY waits=0 | data=0xffffdefb
# UVM_INFO ../10_tb/env/scoreboard.sv(359) @ 215000: uvm_test_top.env.scb [scoreboard] [SCB][AHB][PASS] AHB AHB_READ addr=0x2104 trans=AHB_TRANS_SEQ burst=AHB_BURST_INCR4 size=4B mastlock=0 resp=AHB_RESP_OKAY waits=0 | data=0xffffdefb | total=3
# UVM_INFO ../10_tb/axi4_mst/axi4_mst_driver.sv(290) @ 215000: uvm_test_top.env.axi_agent.drv [axi4_mst_driver] [DRV][AXI][R] id=0x3 beat=1/4 data=0xffffdeff resp=AXI4_RESP_OKAY last=0
# UVM_INFO ../10_tb/axi4_mst/axi4_mst_monitor.sv(256) @ 215000: uvm_test_top.env.axi_agent.mon [axi4_mst_monitor] [MON][AXI][R] id=0x3 beat=1/4 data=0xffffdeff resp=AXI4_RESP_OKAY last=0
# UVM_INFO ../10_tb/ahb_slv/ahb_slv_driver.sv(87) @ 225000: uvm_test_top.env.ahb_agent.drv [ahb_slv_driver] [DRV][AHB][REQ] AHB_READ addr=0x2108 trans=AHB_TRANS_SEQ burst=AHB_BURST_INCR4 size=4B
# UVM_INFO ../10_tb/ahb_slv/ahb_slv_driver.sv(201) @ 235000: uvm_test_top.env.ahb_agent.drv [ahb_slv_driver] [DRV][AHB][RSP] AHB_READ addr=0x2108 data=0xffffdef7 resp=AHB_RESP_OKAY ready_delay=0
# UVM_INFO ../10_tb/ahb_slv/ahb_slv_monitor.sv(119) @ 235000: uvm_test_top.env.ahb_agent.mon [ahb_slv_monitor] [MON][AHB][TR] AHB AHB_READ addr=0x2108 trans=AHB_TRANS_SEQ burst=AHB_BURST_INCR4 size=4B mastlock=0 resp=AHB_RESP_OKAY waits=0 | data=0xffffdef7
# UVM_INFO ../10_tb/env/scoreboard.sv(359) @ 235000: uvm_test_top.env.scb [scoreboard] [SCB][AHB][PASS] AHB AHB_READ addr=0x2108 trans=AHB_TRANS_SEQ burst=AHB_BURST_INCR4 size=4B mastlock=0 resp=AHB_RESP_OKAY waits=0 | data=0xffffdef7 | total=4
# UVM_INFO ../10_tb/axi4_mst/axi4_mst_driver.sv(290) @ 235000: uvm_test_top.env.axi_agent.drv [axi4_mst_driver] [DRV][AXI][R] id=0x3 beat=2/4 data=0xffffdefb resp=AXI4_RESP_OKAY last=0
# UVM_INFO ../10_tb/axi4_mst/axi4_mst_monitor.sv(256) @ 235000: uvm_test_top.env.axi_agent.mon [axi4_mst_monitor] [MON][AXI][R] id=0x3 beat=2/4 data=0xffffdefb resp=AXI4_RESP_OKAY last=0
# UVM_INFO ../10_tb/ahb_slv/ahb_slv_driver.sv(87) @ 245000: uvm_test_top.env.ahb_agent.drv [ahb_slv_driver] [DRV][AHB][REQ] AHB_READ addr=0x210c trans=AHB_TRANS_SEQ burst=AHB_BURST_INCR4 size=4B
# UVM_INFO ../10_tb/ahb_slv/ahb_slv_driver.sv(201) @ 255000: uvm_test_top.env.ahb_agent.drv [ahb_slv_driver] [DRV][AHB][RSP] AHB_READ addr=0x210c data=0xffffdef3 resp=AHB_RESP_OKAY ready_delay=0
# UVM_INFO ../10_tb/ahb_slv/ahb_slv_monitor.sv(119) @ 255000: uvm_test_top.env.ahb_agent.mon [ahb_slv_monitor] [MON][AHB][TR] AHB AHB_READ addr=0x210c trans=AHB_TRANS_SEQ burst=AHB_BURST_INCR4 size=4B mastlock=0 resp=AHB_RESP_OKAY waits=0 | data=0xffffdef3
# UVM_INFO ../10_tb/env/scoreboard.sv(359) @ 255000: uvm_test_top.env.scb [scoreboard] [SCB][AHB][PASS] AHB AHB_READ addr=0x210c trans=AHB_TRANS_SEQ burst=AHB_BURST_INCR4 size=4B mastlock=0 resp=AHB_RESP_OKAY waits=0 | data=0xffffdef3 | total=5
# UVM_INFO ../10_tb/axi4_mst/axi4_mst_driver.sv(290) @ 255000: uvm_test_top.env.axi_agent.drv [axi4_mst_driver] [DRV][AXI][R] id=0x3 beat=3/4 data=0xffffdef7 resp=AXI4_RESP_OKAY last=0
# UVM_INFO ../10_tb/axi4_mst/axi4_mst_monitor.sv(256) @ 255000: uvm_test_top.env.axi_agent.mon [axi4_mst_monitor] [MON][AXI][R] id=0x3 beat=3/4 data=0xffffdef7 resp=AXI4_RESP_OKAY last=0
# UVM_INFO ../10_tb/axi4_mst/axi4_mst_driver.sv(290) @ 275000: uvm_test_top.env.axi_agent.drv [axi4_mst_driver] [DRV][AXI][R] id=0x3 beat=4/4 data=0xffffdef3 resp=AXI4_RESP_OKAY last=1
# UVM_INFO ../10_tb/axi4_mst/axi4_mst_monitor.sv(256) @ 275000: uvm_test_top.env.axi_agent.mon [axi4_mst_monitor] [MON][AXI][R] id=0x3 beat=4/4 data=0xffffdef3 resp=AXI4_RESP_OKAY last=1
# UVM_INFO ../10_tb/axi4_mst/axi4_mst_monitor.sv(262) @ 275000: uvm_test_top.env.axi_agent.mon [axi4_mst_monitor] [MON][AXI][RSP] READ id=0x3 beats=4
# UVM_INFO ../10_tb/env/scoreboard.sv(506) @ 275000: uvm_test_top.env.scb [scoreboard] [SCB][AXI][PASS] AXI4 AXI4_READ id=0x3 addr=0x2100 burst=AXI4_BURST_INCR beats=4 size=4B lock=0 | read beats=4 | total=2
# UVM_INFO ../10_tb/axi4_mst/axi4_mst_driver.sv(225) @ 285000: uvm_test_top.env.axi_agent.drv [axi4_mst_driver] [DRV][AXI][AR] id=0x3 addr=0x2200 burst=AXI4_BURST_INCR beats=2 size=4B
# UVM_INFO ../10_tb/axi4_mst/axi4_mst_monitor.sv(211) @ 285000: uvm_test_top.env.axi_agent.mon [axi4_mst_monitor] [MON][AXI][REQ] AXI4 AXI4_READ id=0x3 addr=0x2200 burst=AXI4_BURST_INCR beats=2 size=4B lock=0
# UVM_INFO ../10_tb/env/predictor.sv(75) @ 285000: uvm_test_top.env.pred [predictor] [PRED][AXI][IN] AXI4 AXI4_READ id=0x3 addr=0x2200 burst=AXI4_BURST_INCR beats=2 size=4B lock=0 | queued=1
# UVM_INFO ../10_tb/env/predictor.sv(138) @ 285000: uvm_test_top.env.pred [predictor] [PRED][MAP] AXI4 AXI4_READ id=0x3 addr=0x2200 burst=AXI4_BURST_INCR beats=2 size=4B lock=0 -> AHB burst=AHB_BURST_INCR size=4B crosses_1kb=0
# UVM_INFO ../10_tb/env/predictor.sv(175) @ 285000: uvm_test_top.env.pred [predictor] [PRED][AHB] beat=1/2 | AHB AHB_READ addr=0x2200 trans=AHB_TRANS_NONSEQ burst=AHB_BURST_INCR size=4B mastlock=0 resp=AHB_RESP_OKAY waits=0
# UVM_INFO ../10_tb/env/predictor.sv(175) @ 285000: uvm_test_top.env.pred [predictor] [PRED][AHB] beat=2/2 | AHB AHB_READ addr=0x2204 trans=AHB_TRANS_SEQ burst=AHB_BURST_INCR size=4B mastlock=0 resp=AHB_RESP_OKAY waits=0
# UVM_INFO ../10_tb/ahb_slv/ahb_slv_driver.sv(87) @ 295000: uvm_test_top.env.ahb_agent.drv [ahb_slv_driver] [DRV][AHB][REQ] AHB_READ addr=0x2200 trans=AHB_TRANS_NONSEQ burst=AHB_BURST_INCR size=4B
# UVM_INFO ../10_tb/ahb_slv/ahb_slv_driver.sv(201) @ 305000: uvm_test_top.env.ahb_agent.drv [ahb_slv_driver] [DRV][AHB][RSP] AHB_READ addr=0x2200 data=0xffffddff resp=AHB_RESP_OKAY ready_delay=0
# UVM_INFO ../10_tb/ahb_slv/ahb_slv_monitor.sv(119) @ 305000: uvm_test_top.env.ahb_agent.mon [ahb_slv_monitor] [MON][AHB][TR] AHB AHB_READ addr=0x2200 trans=AHB_TRANS_NONSEQ burst=AHB_BURST_INCR size=4B mastlock=0 resp=AHB_RESP_OKAY waits=0 | data=0xffffddff
# UVM_INFO ../10_tb/env/scoreboard.sv(359) @ 305000: uvm_test_top.env.scb [scoreboard] [SCB][AHB][PASS] AHB AHB_READ addr=0x2200 trans=AHB_TRANS_NONSEQ burst=AHB_BURST_INCR size=4B mastlock=0 resp=AHB_RESP_OKAY waits=0 | data=0xffffddff | total=6
# UVM_INFO ../10_tb/ahb_slv/ahb_slv_driver.sv(87) @ 315000: uvm_test_top.env.ahb_agent.drv [ahb_slv_driver] [DRV][AHB][REQ] AHB_READ addr=0x2204 trans=AHB_TRANS_SEQ burst=AHB_BURST_INCR size=4B
# UVM_INFO ../10_tb/ahb_slv/ahb_slv_driver.sv(201) @ 325000: uvm_test_top.env.ahb_agent.drv [ahb_slv_driver] [DRV][AHB][RSP] AHB_READ addr=0x2204 data=0xffffddfb resp=AHB_RESP_OKAY ready_delay=0
# UVM_INFO ../10_tb/ahb_slv/ahb_slv_monitor.sv(119) @ 325000: uvm_test_top.env.ahb_agent.mon [ahb_slv_monitor] [MON][AHB][TR] AHB AHB_READ addr=0x2204 trans=AHB_TRANS_SEQ burst=AHB_BURST_INCR size=4B mastlock=0 resp=AHB_RESP_OKAY waits=0 | data=0xffffddfb
# UVM_INFO ../10_tb/env/scoreboard.sv(359) @ 325000: uvm_test_top.env.scb [scoreboard] [SCB][AHB][PASS] AHB AHB_READ addr=0x2204 trans=AHB_TRANS_SEQ burst=AHB_BURST_INCR size=4B mastlock=0 resp=AHB_RESP_OKAY waits=0 | data=0xffffddfb | total=7
# UVM_INFO ../10_tb/axi4_mst/axi4_mst_driver.sv(290) @ 325000: uvm_test_top.env.axi_agent.drv [axi4_mst_driver] [DRV][AXI][R] id=0x3 beat=1/2 data=0xffffddff resp=AXI4_RESP_OKAY last=0
# UVM_INFO ../10_tb/axi4_mst/axi4_mst_monitor.sv(256) @ 325000: uvm_test_top.env.axi_agent.mon [axi4_mst_monitor] [MON][AXI][R] id=0x3 beat=1/2 data=0xffffddff resp=AXI4_RESP_OKAY last=0
# UVM_INFO ../10_tb/axi4_mst/axi4_mst_driver.sv(290) @ 345000: uvm_test_top.env.axi_agent.drv [axi4_mst_driver] [DRV][AXI][R] id=0x3 beat=2/2 data=0xffffddfb resp=AXI4_RESP_OKAY last=1
# UVM_INFO ../10_tb/axi4_mst/axi4_mst_monitor.sv(256) @ 345000: uvm_test_top.env.axi_agent.mon [axi4_mst_monitor] [MON][AXI][R] id=0x3 beat=2/2 data=0xffffddfb resp=AXI4_RESP_OKAY last=1
# UVM_INFO ../10_tb/axi4_mst/axi4_mst_monitor.sv(262) @ 345000: uvm_test_top.env.axi_agent.mon [axi4_mst_monitor] [MON][AXI][RSP] READ id=0x3 beats=2
# UVM_INFO ../10_tb/env/scoreboard.sv(506) @ 345000: uvm_test_top.env.scb [scoreboard] [SCB][AXI][PASS] AXI4 AXI4_READ id=0x3 addr=0x2200 burst=AXI4_BURST_INCR beats=2 size=4B lock=0 | read beats=2 | total=3
# UVM_INFO ../10_tb/axi4_mst/axi4_mst_driver.sv(225) @ 355000: uvm_test_top.env.axi_agent.drv [axi4_mst_driver] [DRV][AXI][AR] id=0x3 addr=0x2300 burst=AXI4_BURST_INCR beats=8 size=4B
# UVM_INFO ../10_tb/axi4_mst/axi4_mst_monitor.sv(211) @ 355000: uvm_test_top.env.axi_agent.mon [axi4_mst_monitor] [MON][AXI][REQ] AXI4 AXI4_READ id=0x3 addr=0x2300 burst=AXI4_BURST_INCR beats=8 size=4B lock=0
# UVM_INFO ../10_tb/env/predictor.sv(75) @ 355000: uvm_test_top.env.pred [predictor] [PRED][AXI][IN] AXI4 AXI4_READ id=0x3 addr=0x2300 burst=AXI4_BURST_INCR beats=8 size=4B lock=0 | queued=1
# UVM_INFO ../10_tb/env/predictor.sv(138) @ 355000: uvm_test_top.env.pred [predictor] [PRED][MAP] AXI4 AXI4_READ id=0x3 addr=0x2300 burst=AXI4_BURST_INCR beats=8 size=4B lock=0 -> AHB burst=AHB_BURST_INCR8 size=4B crosses_1kb=0
# UVM_INFO ../10_tb/env/predictor.sv(175) @ 355000: uvm_test_top.env.pred [predictor] [PRED][AHB] beat=1/8 | AHB AHB_READ addr=0x2300 trans=AHB_TRANS_NONSEQ burst=AHB_BURST_INCR8 size=4B mastlock=0 resp=AHB_RESP_OKAY waits=0
# UVM_INFO ../10_tb/env/predictor.sv(175) @ 355000: uvm_test_top.env.pred [predictor] [PRED][AHB] beat=2/8 | AHB AHB_READ addr=0x2304 trans=AHB_TRANS_SEQ burst=AHB_BURST_INCR8 size=4B mastlock=0 resp=AHB_RESP_OKAY waits=0
# UVM_INFO ../10_tb/env/predictor.sv(175) @ 355000: uvm_test_top.env.pred [predictor] [PRED][AHB] beat=3/8 | AHB AHB_READ addr=0x2308 trans=AHB_TRANS_SEQ burst=AHB_BURST_INCR8 size=4B mastlock=0 resp=AHB_RESP_OKAY waits=0
# UVM_INFO ../10_tb/env/predictor.sv(175) @ 355000: uvm_test_top.env.pred [predictor] [PRED][AHB] beat=4/8 | AHB AHB_READ addr=0x230c trans=AHB_TRANS_SEQ burst=AHB_BURST_INCR8 size=4B mastlock=0 resp=AHB_RESP_OKAY waits=0
# UVM_INFO ../10_tb/env/predictor.sv(175) @ 355000: uvm_test_top.env.pred [predictor] [PRED][AHB] beat=5/8 | AHB AHB_READ addr=0x2310 trans=AHB_TRANS_SEQ burst=AHB_BURST_INCR8 size=4B mastlock=0 resp=AHB_RESP_OKAY waits=0
# UVM_INFO ../10_tb/env/predictor.sv(175) @ 355000: uvm_test_top.env.pred [predictor] [PRED][AHB] beat=6/8 | AHB AHB_READ addr=0x2314 trans=AHB_TRANS_SEQ burst=AHB_BURST_INCR8 size=4B mastlock=0 resp=AHB_RESP_OKAY waits=0
# UVM_INFO ../10_tb/env/predictor.sv(175) @ 355000: uvm_test_top.env.pred [predictor] [PRED][AHB] beat=7/8 | AHB AHB_READ addr=0x2318 trans=AHB_TRANS_SEQ burst=AHB_BURST_INCR8 size=4B mastlock=0 resp=AHB_RESP_OKAY waits=0
# UVM_INFO ../10_tb/env/predictor.sv(175) @ 355000: uvm_test_top.env.pred [predictor] [PRED][AHB] beat=8/8 | AHB AHB_READ addr=0x231c trans=AHB_TRANS_SEQ burst=AHB_BURST_INCR8 size=4B mastlock=0 resp=AHB_RESP_OKAY waits=0
# UVM_INFO ../10_tb/ahb_slv/ahb_slv_driver.sv(87) @ 365000: uvm_test_top.env.ahb_agent.drv [ahb_slv_driver] [DRV][AHB][REQ] AHB_READ addr=0x2300 trans=AHB_TRANS_NONSEQ burst=AHB_BURST_INCR8 size=4B
# UVM_INFO ../10_tb/ahb_slv/ahb_slv_driver.sv(201) @ 375000: uvm_test_top.env.ahb_agent.drv [ahb_slv_driver] [DRV][AHB][RSP] AHB_READ addr=0x2300 data=0xffffdcff resp=AHB_RESP_OKAY ready_delay=0
# UVM_INFO ../10_tb/ahb_slv/ahb_slv_monitor.sv(119) @ 375000: uvm_test_top.env.ahb_agent.mon [ahb_slv_monitor] [MON][AHB][TR] AHB AHB_READ addr=0x2300 trans=AHB_TRANS_NONSEQ burst=AHB_BURST_INCR8 size=4B mastlock=0 resp=AHB_RESP_OKAY waits=0 | data=0xffffdcff
# UVM_INFO ../10_tb/env/scoreboard.sv(359) @ 375000: uvm_test_top.env.scb [scoreboard] [SCB][AHB][PASS] AHB AHB_READ addr=0x2300 trans=AHB_TRANS_NONSEQ burst=AHB_BURST_INCR8 size=4B mastlock=0 resp=AHB_RESP_OKAY waits=0 | data=0xffffdcff | total=8
# UVM_INFO ../10_tb/ahb_slv/ahb_slv_driver.sv(87) @ 385000: uvm_test_top.env.ahb_agent.drv [ahb_slv_driver] [DRV][AHB][REQ] AHB_READ addr=0x2304 trans=AHB_TRANS_SEQ burst=AHB_BURST_INCR8 size=4B
# UVM_INFO ../10_tb/ahb_slv/ahb_slv_driver.sv(201) @ 395000: uvm_test_top.env.ahb_agent.drv [ahb_slv_driver] [DRV][AHB][RSP] AHB_READ addr=0x2304 data=0xffffdcfb resp=AHB_RESP_OKAY ready_delay=0
# UVM_INFO ../10_tb/ahb_slv/ahb_slv_monitor.sv(119) @ 395000: uvm_test_top.env.ahb_agent.mon [ahb_slv_monitor] [MON][AHB][TR] AHB AHB_READ addr=0x2304 trans=AHB_TRANS_SEQ burst=AHB_BURST_INCR8 size=4B mastlock=0 resp=AHB_RESP_OKAY waits=0 | data=0xffffdcfb
# UVM_INFO ../10_tb/env/scoreboard.sv(359) @ 395000: uvm_test_top.env.scb [scoreboard] [SCB][AHB][PASS] AHB AHB_READ addr=0x2304 trans=AHB_TRANS_SEQ burst=AHB_BURST_INCR8 size=4B mastlock=0 resp=AHB_RESP_OKAY waits=0 | data=0xffffdcfb | total=9
# UVM_INFO ../10_tb/axi4_mst/axi4_mst_driver.sv(290) @ 395000: uvm_test_top.env.axi_agent.drv [axi4_mst_driver] [DRV][AXI][R] id=0x3 beat=1/8 data=0xffffdcff resp=AXI4_RESP_OKAY last=0
# UVM_INFO ../10_tb/axi4_mst/axi4_mst_monitor.sv(256) @ 395000: uvm_test_top.env.axi_agent.mon [axi4_mst_monitor] [MON][AXI][R] id=0x3 beat=1/8 data=0xffffdcff resp=AXI4_RESP_OKAY last=0
# UVM_INFO ../10_tb/ahb_slv/ahb_slv_driver.sv(87) @ 405000: uvm_test_top.env.ahb_agent.drv [ahb_slv_driver] [DRV][AHB][REQ] AHB_READ addr=0x2308 trans=AHB_TRANS_SEQ burst=AHB_BURST_INCR8 size=4B
# UVM_INFO ../10_tb/ahb_slv/ahb_slv_driver.sv(201) @ 415000: uvm_test_top.env.ahb_agent.drv [ahb_slv_driver] [DRV][AHB][RSP] AHB_READ addr=0x2308 data=0xffffdcf7 resp=AHB_RESP_OKAY ready_delay=0
# UVM_INFO ../10_tb/ahb_slv/ahb_slv_monitor.sv(119) @ 415000: uvm_test_top.env.ahb_agent.mon [ahb_slv_monitor] [MON][AHB][TR] AHB AHB_READ addr=0x2308 trans=AHB_TRANS_SEQ burst=AHB_BURST_INCR8 size=4B mastlock=0 resp=AHB_RESP_OKAY waits=0 | data=0xffffdcf7
# UVM_INFO ../10_tb/env/scoreboard.sv(359) @ 415000: uvm_test_top.env.scb [scoreboard] [SCB][AHB][PASS] AHB AHB_READ addr=0x2308 trans=AHB_TRANS_SEQ burst=AHB_BURST_INCR8 size=4B mastlock=0 resp=AHB_RESP_OKAY waits=0 | data=0xffffdcf7 | total=10
# UVM_INFO ../10_tb/axi4_mst/axi4_mst_driver.sv(290) @ 415000: uvm_test_top.env.axi_agent.drv [axi4_mst_driver] [DRV][AXI][R] id=0x3 beat=2/8 data=0xffffdcfb resp=AXI4_RESP_OKAY last=0
# UVM_INFO ../10_tb/axi4_mst/axi4_mst_monitor.sv(256) @ 415000: uvm_test_top.env.axi_agent.mon [axi4_mst_monitor] [MON][AXI][R] id=0x3 beat=2/8 data=0xffffdcfb resp=AXI4_RESP_OKAY last=0
# UVM_INFO ../10_tb/ahb_slv/ahb_slv_driver.sv(87) @ 425000: uvm_test_top.env.ahb_agent.drv [ahb_slv_driver] [DRV][AHB][REQ] AHB_READ addr=0x230c trans=AHB_TRANS_SEQ burst=AHB_BURST_INCR8 size=4B
# UVM_INFO ../10_tb/ahb_slv/ahb_slv_driver.sv(201) @ 435000: uvm_test_top.env.ahb_agent.drv [ahb_slv_driver] [DRV][AHB][RSP] AHB_READ addr=0x230c data=0xffffdcf3 resp=AHB_RESP_OKAY ready_delay=0
# UVM_INFO ../10_tb/ahb_slv/ahb_slv_monitor.sv(119) @ 435000: uvm_test_top.env.ahb_agent.mon [ahb_slv_monitor] [MON][AHB][TR] AHB AHB_READ addr=0x230c trans=AHB_TRANS_SEQ burst=AHB_BURST_INCR8 size=4B mastlock=0 resp=AHB_RESP_OKAY waits=0 | data=0xffffdcf3
# UVM_INFO ../10_tb/env/scoreboard.sv(359) @ 435000: uvm_test_top.env.scb [scoreboard] [SCB][AHB][PASS] AHB AHB_READ addr=0x230c trans=AHB_TRANS_SEQ burst=AHB_BURST_INCR8 size=4B mastlock=0 resp=AHB_RESP_OKAY waits=0 | data=0xffffdcf3 | total=11
# UVM_INFO ../10_tb/axi4_mst/axi4_mst_driver.sv(290) @ 435000: uvm_test_top.env.axi_agent.drv [axi4_mst_driver] [DRV][AXI][R] id=0x3 beat=3/8 data=0xffffdcf7 resp=AXI4_RESP_OKAY last=0
# UVM_INFO ../10_tb/axi4_mst/axi4_mst_monitor.sv(256) @ 435000: uvm_test_top.env.axi_agent.mon [axi4_mst_monitor] [MON][AXI][R] id=0x3 beat=3/8 data=0xffffdcf7 resp=AXI4_RESP_OKAY last=0
# UVM_INFO ../10_tb/ahb_slv/ahb_slv_driver.sv(87) @ 445000: uvm_test_top.env.ahb_agent.drv [ahb_slv_driver] [DRV][AHB][REQ] AHB_READ addr=0x2310 trans=AHB_TRANS_SEQ burst=AHB_BURST_INCR8 size=4B
# UVM_INFO ../10_tb/ahb_slv/ahb_slv_driver.sv(201) @ 455000: uvm_test_top.env.ahb_agent.drv [ahb_slv_driver] [DRV][AHB][RSP] AHB_READ addr=0x2310 data=0xffffdcef resp=AHB_RESP_OKAY ready_delay=0
# UVM_INFO ../10_tb/ahb_slv/ahb_slv_monitor.sv(119) @ 455000: uvm_test_top.env.ahb_agent.mon [ahb_slv_monitor] [MON][AHB][TR] AHB AHB_READ addr=0x2310 trans=AHB_TRANS_SEQ burst=AHB_BURST_INCR8 size=4B mastlock=0 resp=AHB_RESP_OKAY waits=0 | data=0xffffdcef
# UVM_INFO ../10_tb/env/scoreboard.sv(359) @ 455000: uvm_test_top.env.scb [scoreboard] [SCB][AHB][PASS] AHB AHB_READ addr=0x2310 trans=AHB_TRANS_SEQ burst=AHB_BURST_INCR8 size=4B mastlock=0 resp=AHB_RESP_OKAY waits=0 | data=0xffffdcef | total=12
# UVM_INFO ../10_tb/axi4_mst/axi4_mst_driver.sv(290) @ 455000: uvm_test_top.env.axi_agent.drv [axi4_mst_driver] [DRV][AXI][R] id=0x3 beat=4/8 data=0xffffdcf3 resp=AXI4_RESP_OKAY last=0
# UVM_INFO ../10_tb/axi4_mst/axi4_mst_monitor.sv(256) @ 455000: uvm_test_top.env.axi_agent.mon [axi4_mst_monitor] [MON][AXI][R] id=0x3 beat=4/8 data=0xffffdcf3 resp=AXI4_RESP_OKAY last=0
# UVM_INFO ../10_tb/ahb_slv/ahb_slv_driver.sv(87) @ 465000: uvm_test_top.env.ahb_agent.drv [ahb_slv_driver] [DRV][AHB][REQ] AHB_READ addr=0x2314 trans=AHB_TRANS_SEQ burst=AHB_BURST_INCR8 size=4B
# UVM_INFO ../10_tb/ahb_slv/ahb_slv_driver.sv(201) @ 475000: uvm_test_top.env.ahb_agent.drv [ahb_slv_driver] [DRV][AHB][RSP] AHB_READ addr=0x2314 data=0xffffdceb resp=AHB_RESP_OKAY ready_delay=0
# UVM_INFO ../10_tb/ahb_slv/ahb_slv_monitor.sv(119) @ 475000: uvm_test_top.env.ahb_agent.mon [ahb_slv_monitor] [MON][AHB][TR] AHB AHB_READ addr=0x2314 trans=AHB_TRANS_SEQ burst=AHB_BURST_INCR8 size=4B mastlock=0 resp=AHB_RESP_OKAY waits=0 | data=0xffffdceb
# UVM_INFO ../10_tb/env/scoreboard.sv(359) @ 475000: uvm_test_top.env.scb [scoreboard] [SCB][AHB][PASS] AHB AHB_READ addr=0x2314 trans=AHB_TRANS_SEQ burst=AHB_BURST_INCR8 size=4B mastlock=0 resp=AHB_RESP_OKAY waits=0 | data=0xffffdceb | total=13
# UVM_INFO ../10_tb/axi4_mst/axi4_mst_driver.sv(290) @ 475000: uvm_test_top.env.axi_agent.drv [axi4_mst_driver] [DRV][AXI][R] id=0x3 beat=5/8 data=0xffffdcef resp=AXI4_RESP_OKAY last=0
# UVM_INFO ../10_tb/axi4_mst/axi4_mst_monitor.sv(256) @ 475000: uvm_test_top.env.axi_agent.mon [axi4_mst_monitor] [MON][AXI][R] id=0x3 beat=5/8 data=0xffffdcef resp=AXI4_RESP_OKAY last=0
# UVM_INFO ../10_tb/ahb_slv/ahb_slv_driver.sv(87) @ 485000: uvm_test_top.env.ahb_agent.drv [ahb_slv_driver] [DRV][AHB][REQ] AHB_READ addr=0x2318 trans=AHB_TRANS_SEQ burst=AHB_BURST_INCR8 size=4B
# UVM_INFO ../10_tb/ahb_slv/ahb_slv_driver.sv(201) @ 495000: uvm_test_top.env.ahb_agent.drv [ahb_slv_driver] [DRV][AHB][RSP] AHB_READ addr=0x2318 data=0xffffdce7 resp=AHB_RESP_OKAY ready_delay=0
# UVM_INFO ../10_tb/ahb_slv/ahb_slv_monitor.sv(119) @ 495000: uvm_test_top.env.ahb_agent.mon [ahb_slv_monitor] [MON][AHB][TR] AHB AHB_READ addr=0x2318 trans=AHB_TRANS_SEQ burst=AHB_BURST_INCR8 size=4B mastlock=0 resp=AHB_RESP_OKAY waits=0 | data=0xffffdce7
# UVM_INFO ../10_tb/env/scoreboard.sv(359) @ 495000: uvm_test_top.env.scb [scoreboard] [SCB][AHB][PASS] AHB AHB_READ addr=0x2318 trans=AHB_TRANS_SEQ burst=AHB_BURST_INCR8 size=4B mastlock=0 resp=AHB_RESP_OKAY waits=0 | data=0xffffdce7 | total=14
# UVM_INFO ../10_tb/axi4_mst/axi4_mst_driver.sv(290) @ 495000: uvm_test_top.env.axi_agent.drv [axi4_mst_driver] [DRV][AXI][R] id=0x3 beat=6/8 data=0xffffdceb resp=AXI4_RESP_OKAY last=0
# UVM_INFO ../10_tb/axi4_mst/axi4_mst_monitor.sv(256) @ 495000: uvm_test_top.env.axi_agent.mon [axi4_mst_monitor] [MON][AXI][R] id=0x3 beat=6/8 data=0xffffdceb resp=AXI4_RESP_OKAY last=0
# UVM_INFO ../10_tb/ahb_slv/ahb_slv_driver.sv(87) @ 505000: uvm_test_top.env.ahb_agent.drv [ahb_slv_driver] [DRV][AHB][REQ] AHB_READ addr=0x231c trans=AHB_TRANS_SEQ burst=AHB_BURST_INCR8 size=4B
# UVM_INFO ../10_tb/ahb_slv/ahb_slv_driver.sv(201) @ 515000: uvm_test_top.env.ahb_agent.drv [ahb_slv_driver] [DRV][AHB][RSP] AHB_READ addr=0x231c data=0xffffdce3 resp=AHB_RESP_OKAY ready_delay=0
# UVM_INFO ../10_tb/ahb_slv/ahb_slv_monitor.sv(119) @ 515000: uvm_test_top.env.ahb_agent.mon [ahb_slv_monitor] [MON][AHB][TR] AHB AHB_READ addr=0x231c trans=AHB_TRANS_SEQ burst=AHB_BURST_INCR8 size=4B mastlock=0 resp=AHB_RESP_OKAY waits=0 | data=0xffffdce3
# UVM_INFO ../10_tb/env/scoreboard.sv(359) @ 515000: uvm_test_top.env.scb [scoreboard] [SCB][AHB][PASS] AHB AHB_READ addr=0x231c trans=AHB_TRANS_SEQ burst=AHB_BURST_INCR8 size=4B mastlock=0 resp=AHB_RESP_OKAY waits=0 | data=0xffffdce3 | total=15
# UVM_INFO ../10_tb/axi4_mst/axi4_mst_driver.sv(290) @ 515000: uvm_test_top.env.axi_agent.drv [axi4_mst_driver] [DRV][AXI][R] id=0x3 beat=7/8 data=0xffffdce7 resp=AXI4_RESP_OKAY last=0
# UVM_INFO ../10_tb/axi4_mst/axi4_mst_monitor.sv(256) @ 515000: uvm_test_top.env.axi_agent.mon [axi4_mst_monitor] [MON][AXI][R] id=0x3 beat=7/8 data=0xffffdce7 resp=AXI4_RESP_OKAY last=0
# UVM_INFO ../10_tb/axi4_mst/axi4_mst_driver.sv(290) @ 535000: uvm_test_top.env.axi_agent.drv [axi4_mst_driver] [DRV][AXI][R] id=0x3 beat=8/8 data=0xffffdce3 resp=AXI4_RESP_OKAY last=1
# UVM_INFO ../10_tb/axi4_mst/axi4_mst_monitor.sv(256) @ 535000: uvm_test_top.env.axi_agent.mon [axi4_mst_monitor] [MON][AXI][R] id=0x3 beat=8/8 data=0xffffdce3 resp=AXI4_RESP_OKAY last=1
# UVM_INFO ../10_tb/axi4_mst/axi4_mst_monitor.sv(262) @ 535000: uvm_test_top.env.axi_agent.mon [axi4_mst_monitor] [MON][AXI][RSP] READ id=0x3 beats=8
# UVM_INFO ../10_tb/env/scoreboard.sv(506) @ 535000: uvm_test_top.env.scb [scoreboard] [SCB][AXI][PASS] AXI4 AXI4_READ id=0x3 addr=0x2300 burst=AXI4_BURST_INCR beats=8 size=4B lock=0 | read beats=8 | total=4
# UVM_INFO ../10_tb/axi4_mst/axi4_mst_driver.sv(225) @ 545000: uvm_test_top.env.axi_agent.drv [axi4_mst_driver] [DRV][AXI][AR] id=0x3 addr=0x2400 burst=AXI4_BURST_INCR beats=1 size=4B
# UVM_INFO ../10_tb/axi4_mst/axi4_mst_monitor.sv(211) @ 545000: uvm_test_top.env.axi_agent.mon [axi4_mst_monitor] [MON][AXI][REQ] AXI4 AXI4_READ id=0x3 addr=0x2400 burst=AXI4_BURST_INCR beats=1 size=4B lock=0
# UVM_INFO ../10_tb/env/predictor.sv(75) @ 545000: uvm_test_top.env.pred [predictor] [PRED][AXI][IN] AXI4 AXI4_READ id=0x3 addr=0x2400 burst=AXI4_BURST_INCR beats=1 size=4B lock=0 | queued=1
# UVM_INFO ../10_tb/env/predictor.sv(138) @ 545000: uvm_test_top.env.pred [predictor] [PRED][MAP] AXI4 AXI4_READ id=0x3 addr=0x2400 burst=AXI4_BURST_INCR beats=1 size=4B lock=0 -> AHB burst=AHB_BURST_SINGLE size=4B crosses_1kb=0
# UVM_INFO ../10_tb/env/predictor.sv(175) @ 545000: uvm_test_top.env.pred [predictor] [PRED][AHB] beat=1/1 | AHB AHB_READ addr=0x2400 trans=AHB_TRANS_NONSEQ burst=AHB_BURST_SINGLE size=4B mastlock=0 resp=AHB_RESP_OKAY waits=0
# UVM_INFO ../10_tb/ahb_slv/ahb_slv_driver.sv(87) @ 555000: uvm_test_top.env.ahb_agent.drv [ahb_slv_driver] [DRV][AHB][REQ] AHB_READ addr=0x2400 trans=AHB_TRANS_NONSEQ burst=AHB_BURST_SINGLE size=4B
# UVM_INFO ../10_tb/ahb_slv/ahb_slv_driver.sv(201) @ 565000: uvm_test_top.env.ahb_agent.drv [ahb_slv_driver] [DRV][AHB][RSP] AHB_READ addr=0x2400 data=0xffffdbff resp=AHB_RESP_OKAY ready_delay=0
# UVM_INFO ../10_tb/ahb_slv/ahb_slv_monitor.sv(119) @ 565000: uvm_test_top.env.ahb_agent.mon [ahb_slv_monitor] [MON][AHB][TR] AHB AHB_READ addr=0x2400 trans=AHB_TRANS_NONSEQ burst=AHB_BURST_SINGLE size=4B mastlock=0 resp=AHB_RESP_OKAY waits=0 | data=0xffffdbff
# UVM_INFO ../10_tb/env/scoreboard.sv(359) @ 565000: uvm_test_top.env.scb [scoreboard] [SCB][AHB][PASS] AHB AHB_READ addr=0x2400 trans=AHB_TRANS_NONSEQ burst=AHB_BURST_SINGLE size=4B mastlock=0 resp=AHB_RESP_OKAY waits=0 | data=0xffffdbff | total=16
# UVM_INFO ../10_tb/axi4_mst/axi4_mst_driver.sv(290) @ 585000: uvm_test_top.env.axi_agent.drv [axi4_mst_driver] [DRV][AXI][R] id=0x3 beat=1/1 data=0xffffdbff resp=AXI4_RESP_OKAY last=1
# UVM_INFO ../10_tb/axi4_mst/axi4_mst_monitor.sv(256) @ 585000: uvm_test_top.env.axi_agent.mon [axi4_mst_monitor] [MON][AXI][R] id=0x3 beat=1/1 data=0xffffdbff resp=AXI4_RESP_OKAY last=1
# UVM_INFO ../10_tb/axi4_mst/axi4_mst_monitor.sv(262) @ 585000: uvm_test_top.env.axi_agent.mon [axi4_mst_monitor] [MON][AXI][RSP] READ id=0x3 beats=1
# UVM_INFO ../10_tb/env/scoreboard.sv(506) @ 585000: uvm_test_top.env.scb [scoreboard] [SCB][AXI][PASS] AXI4 AXI4_READ id=0x3 addr=0x2400 burst=AXI4_BURST_INCR beats=1 size=4B lock=0 | read beats=1 | total=5
# UVM_INFO ../10_tb/axi4_mst/axi4_mst_driver.sv(225) @ 595000: uvm_test_top.env.axi_agent.drv [axi4_mst_driver] [DRV][AXI][AR] id=0x3 addr=0x2500 burst=AXI4_BURST_INCR beats=4 size=4B
# UVM_INFO ../10_tb/axi4_mst/axi4_mst_monitor.sv(211) @ 595000: uvm_test_top.env.axi_agent.mon [axi4_mst_monitor] [MON][AXI][REQ] AXI4 AXI4_READ id=0x3 addr=0x2500 burst=AXI4_BURST_INCR beats=4 size=4B lock=0
# UVM_INFO ../10_tb/env/predictor.sv(75) @ 595000: uvm_test_top.env.pred [predictor] [PRED][AXI][IN] AXI4 AXI4_READ id=0x3 addr=0x2500 burst=AXI4_BURST_INCR beats=4 size=4B lock=0 | queued=1
# UVM_INFO ../10_tb/env/predictor.sv(138) @ 595000: uvm_test_top.env.pred [predictor] [PRED][MAP] AXI4 AXI4_READ id=0x3 addr=0x2500 burst=AXI4_BURST_INCR beats=4 size=4B lock=0 -> AHB burst=AHB_BURST_INCR4 size=4B crosses_1kb=0
# UVM_INFO ../10_tb/env/predictor.sv(175) @ 595000: uvm_test_top.env.pred [predictor] [PRED][AHB] beat=1/4 | AHB AHB_READ addr=0x2500 trans=AHB_TRANS_NONSEQ burst=AHB_BURST_INCR4 size=4B mastlock=0 resp=AHB_RESP_OKAY waits=0
# UVM_INFO ../10_tb/env/predictor.sv(175) @ 595000: uvm_test_top.env.pred [predictor] [PRED][AHB] beat=2/4 | AHB AHB_READ addr=0x2504 trans=AHB_TRANS_SEQ burst=AHB_BURST_INCR4 size=4B mastlock=0 resp=AHB_RESP_OKAY waits=0
# UVM_INFO ../10_tb/env/predictor.sv(175) @ 595000: uvm_test_top.env.pred [predictor] [PRED][AHB] beat=3/4 | AHB AHB_READ addr=0x2508 trans=AHB_TRANS_SEQ burst=AHB_BURST_INCR4 size=4B mastlock=0 resp=AHB_RESP_OKAY waits=0
# UVM_INFO ../10_tb/env/predictor.sv(175) @ 595000: uvm_test_top.env.pred [predictor] [PRED][AHB] beat=4/4 | AHB AHB_READ addr=0x250c trans=AHB_TRANS_SEQ burst=AHB_BURST_INCR4 size=4B mastlock=0 resp=AHB_RESP_OKAY waits=0
# UVM_INFO ../10_tb/ahb_slv/ahb_slv_driver.sv(87) @ 605000: uvm_test_top.env.ahb_agent.drv [ahb_slv_driver] [DRV][AHB][REQ] AHB_READ addr=0x2500 trans=AHB_TRANS_NONSEQ burst=AHB_BURST_INCR4 size=4B
# UVM_INFO ../10_tb/ahb_slv/ahb_slv_driver.sv(201) @ 615000: uvm_test_top.env.ahb_agent.drv [ahb_slv_driver] [DRV][AHB][RSP] AHB_READ addr=0x2500 data=0xffffdaff resp=AHB_RESP_OKAY ready_delay=0
# UVM_INFO ../10_tb/ahb_slv/ahb_slv_monitor.sv(119) @ 615000: uvm_test_top.env.ahb_agent.mon [ahb_slv_monitor] [MON][AHB][TR] AHB AHB_READ addr=0x2500 trans=AHB_TRANS_NONSEQ burst=AHB_BURST_INCR4 size=4B mastlock=0 resp=AHB_RESP_OKAY waits=0 | data=0xffffdaff
# UVM_INFO ../10_tb/env/scoreboard.sv(359) @ 615000: uvm_test_top.env.scb [scoreboard] [SCB][AHB][PASS] AHB AHB_READ addr=0x2500 trans=AHB_TRANS_NONSEQ burst=AHB_BURST_INCR4 size=4B mastlock=0 resp=AHB_RESP_OKAY waits=0 | data=0xffffdaff | total=17
# UVM_INFO ../10_tb/ahb_slv/ahb_slv_driver.sv(87) @ 625000: uvm_test_top.env.ahb_agent.drv [ahb_slv_driver] [DRV][AHB][REQ] AHB_READ addr=0x2504 trans=AHB_TRANS_SEQ burst=AHB_BURST_INCR4 size=4B
# UVM_INFO ../10_tb/ahb_slv/ahb_slv_driver.sv(201) @ 635000: uvm_test_top.env.ahb_agent.drv [ahb_slv_driver] [DRV][AHB][RSP] AHB_READ addr=0x2504 data=0xffffdafb resp=AHB_RESP_OKAY ready_delay=0
# UVM_INFO ../10_tb/ahb_slv/ahb_slv_monitor.sv(119) @ 635000: uvm_test_top.env.ahb_agent.mon [ahb_slv_monitor] [MON][AHB][TR] AHB AHB_READ addr=0x2504 trans=AHB_TRANS_SEQ burst=AHB_BURST_INCR4 size=4B mastlock=0 resp=AHB_RESP_OKAY waits=0 | data=0xffffdafb
# UVM_INFO ../10_tb/env/scoreboard.sv(359) @ 635000: uvm_test_top.env.scb [scoreboard] [SCB][AHB][PASS] AHB AHB_READ addr=0x2504 trans=AHB_TRANS_SEQ burst=AHB_BURST_INCR4 size=4B mastlock=0 resp=AHB_RESP_OKAY waits=0 | data=0xffffdafb | total=18
# UVM_INFO ../10_tb/axi4_mst/axi4_mst_driver.sv(290) @ 635000: uvm_test_top.env.axi_agent.drv [axi4_mst_driver] [DRV][AXI][R] id=0x3 beat=1/4 data=0xffffdaff resp=AXI4_RESP_OKAY last=0
# UVM_INFO ../10_tb/axi4_mst/axi4_mst_monitor.sv(256) @ 635000: uvm_test_top.env.axi_agent.mon [axi4_mst_monitor] [MON][AXI][R] id=0x3 beat=1/4 data=0xffffdaff resp=AXI4_RESP_OKAY last=0
# UVM_INFO ../10_tb/ahb_slv/ahb_slv_driver.sv(87) @ 645000: uvm_test_top.env.ahb_agent.drv [ahb_slv_driver] [DRV][AHB][REQ] AHB_READ addr=0x2508 trans=AHB_TRANS_SEQ burst=AHB_BURST_INCR4 size=4B
# UVM_INFO ../10_tb/ahb_slv/ahb_slv_driver.sv(201) @ 655000: uvm_test_top.env.ahb_agent.drv [ahb_slv_driver] [DRV][AHB][RSP] AHB_READ addr=0x2508 data=0xffffdaf7 resp=AHB_RESP_OKAY ready_delay=0
# UVM_INFO ../10_tb/ahb_slv/ahb_slv_monitor.sv(119) @ 655000: uvm_test_top.env.ahb_agent.mon [ahb_slv_monitor] [MON][AHB][TR] AHB AHB_READ addr=0x2508 trans=AHB_TRANS_SEQ burst=AHB_BURST_INCR4 size=4B mastlock=0 resp=AHB_RESP_OKAY waits=0 | data=0xffffdaf7
# UVM_INFO ../10_tb/env/scoreboard.sv(359) @ 655000: uvm_test_top.env.scb [scoreboard] [SCB][AHB][PASS] AHB AHB_READ addr=0x2508 trans=AHB_TRANS_SEQ burst=AHB_BURST_INCR4 size=4B mastlock=0 resp=AHB_RESP_OKAY waits=0 | data=0xffffdaf7 | total=19
# UVM_INFO ../10_tb/axi4_mst/axi4_mst_driver.sv(290) @ 655000: uvm_test_top.env.axi_agent.drv [axi4_mst_driver] [DRV][AXI][R] id=0x3 beat=2/4 data=0xffffdafb resp=AXI4_RESP_OKAY last=0
# UVM_INFO ../10_tb/axi4_mst/axi4_mst_monitor.sv(256) @ 655000: uvm_test_top.env.axi_agent.mon [axi4_mst_monitor] [MON][AXI][R] id=0x3 beat=2/4 data=0xffffdafb resp=AXI4_RESP_OKAY last=0
# UVM_INFO ../10_tb/ahb_slv/ahb_slv_driver.sv(87) @ 665000: uvm_test_top.env.ahb_agent.drv [ahb_slv_driver] [DRV][AHB][REQ] AHB_READ addr=0x250c trans=AHB_TRANS_SEQ burst=AHB_BURST_INCR4 size=4B
# UVM_INFO ../10_tb/ahb_slv/ahb_slv_driver.sv(201) @ 675000: uvm_test_top.env.ahb_agent.drv [ahb_slv_driver] [DRV][AHB][RSP] AHB_READ addr=0x250c data=0xffffdaf3 resp=AHB_RESP_OKAY ready_delay=0
# UVM_INFO ../10_tb/ahb_slv/ahb_slv_monitor.sv(119) @ 675000: uvm_test_top.env.ahb_agent.mon [ahb_slv_monitor] [MON][AHB][TR] AHB AHB_READ addr=0x250c trans=AHB_TRANS_SEQ burst=AHB_BURST_INCR4 size=4B mastlock=0 resp=AHB_RESP_OKAY waits=0 | data=0xffffdaf3
# UVM_INFO ../10_tb/env/scoreboard.sv(359) @ 675000: uvm_test_top.env.scb [scoreboard] [SCB][AHB][PASS] AHB AHB_READ addr=0x250c trans=AHB_TRANS_SEQ burst=AHB_BURST_INCR4 size=4B mastlock=0 resp=AHB_RESP_OKAY waits=0 | data=0xffffdaf3 | total=20
# UVM_INFO ../10_tb/axi4_mst/axi4_mst_driver.sv(290) @ 675000: uvm_test_top.env.axi_agent.drv [axi4_mst_driver] [DRV][AXI][R] id=0x3 beat=3/4 data=0xffffdaf7 resp=AXI4_RESP_OKAY last=0
# UVM_INFO ../10_tb/axi4_mst/axi4_mst_monitor.sv(256) @ 675000: uvm_test_top.env.axi_agent.mon [axi4_mst_monitor] [MON][AXI][R] id=0x3 beat=3/4 data=0xffffdaf7 resp=AXI4_RESP_OKAY last=0
# UVM_INFO ../10_tb/axi4_mst/axi4_mst_driver.sv(290) @ 695000: uvm_test_top.env.axi_agent.drv [axi4_mst_driver] [DRV][AXI][R] id=0x3 beat=4/4 data=0xffffdaf3 resp=AXI4_RESP_OKAY last=1
# UVM_INFO ../10_tb/axi4_mst/axi4_mst_monitor.sv(256) @ 695000: uvm_test_top.env.axi_agent.mon [axi4_mst_monitor] [MON][AXI][R] id=0x3 beat=4/4 data=0xffffdaf3 resp=AXI4_RESP_OKAY last=1
# UVM_INFO ../10_tb/axi4_mst/axi4_mst_monitor.sv(262) @ 695000: uvm_test_top.env.axi_agent.mon [axi4_mst_monitor] [MON][AXI][RSP] READ id=0x3 beats=4
# UVM_INFO ../10_tb/env/scoreboard.sv(506) @ 695000: uvm_test_top.env.scb [scoreboard] [SCB][AXI][PASS] AXI4 AXI4_READ id=0x3 addr=0x2500 burst=AXI4_BURST_INCR beats=4 size=4B lock=0 | read beats=4 | total=6
# UVM_INFO ../10_tb/axi4_mst/axi4_mst_driver.sv(225) @ 705000: uvm_test_top.env.axi_agent.drv [axi4_mst_driver] [DRV][AXI][AR] id=0x3 addr=0x2600 burst=AXI4_BURST_INCR beats=1 size=4B
# UVM_INFO ../10_tb/axi4_mst/axi4_mst_monitor.sv(211) @ 705000: uvm_test_top.env.axi_agent.mon [axi4_mst_monitor] [MON][AXI][REQ] AXI4 AXI4_READ id=0x3 addr=0x2600 burst=AXI4_BURST_INCR beats=1 size=4B lock=0
# UVM_INFO ../10_tb/env/predictor.sv(75) @ 705000: uvm_test_top.env.pred [predictor] [PRED][AXI][IN] AXI4 AXI4_READ id=0x3 addr=0x2600 burst=AXI4_BURST_INCR beats=1 size=4B lock=0 | queued=1
# UVM_INFO ../10_tb/env/predictor.sv(138) @ 705000: uvm_test_top.env.pred [predictor] [PRED][MAP] AXI4 AXI4_READ id=0x3 addr=0x2600 burst=AXI4_BURST_INCR beats=1 size=4B lock=0 -> AHB burst=AHB_BURST_SINGLE size=4B crosses_1kb=0
# UVM_INFO ../10_tb/env/predictor.sv(175) @ 705000: uvm_test_top.env.pred [predictor] [PRED][AHB] beat=1/1 | AHB AHB_READ addr=0x2600 trans=AHB_TRANS_NONSEQ burst=AHB_BURST_SINGLE size=4B mastlock=0 resp=AHB_RESP_OKAY waits=0
# UVM_INFO ../10_tb/ahb_slv/ahb_slv_driver.sv(87) @ 715000: uvm_test_top.env.ahb_agent.drv [ahb_slv_driver] [DRV][AHB][REQ] AHB_READ addr=0x2600 trans=AHB_TRANS_NONSEQ burst=AHB_BURST_SINGLE size=4B
# UVM_INFO ../10_tb/ahb_slv/ahb_slv_driver.sv(201) @ 725000: uvm_test_top.env.ahb_agent.drv [ahb_slv_driver] [DRV][AHB][RSP] AHB_READ addr=0x2600 data=0xffffd9ff resp=AHB_RESP_OKAY ready_delay=0
# UVM_INFO ../10_tb/ahb_slv/ahb_slv_monitor.sv(119) @ 725000: uvm_test_top.env.ahb_agent.mon [ahb_slv_monitor] [MON][AHB][TR] AHB AHB_READ addr=0x2600 trans=AHB_TRANS_NONSEQ burst=AHB_BURST_SINGLE size=4B mastlock=0 resp=AHB_RESP_OKAY waits=0 | data=0xffffd9ff
# UVM_INFO ../10_tb/env/scoreboard.sv(359) @ 725000: uvm_test_top.env.scb [scoreboard] [SCB][AHB][PASS] AHB AHB_READ addr=0x2600 trans=AHB_TRANS_NONSEQ burst=AHB_BURST_SINGLE size=4B mastlock=0 resp=AHB_RESP_OKAY waits=0 | data=0xffffd9ff | total=21
# UVM_INFO ../10_tb/axi4_mst/axi4_mst_driver.sv(290) @ 745000: uvm_test_top.env.axi_agent.drv [axi4_mst_driver] [DRV][AXI][R] id=0x3 beat=1/1 data=0xffffd9ff resp=AXI4_RESP_OKAY last=1
# UVM_INFO ../10_tb/axi4_mst/axi4_mst_monitor.sv(256) @ 745000: uvm_test_top.env.axi_agent.mon [axi4_mst_monitor] [MON][AXI][R] id=0x3 beat=1/1 data=0xffffd9ff resp=AXI4_RESP_OKAY last=1
# UVM_INFO ../10_tb/axi4_mst/axi4_mst_monitor.sv(262) @ 745000: uvm_test_top.env.axi_agent.mon [axi4_mst_monitor] [MON][AXI][RSP] READ id=0x3 beats=1
# UVM_INFO ../10_tb/env/scoreboard.sv(506) @ 745000: uvm_test_top.env.scb [scoreboard] [SCB][AXI][PASS] AXI4 AXI4_READ id=0x3 addr=0x2600 burst=AXI4_BURST_INCR beats=1 size=4B lock=0 | read beats=1 | total=7
# UVM_INFO ../10_tb/axi4_mst/axi4_mst_driver.sv(225) @ 755000: uvm_test_top.env.axi_agent.drv [axi4_mst_driver] [DRV][AXI][AR] id=0x3 addr=0x2700 burst=AXI4_BURST_INCR beats=2 size=4B
# UVM_INFO ../10_tb/axi4_mst/axi4_mst_monitor.sv(211) @ 755000: uvm_test_top.env.axi_agent.mon [axi4_mst_monitor] [MON][AXI][REQ] AXI4 AXI4_READ id=0x3 addr=0x2700 burst=AXI4_BURST_INCR beats=2 size=4B lock=0
# UVM_INFO ../10_tb/env/predictor.sv(75) @ 755000: uvm_test_top.env.pred [predictor] [PRED][AXI][IN] AXI4 AXI4_READ id=0x3 addr=0x2700 burst=AXI4_BURST_INCR beats=2 size=4B lock=0 | queued=1
# UVM_INFO ../10_tb/env/predictor.sv(138) @ 755000: uvm_test_top.env.pred [predictor] [PRED][MAP] AXI4 AXI4_READ id=0x3 addr=0x2700 burst=AXI4_BURST_INCR beats=2 size=4B lock=0 -> AHB burst=AHB_BURST_INCR size=4B crosses_1kb=0
# UVM_INFO ../10_tb/env/predictor.sv(175) @ 755000: uvm_test_top.env.pred [predictor] [PRED][AHB] beat=1/2 | AHB AHB_READ addr=0x2700 trans=AHB_TRANS_NONSEQ burst=AHB_BURST_INCR size=4B mastlock=0 resp=AHB_RESP_OKAY waits=0
# UVM_INFO ../10_tb/env/predictor.sv(175) @ 755000: uvm_test_top.env.pred [predictor] [PRED][AHB] beat=2/2 | AHB AHB_READ addr=0x2704 trans=AHB_TRANS_SEQ burst=AHB_BURST_INCR size=4B mastlock=0 resp=AHB_RESP_OKAY waits=0
# UVM_INFO ../10_tb/ahb_slv/ahb_slv_driver.sv(87) @ 765000: uvm_test_top.env.ahb_agent.drv [ahb_slv_driver] [DRV][AHB][REQ] AHB_READ addr=0x2700 trans=AHB_TRANS_NONSEQ burst=AHB_BURST_INCR size=4B
# UVM_INFO ../10_tb/ahb_slv/ahb_slv_driver.sv(201) @ 775000: uvm_test_top.env.ahb_agent.drv [ahb_slv_driver] [DRV][AHB][RSP] AHB_READ addr=0x2700 data=0xffffd8ff resp=AHB_RESP_OKAY ready_delay=0
# UVM_INFO ../10_tb/ahb_slv/ahb_slv_monitor.sv(119) @ 775000: uvm_test_top.env.ahb_agent.mon [ahb_slv_monitor] [MON][AHB][TR] AHB AHB_READ addr=0x2700 trans=AHB_TRANS_NONSEQ burst=AHB_BURST_INCR size=4B mastlock=0 resp=AHB_RESP_OKAY waits=0 | data=0xffffd8ff
# UVM_INFO ../10_tb/env/scoreboard.sv(359) @ 775000: uvm_test_top.env.scb [scoreboard] [SCB][AHB][PASS] AHB AHB_READ addr=0x2700 trans=AHB_TRANS_NONSEQ burst=AHB_BURST_INCR size=4B mastlock=0 resp=AHB_RESP_OKAY waits=0 | data=0xffffd8ff | total=22
# UVM_INFO ../10_tb/ahb_slv/ahb_slv_driver.sv(87) @ 785000: uvm_test_top.env.ahb_agent.drv [ahb_slv_driver] [DRV][AHB][REQ] AHB_READ addr=0x2704 trans=AHB_TRANS_SEQ burst=AHB_BURST_INCR size=4B
# UVM_INFO ../10_tb/ahb_slv/ahb_slv_driver.sv(201) @ 795000: uvm_test_top.env.ahb_agent.drv [ahb_slv_driver] [DRV][AHB][RSP] AHB_READ addr=0x2704 data=0xffffd8fb resp=AHB_RESP_OKAY ready_delay=0
# UVM_INFO ../10_tb/ahb_slv/ahb_slv_monitor.sv(119) @ 795000: uvm_test_top.env.ahb_agent.mon [ahb_slv_monitor] [MON][AHB][TR] AHB AHB_READ addr=0x2704 trans=AHB_TRANS_SEQ burst=AHB_BURST_INCR size=4B mastlock=0 resp=AHB_RESP_OKAY waits=0 | data=0xffffd8fb
# UVM_INFO ../10_tb/env/scoreboard.sv(359) @ 795000: uvm_test_top.env.scb [scoreboard] [SCB][AHB][PASS] AHB AHB_READ addr=0x2704 trans=AHB_TRANS_SEQ burst=AHB_BURST_INCR size=4B mastlock=0 resp=AHB_RESP_OKAY waits=0 | data=0xffffd8fb | total=23
# UVM_INFO ../10_tb/axi4_mst/axi4_mst_driver.sv(290) @ 795000: uvm_test_top.env.axi_agent.drv [axi4_mst_driver] [DRV][AXI][R] id=0x3 beat=1/2 data=0xffffd8ff resp=AXI4_RESP_OKAY last=0
# UVM_INFO ../10_tb/axi4_mst/axi4_mst_monitor.sv(256) @ 795000: uvm_test_top.env.axi_agent.mon [axi4_mst_monitor] [MON][AXI][R] id=0x3 beat=1/2 data=0xffffd8ff resp=AXI4_RESP_OKAY last=0
# UVM_INFO ../10_tb/axi4_mst/axi4_mst_driver.sv(290) @ 815000: uvm_test_top.env.axi_agent.drv [axi4_mst_driver] [DRV][AXI][R] id=0x3 beat=2/2 data=0xffffd8fb resp=AXI4_RESP_OKAY last=1
# UVM_INFO ../10_tb/axi4_mst/axi4_mst_monitor.sv(256) @ 815000: uvm_test_top.env.axi_agent.mon [axi4_mst_monitor] [MON][AXI][R] id=0x3 beat=2/2 data=0xffffd8fb resp=AXI4_RESP_OKAY last=1
# UVM_INFO ../10_tb/axi4_mst/axi4_mst_monitor.sv(262) @ 815000: uvm_test_top.env.axi_agent.mon [axi4_mst_monitor] [MON][AXI][RSP] READ id=0x3 beats=2
# UVM_INFO ../10_tb/env/scoreboard.sv(506) @ 815000: uvm_test_top.env.scb [scoreboard] [SCB][AXI][PASS] AXI4 AXI4_READ id=0x3 addr=0x2700 burst=AXI4_BURST_INCR beats=2 size=4B lock=0 | read beats=2 | total=8
# UVM_INFO ../10_tb/seq/axi4_mst_seq/axi4_mst_ordering_seq.sv(635) @ 855000: uvm_test_top.env.axi_agent.sqr@@axi_seq [axi4_mst_ordering_seq] SAME_ID_READS: requests=8 accepted=8 completed=8 ahb_runs=8 stall_cycles=50 max_accepted=1
# UVM_INFO ../10_tb/axi4_mst/axi4_mst_driver.sv(105) @ 855000: uvm_test_top.env.axi_agent.drv [axi4_mst_driver] [DRV][AXI][REQ] AXI4 AXI4_READ id=0x0 addr=0x2800 burst=AXI4_BURST_INCR beats=16 size=4B lock=0 | outstanding=1
# UVM_INFO ../10_tb/axi4_mst/axi4_mst_driver.sv(105) @ 855000: uvm_test_top.env.axi_agent.drv [axi4_mst_driver] [DRV][AXI][REQ] AXI4 AXI4_READ id=0x1 addr=0x2900 burst=AXI4_BURST_INCR beats=8 size=4B lock=0 | outstanding=2
# UVM_INFO ../10_tb/axi4_mst/axi4_mst_driver.sv(105) @ 855000: uvm_test_top.env.axi_agent.drv [axi4_mst_driver] [DRV][AXI][REQ] AXI4 AXI4_READ id=0x2 addr=0x2a00 burst=AXI4_BURST_INCR beats=4 size=4B lock=0 | outstanding=3
# UVM_INFO ../10_tb/axi4_mst/axi4_mst_driver.sv(105) @ 855000: uvm_test_top.env.axi_agent.drv [axi4_mst_driver] [DRV][AXI][REQ] AXI4 AXI4_READ id=0x3 addr=0x2b00 burst=AXI4_BURST_INCR beats=2 size=4B lock=0 | outstanding=4
# UVM_INFO ../10_tb/axi4_mst/axi4_mst_driver.sv(105) @ 855000: uvm_test_top.env.axi_agent.drv [axi4_mst_driver] [DRV][AXI][REQ] AXI4 AXI4_READ id=0x4 addr=0x2c00 burst=AXI4_BURST_INCR beats=1 size=4B lock=0 | outstanding=5
# UVM_INFO ../10_tb/axi4_mst/axi4_mst_driver.sv(105) @ 855000: uvm_test_top.env.axi_agent.drv [axi4_mst_driver] [DRV][AXI][REQ] AXI4 AXI4_READ id=0x5 addr=0x2d00 burst=AXI4_BURST_INCR beats=1 size=4B lock=0 | outstanding=6
# UVM_INFO ../10_tb/axi4_mst/axi4_mst_driver.sv(105) @ 855000: uvm_test_top.env.axi_agent.drv [axi4_mst_driver] [DRV][AXI][REQ] AXI4 AXI4_READ id=0x6 addr=0x2e00 burst=AXI4_BURST_INCR beats=1 size=4B lock=0 | outstanding=7
# UVM_INFO ../10_tb/axi4_mst/axi4_mst_driver.sv(105) @ 855000: uvm_test_top.env.axi_agent.drv [axi4_mst_driver] [DRV][AXI][REQ] AXI4 AXI4_READ id=0x7 addr=0x2f00 burst=AXI4_BURST_INCR beats=1 size=4B lock=0 | outstanding=8
# UVM_INFO ../10_tb/axi4_mst/axi4_mst_driver.sv(225) @ 885000: uvm_test_top.env.axi_agent.drv [axi4_mst_driver] [DRV][AXI][AR] id=0x0 addr=0x2800 burst=AXI4_BURST_INCR beats=16 size=4B
# UVM_INFO ../10_tb/axi4_mst/axi4_mst_monitor.sv(211) @ 885000: uvm_test_top.env.axi_agent.mon [axi4_mst_monitor] [MON][AXI][REQ] AXI4 AXI4_READ id=0x0 addr=0x2800 burst=AXI4_BURST_INCR beats=16 size=4B lock=0
# UVM_INFO ../10_tb/env/predictor.sv(75) @ 885000: uvm_test_top.env.pred [predictor] [PRED][AXI][IN] AXI4 AXI4_READ id=0x0 addr=0x2800 burst=AXI4_BURST_INCR beats=16 size=4B lock=0 | queued=1
# UVM_INFO ../10_tb/env/predictor.sv(138) @ 885000: uvm_test_top.env.pred [predictor] [PRED][MAP] AXI4 AXI4_READ id=0x0 addr=0x2800 burst=AXI4_BURST_INCR beats=16 size=4B lock=0 -> AHB burst=AHB_BURST_INCR16 size=4B crosses_1kb=0
# UVM_INFO ../10_tb/env/predictor.sv(175) @ 885000: uvm_test_top.env.pred [predictor] [PRED][AHB] beat=1/16 | AHB AHB_READ addr=0x2800 trans=AHB_TRANS_NONSEQ burst=AHB_BURST_INCR16 size=4B mastlock=0 resp=AHB_RESP_OKAY waits=0
# UVM_INFO ../10_tb/env/predictor.sv(175) @ 885000: uvm_test_top.env.pred [predictor] [PRED][AHB] beat=2/16 | AHB AHB_READ addr=0x2804 trans=AHB_TRANS_SEQ burst=AHB_BURST_INCR16 size=4B mastlock=0 resp=AHB_RESP_OKAY waits=0
# UVM_INFO ../10_tb/env/predictor.sv(175) @ 885000: uvm_test_top.env.pred [predictor] [PRED][AHB] beat=3/16 | AHB AHB_READ addr=0x2808 trans=AHB_TRANS_SEQ burst=AHB_BURST_INCR16 size=4B mastlock=0 resp=AHB_RESP_OKAY waits=0
# UVM_INFO ../10_tb/env/predictor.sv(175) @ 885000: uvm_test_top.env.pred [predictor] [PRED][AHB] beat=4/16 | AHB AHB_READ addr=0x280c trans=AHB_TRANS_SEQ burst=AHB_BURST_INCR16 size=4B mastlock=0 resp=AHB_RESP_OKAY waits=0
# UVM_INFO ../10_tb/env/predictor.sv(175) @ 885000: uvm_test_top.env.pred [predictor] [PRED][AHB] beat=5/16 | AHB AHB_READ addr=0x2810 trans=AHB_TRANS_SEQ burst=AHB_BURST_INCR16 size=4B mastlock=0 resp=AHB_RESP_OKAY waits=0
# UVM_INFO ../10_tb/env/predictor.sv(175) @ 885000: uvm_test_top.env.pred [predictor] [PRED][AHB] beat=6/16 | AHB AHB_READ addr=0x2814 trans=AHB_TRANS_SEQ burst=AHB_BURST_INCR16 size=4B mastlock=0 resp=AHB_RESP_OKAY waits=0
# UVM_INFO ../10_tb/env/predictor.sv(175) @ 885000: uvm_test_top.env.pred [predictor] [PRED][AHB] beat=7/16 | AHB AHB_READ addr=0x2818 trans=AHB_TRANS_SEQ burst=AHB_BURST_INCR16 size=4B mastlock=0 resp=AHB_RESP_OKAY waits=0
# UVM_INFO ../10_tb/env/predictor.sv(175) @ 885000: uvm_test_top.env.pred [predictor] [PRED][AHB] beat=8/16 | AHB AHB_READ addr=0x281c trans=AHB_TRANS_SEQ burst=AHB_BURST_INCR16 size=4B mastlock=0 resp=AHB_RESP_OKAY waits=0
# UVM_INFO ../10_tb/env/predictor.sv(175) @ 885000: uvm_test_top.env.pred [predictor] [PRED][AHB] beat=9/16 | AHB AHB_READ addr=0x2820 trans=AHB_TRANS_SEQ burst=AHB_BURST_INCR16 size=4B mastlock=0 resp=AHB_RESP_OKAY waits=0
# UVM_INFO ../10_tb/env/predictor.sv(175) @ 885000: uvm_test_top.env.pred [predictor] [PRED][AHB] beat=10/16 | AHB AHB_READ addr=0x2824 trans=AHB_TRANS_SEQ burst=AHB_BURST_INCR16 size=4B mastlock=0 resp=AHB_RESP_OKAY waits=0
# UVM_INFO ../10_tb/env/predictor.sv(175) @ 885000: uvm_test_top.env.pred [predictor] [PRED][AHB] beat=11/16 | AHB AHB_READ addr=0x2828 trans=AHB_TRANS_SEQ burst=AHB_BURST_INCR16 size=4B mastlock=0 resp=AHB_RESP_OKAY waits=0
# UVM_INFO ../10_tb/env/predictor.sv(175) @ 885000: uvm_test_top.env.pred [predictor] [PRED][AHB] beat=12/16 | AHB AHB_READ addr=0x282c trans=AHB_TRANS_SEQ burst=AHB_BURST_INCR16 size=4B mastlock=0 resp=AHB_RESP_OKAY waits=0
# UVM_INFO ../10_tb/env/predictor.sv(175) @ 885000: uvm_test_top.env.pred [predictor] [PRED][AHB] beat=13/16 | AHB AHB_READ addr=0x2830 trans=AHB_TRANS_SEQ burst=AHB_BURST_INCR16 size=4B mastlock=0 resp=AHB_RESP_OKAY waits=0
# UVM_INFO ../10_tb/env/predictor.sv(175) @ 885000: uvm_test_top.env.pred [predictor] [PRED][AHB] beat=14/16 | AHB AHB_READ addr=0x2834 trans=AHB_TRANS_SEQ burst=AHB_BURST_INCR16 size=4B mastlock=0 resp=AHB_RESP_OKAY waits=0
# UVM_INFO ../10_tb/env/predictor.sv(175) @ 885000: uvm_test_top.env.pred [predictor] [PRED][AHB] beat=15/16 | AHB AHB_READ addr=0x2838 trans=AHB_TRANS_SEQ burst=AHB_BURST_INCR16 size=4B mastlock=0 resp=AHB_RESP_OKAY waits=0
# UVM_INFO ../10_tb/env/predictor.sv(175) @ 885000: uvm_test_top.env.pred [predictor] [PRED][AHB] beat=16/16 | AHB AHB_READ addr=0x283c trans=AHB_TRANS_SEQ burst=AHB_BURST_INCR16 size=4B mastlock=0 resp=AHB_RESP_OKAY waits=0
# UVM_INFO ../10_tb/ahb_slv/ahb_slv_driver.sv(87) @ 895000: uvm_test_top.env.ahb_agent.drv [ahb_slv_driver] [DRV][AHB][REQ] AHB_READ addr=0x2800 trans=AHB_TRANS_NONSEQ burst=AHB_BURST_INCR16 size=4B
# UVM_INFO ../10_tb/ahb_slv/ahb_slv_driver.sv(201) @ 905000: uvm_test_top.env.ahb_agent.drv [ahb_slv_driver] [DRV][AHB][RSP] AHB_READ addr=0x2800 data=0xffffd7ff resp=AHB_RESP_OKAY ready_delay=0
# UVM_INFO ../10_tb/ahb_slv/ahb_slv_monitor.sv(119) @ 905000: uvm_test_top.env.ahb_agent.mon [ahb_slv_monitor] [MON][AHB][TR] AHB AHB_READ addr=0x2800 trans=AHB_TRANS_NONSEQ burst=AHB_BURST_INCR16 size=4B mastlock=0 resp=AHB_RESP_OKAY waits=0 | data=0xffffd7ff
# UVM_INFO ../10_tb/env/scoreboard.sv(359) @ 905000: uvm_test_top.env.scb [scoreboard] [SCB][AHB][PASS] AHB AHB_READ addr=0x2800 trans=AHB_TRANS_NONSEQ burst=AHB_BURST_INCR16 size=4B mastlock=0 resp=AHB_RESP_OKAY waits=0 | data=0xffffd7ff | total=24
# UVM_INFO ../10_tb/ahb_slv/ahb_slv_driver.sv(87) @ 915000: uvm_test_top.env.ahb_agent.drv [ahb_slv_driver] [DRV][AHB][REQ] AHB_READ addr=0x2804 trans=AHB_TRANS_SEQ burst=AHB_BURST_INCR16 size=4B
# UVM_INFO ../10_tb/ahb_slv/ahb_slv_driver.sv(201) @ 925000: uvm_test_top.env.ahb_agent.drv [ahb_slv_driver] [DRV][AHB][RSP] AHB_READ addr=0x2804 data=0xffffd7fb resp=AHB_RESP_OKAY ready_delay=0
# UVM_INFO ../10_tb/ahb_slv/ahb_slv_monitor.sv(119) @ 925000: uvm_test_top.env.ahb_agent.mon [ahb_slv_monitor] [MON][AHB][TR] AHB AHB_READ addr=0x2804 trans=AHB_TRANS_SEQ burst=AHB_BURST_INCR16 size=4B mastlock=0 resp=AHB_RESP_OKAY waits=0 | data=0xffffd7fb
# UVM_INFO ../10_tb/env/scoreboard.sv(359) @ 925000: uvm_test_top.env.scb [scoreboard] [SCB][AHB][PASS] AHB AHB_READ addr=0x2804 trans=AHB_TRANS_SEQ burst=AHB_BURST_INCR16 size=4B mastlock=0 resp=AHB_RESP_OKAY waits=0 | data=0xffffd7fb | total=25
# UVM_INFO ../10_tb/axi4_mst/axi4_mst_driver.sv(290) @ 925000: uvm_test_top.env.axi_agent.drv [axi4_mst_driver] [DRV][AXI][R] id=0x0 beat=1/16 data=0xffffd7ff resp=AXI4_RESP_OKAY last=0
# UVM_INFO ../10_tb/axi4_mst/axi4_mst_monitor.sv(256) @ 925000: uvm_test_top.env.axi_agent.mon [axi4_mst_monitor] [MON][AXI][R] id=0x0 beat=1/16 data=0xffffd7ff resp=AXI4_RESP_OKAY last=0
# UVM_INFO ../10_tb/ahb_slv/ahb_slv_driver.sv(87) @ 935000: uvm_test_top.env.ahb_agent.drv [ahb_slv_driver] [DRV][AHB][REQ] AHB_READ addr=0x2808 trans=AHB_TRANS_SEQ burst=AHB_BURST_INCR16 size=4B
# UVM_INFO ../10_tb/ahb_slv/ahb_slv_driver.sv(201) @ 945000: uvm_test_top.env.ahb_agent.drv [ahb_slv_driver] [DRV][AHB][RSP] AHB_READ addr=0x2808 data=0xffffd7f7 resp=AHB_RESP_OKAY ready_delay=0
# UVM_INFO ../10_tb/ahb_slv/ahb_slv_monitor.sv(119) @ 945000: uvm_test_top.env.ahb_agent.mon [ahb_slv_monitor] [MON][AHB][TR] AHB AHB_READ addr=0x2808 trans=AHB_TRANS_SEQ burst=AHB_BURST_INCR16 size=4B mastlock=0 resp=AHB_RESP_OKAY waits=0 | data=0xffffd7f7
# UVM_INFO ../10_tb/env/scoreboard.sv(359) @ 945000: uvm_test_top.env.scb [scoreboard] [SCB][AHB][PASS] AHB AHB_READ addr=0x2808 trans=AHB_TRANS_SEQ burst=AHB_BURST_INCR16 size=4B mastlock=0 resp=AHB_RESP_OKAY waits=0 | data=0xffffd7f7 | total=26
# UVM_INFO ../10_tb/axi4_mst/axi4_mst_driver.sv(290) @ 945000: uvm_test_top.env.axi_agent.drv [axi4_mst_driver] [DRV][AXI][R] id=0x0 beat=2/16 data=0xffffd7fb resp=AXI4_RESP_OKAY last=0
# UVM_INFO ../10_tb/axi4_mst/axi4_mst_monitor.sv(256) @ 945000: uvm_test_top.env.axi_agent.mon [axi4_mst_monitor] [MON][AXI][R] id=0x0 beat=2/16 data=0xffffd7fb resp=AXI4_RESP_OKAY last=0
# UVM_INFO ../10_tb/ahb_slv/ahb_slv_driver.sv(87) @ 955000: uvm_test_top.env.ahb_agent.drv [ahb_slv_driver] [DRV][AHB][REQ] AHB_READ addr=0x280c trans=AHB_TRANS_SEQ burst=AHB_BURST_INCR16 size=4B
# UVM_INFO ../10_tb/ahb_slv/ahb_slv_driver.sv(201) @ 965000: uvm_test_top.env.ahb_agent.drv [ahb_slv_driver] [DRV][AHB][RSP] AHB_READ addr=0x280c data=0xffffd7f3 resp=AHB_RESP_OKAY ready_delay=0
# UVM_INFO ../10_tb/ahb_slv/ahb_slv_monitor.sv(119) @ 965000: uvm_test_top.env.ahb_agent.mon [ahb_slv_monitor] [MON][AHB][TR] AHB AHB_READ addr=0x280c trans=AHB_TRANS_SEQ burst=AHB_BURST_INCR16 size=4B mastlock=0 resp=AHB_RESP_OKAY waits=0 | data=0xffffd7f3
# UVM_INFO ../10_tb/env/scoreboard.sv(359) @ 965000: uvm_test_top.env.scb [scoreboard] [SCB][AHB][PASS] AHB AHB_READ addr=0x280c trans=AHB_TRANS_SEQ burst=AHB_BURST_INCR16 size=4B mastlock=0 resp=AHB_RESP_OKAY waits=0 | data=0xffffd7f3 | total=27
# UVM_INFO ../10_tb/axi4_mst/axi4_mst_driver.sv(290) @ 965000: uvm_test_top.env.axi_agent.drv [axi4_mst_driver] [DRV][AXI][R] id=0x0 beat=3/16 data=0xffffd7f7 resp=AXI4_RESP_OKAY last=0
# UVM_INFO ../10_tb/axi4_mst/axi4_mst_monitor.sv(256) @ 965000: uvm_test_top.env.axi_agent.mon [axi4_mst_monitor] [MON][AXI][R] id=0x0 beat=3/16 data=0xffffd7f7 resp=AXI4_RESP_OKAY last=0
# UVM_INFO ../10_tb/ahb_slv/ahb_slv_driver.sv(87) @ 975000: uvm_test_top.env.ahb_agent.drv [ahb_slv_driver] [DRV][AHB][REQ] AHB_READ addr=0x2810 trans=AHB_TRANS_SEQ burst=AHB_BURST_INCR16 size=4B
# UVM_INFO ../10_tb/ahb_slv/ahb_slv_driver.sv(201) @ 985000: uvm_test_top.env.ahb_agent.drv [ahb_slv_driver] [DRV][AHB][RSP] AHB_READ addr=0x2810 data=0xffffd7ef resp=AHB_RESP_OKAY ready_delay=0
# UVM_INFO ../10_tb/ahb_slv/ahb_slv_monitor.sv(119) @ 985000: uvm_test_top.env.ahb_agent.mon [ahb_slv_monitor] [MON][AHB][TR] AHB AHB_READ addr=0x2810 trans=AHB_TRANS_SEQ burst=AHB_BURST_INCR16 size=4B mastlock=0 resp=AHB_RESP_OKAY waits=0 | data=0xffffd7ef
# UVM_INFO ../10_tb/env/scoreboard.sv(359) @ 985000: uvm_test_top.env.scb [scoreboard] [SCB][AHB][PASS] AHB AHB_READ addr=0x2810 trans=AHB_TRANS_SEQ burst=AHB_BURST_INCR16 size=4B mastlock=0 resp=AHB_RESP_OKAY waits=0 | data=0xffffd7ef | total=28
# UVM_INFO ../10_tb/axi4_mst/axi4_mst_driver.sv(290) @ 985000: uvm_test_top.env.axi_agent.drv [axi4_mst_driver] [DRV][AXI][R] id=0x0 beat=4/16 data=0xffffd7f3 resp=AXI4_RESP_OKAY last=0
# UVM_INFO ../10_tb/axi4_mst/axi4_mst_monitor.sv(256) @ 985000: uvm_test_top.env.axi_agent.mon [axi4_mst_monitor] [MON][AXI][R] id=0x0 beat=4/16 data=0xffffd7f3 resp=AXI4_RESP_OKAY last=0
# UVM_INFO ../10_tb/ahb_slv/ahb_slv_driver.sv(87) @ 995000: uvm_test_top.env.ahb_agent.drv [ahb_slv_driver] [DRV][AHB][REQ] AHB_READ addr=0x2814 trans=AHB_TRANS_SEQ burst=AHB_BURST_INCR16 size=4B
# UVM_INFO ../10_tb/ahb_slv/ahb_slv_driver.sv(201) @ 1005000: uvm_test_top.env.ahb_agent.drv [ahb_slv_driver] [DRV][AHB][RSP] AHB_READ addr=0x2814 data=0xffffd7eb resp=AHB_RESP_OKAY ready_delay=0
# UVM_INFO ../10_tb/ahb_slv/ahb_slv_monitor.sv(119) @ 1005000: uvm_test_top.env.ahb_agent.mon [ahb_slv_monitor] [MON][AHB][TR] AHB AHB_READ addr=0x2814 trans=AHB_TRANS_SEQ burst=AHB_BURST_INCR16 size=4B mastlock=0 resp=AHB_RESP_OKAY waits=0 | data=0xffffd7eb
# UVM_INFO ../10_tb/env/scoreboard.sv(359) @ 1005000: uvm_test_top.env.scb [scoreboard] [SCB][AHB][PASS] AHB AHB_READ addr=0x2814 trans=AHB_TRANS_SEQ burst=AHB_BURST_INCR16 size=4B mastlock=0 resp=AHB_RESP_OKAY waits=0 | data=0xffffd7eb | total=29
# UVM_INFO ../10_tb/axi4_mst/axi4_mst_driver.sv(290) @ 1005000: uvm_test_top.env.axi_agent.drv [axi4_mst_driver] [DRV][AXI][R] id=0x0 beat=5/16 data=0xffffd7ef resp=AXI4_RESP_OKAY last=0
# UVM_INFO ../10_tb/axi4_mst/axi4_mst_monitor.sv(256) @ 1005000: uvm_test_top.env.axi_agent.mon [axi4_mst_monitor] [MON][AXI][R] id=0x0 beat=5/16 data=0xffffd7ef resp=AXI4_RESP_OKAY last=0
# UVM_INFO ../10_tb/ahb_slv/ahb_slv_driver.sv(87) @ 1015000: uvm_test_top.env.ahb_agent.drv [ahb_slv_driver] [DRV][AHB][REQ] AHB_READ addr=0x2818 trans=AHB_TRANS_SEQ burst=AHB_BURST_INCR16 size=4B
# UVM_INFO ../10_tb/ahb_slv/ahb_slv_driver.sv(201) @ 1025000: uvm_test_top.env.ahb_agent.drv [ahb_slv_driver] [DRV][AHB][RSP] AHB_READ addr=0x2818 data=0xffffd7e7 resp=AHB_RESP_OKAY ready_delay=0
# UVM_INFO ../10_tb/ahb_slv/ahb_slv_monitor.sv(119) @ 1025000: uvm_test_top.env.ahb_agent.mon [ahb_slv_monitor] [MON][AHB][TR] AHB AHB_READ addr=0x2818 trans=AHB_TRANS_SEQ burst=AHB_BURST_INCR16 size=4B mastlock=0 resp=AHB_RESP_OKAY waits=0 | data=0xffffd7e7
# UVM_INFO ../10_tb/env/scoreboard.sv(359) @ 1025000: uvm_test_top.env.scb [scoreboard] [SCB][AHB][PASS] AHB AHB_READ addr=0x2818 trans=AHB_TRANS_SEQ burst=AHB_BURST_INCR16 size=4B mastlock=0 resp=AHB_RESP_OKAY waits=0 | data=0xffffd7e7 | total=30
# UVM_INFO ../10_tb/axi4_mst/axi4_mst_driver.sv(290) @ 1025000: uvm_test_top.env.axi_agent.drv [axi4_mst_driver] [DRV][AXI][R] id=0x0 beat=6/16 data=0xffffd7eb resp=AXI4_RESP_OKAY last=0
# UVM_INFO ../10_tb/axi4_mst/axi4_mst_monitor.sv(256) @ 1025000: uvm_test_top.env.axi_agent.mon [axi4_mst_monitor] [MON][AXI][R] id=0x0 beat=6/16 data=0xffffd7eb resp=AXI4_RESP_OKAY last=0
# UVM_INFO ../10_tb/ahb_slv/ahb_slv_driver.sv(87) @ 1035000: uvm_test_top.env.ahb_agent.drv [ahb_slv_driver] [DRV][AHB][REQ] AHB_READ addr=0x281c trans=AHB_TRANS_SEQ burst=AHB_BURST_INCR16 size=4B
# UVM_INFO ../10_tb/ahb_slv/ahb_slv_driver.sv(201) @ 1045000: uvm_test_top.env.ahb_agent.drv [ahb_slv_driver] [DRV][AHB][RSP] AHB_READ addr=0x281c data=0xffffd7e3 resp=AHB_RESP_OKAY ready_delay=0
# UVM_INFO ../10_tb/ahb_slv/ahb_slv_monitor.sv(119) @ 1045000: uvm_test_top.env.ahb_agent.mon [ahb_slv_monitor] [MON][AHB][TR] AHB AHB_READ addr=0x281c trans=AHB_TRANS_SEQ burst=AHB_BURST_INCR16 size=4B mastlock=0 resp=AHB_RESP_OKAY waits=0 | data=0xffffd7e3
# UVM_INFO ../10_tb/env/scoreboard.sv(359) @ 1045000: uvm_test_top.env.scb [scoreboard] [SCB][AHB][PASS] AHB AHB_READ addr=0x281c trans=AHB_TRANS_SEQ burst=AHB_BURST_INCR16 size=4B mastlock=0 resp=AHB_RESP_OKAY waits=0 | data=0xffffd7e3 | total=31
# UVM_INFO ../10_tb/axi4_mst/axi4_mst_driver.sv(290) @ 1045000: uvm_test_top.env.axi_agent.drv [axi4_mst_driver] [DRV][AXI][R] id=0x0 beat=7/16 data=0xffffd7e7 resp=AXI4_RESP_OKAY last=0
# UVM_INFO ../10_tb/axi4_mst/axi4_mst_monitor.sv(256) @ 1045000: uvm_test_top.env.axi_agent.mon [axi4_mst_monitor] [MON][AXI][R] id=0x0 beat=7/16 data=0xffffd7e7 resp=AXI4_RESP_OKAY last=0
# UVM_INFO ../10_tb/ahb_slv/ahb_slv_driver.sv(87) @ 1055000: uvm_test_top.env.ahb_agent.drv [ahb_slv_driver] [DRV][AHB][REQ] AHB_READ addr=0x2820 trans=AHB_TRANS_SEQ burst=AHB_BURST_INCR16 size=4B
# UVM_INFO ../10_tb/ahb_slv/ahb_slv_driver.sv(201) @ 1065000: uvm_test_top.env.ahb_agent.drv [ahb_slv_driver] [DRV][AHB][RSP] AHB_READ addr=0x2820 data=0xffffd7df resp=AHB_RESP_OKAY ready_delay=0
# UVM_INFO ../10_tb/ahb_slv/ahb_slv_monitor.sv(119) @ 1065000: uvm_test_top.env.ahb_agent.mon [ahb_slv_monitor] [MON][AHB][TR] AHB AHB_READ addr=0x2820 trans=AHB_TRANS_SEQ burst=AHB_BURST_INCR16 size=4B mastlock=0 resp=AHB_RESP_OKAY waits=0 | data=0xffffd7df
# UVM_INFO ../10_tb/env/scoreboard.sv(359) @ 1065000: uvm_test_top.env.scb [scoreboard] [SCB][AHB][PASS] AHB AHB_READ addr=0x2820 trans=AHB_TRANS_SEQ burst=AHB_BURST_INCR16 size=4B mastlock=0 resp=AHB_RESP_OKAY waits=0 | data=0xffffd7df | total=32
# UVM_INFO ../10_tb/axi4_mst/axi4_mst_driver.sv(290) @ 1065000: uvm_test_top.env.axi_agent.drv [axi4_mst_driver] [DRV][AXI][R] id=0x0 beat=8/16 data=0xffffd7e3 resp=AXI4_RESP_OKAY last=0
# UVM_INFO ../10_tb/axi4_mst/axi4_mst_monitor.sv(256) @ 1065000: uvm_test_top.env.axi_agent.mon [axi4_mst_monitor] [MON][AXI][R] id=0x0 beat=8/16 data=0xffffd7e3 resp=AXI4_RESP_OKAY last=0
# UVM_INFO ../10_tb/ahb_slv/ahb_slv_driver.sv(87) @ 1075000: uvm_test_top.env.ahb_agent.drv [ahb_slv_driver] [DRV][AHB][REQ] AHB_READ addr=0x2824 trans=AHB_TRANS_SEQ burst=AHB_BURST_INCR16 size=4B
# UVM_INFO ../10_tb/ahb_slv/ahb_slv_driver.sv(201) @ 1085000: uvm_test_top.env.ahb_agent.drv [ahb_slv_driver] [DRV][AHB][RSP] AHB_READ addr=0x2824 data=0xffffd7db resp=AHB_RESP_OKAY ready_delay=0
# UVM_INFO ../10_tb/ahb_slv/ahb_slv_monitor.sv(119) @ 1085000: uvm_test_top.env.ahb_agent.mon [ahb_slv_monitor] [MON][AHB][TR] AHB AHB_READ addr=0x2824 trans=AHB_TRANS_SEQ burst=AHB_BURST_INCR16 size=4B mastlock=0 resp=AHB_RESP_OKAY waits=0 | data=0xffffd7db
# UVM_INFO ../10_tb/env/scoreboard.sv(359) @ 1085000: uvm_test_top.env.scb [scoreboard] [SCB][AHB][PASS] AHB AHB_READ addr=0x2824 trans=AHB_TRANS_SEQ burst=AHB_BURST_INCR16 size=4B mastlock=0 resp=AHB_RESP_OKAY waits=0 | data=0xffffd7db | total=33
# UVM_INFO ../10_tb/axi4_mst/axi4_mst_driver.sv(290) @ 1085000: uvm_test_top.env.axi_agent.drv [axi4_mst_driver] [DRV][AXI][R] id=0x0 beat=9/16 data=0xffffd7df resp=AXI4_RESP_OKAY last=0
# UVM_INFO ../10_tb/axi4_mst/axi4_mst_monitor.sv(256) @ 1085000: uvm_test_top.env.axi_agent.mon [axi4_mst_monitor] [MON][AXI][R] id=0x0 beat=9/16 data=0xffffd7df resp=AXI4_RESP_OKAY last=0
# UVM_INFO ../10_tb/ahb_slv/ahb_slv_driver.sv(87) @ 1095000: uvm_test_top.env.ahb_agent.drv [ahb_slv_driver] [DRV][AHB][REQ] AHB_READ addr=0x2828 trans=AHB_TRANS_SEQ burst=AHB_BURST_INCR16 size=4B
# UVM_INFO ../10_tb/ahb_slv/ahb_slv_driver.sv(201) @ 1105000: uvm_test_top.env.ahb_agent.drv [ahb_slv_driver] [DRV][AHB][RSP] AHB_READ addr=0x2828 data=0xffffd7d7 resp=AHB_RESP_OKAY ready_delay=0
# UVM_INFO ../10_tb/ahb_slv/ahb_slv_monitor.sv(119) @ 1105000: uvm_test_top.env.ahb_agent.mon [ahb_slv_monitor] [MON][AHB][TR] AHB AHB_READ addr=0x2828 trans=AHB_TRANS_SEQ burst=AHB_BURST_INCR16 size=4B mastlock=0 resp=AHB_RESP_OKAY waits=0 | data=0xffffd7d7
# UVM_INFO ../10_tb/env/scoreboard.sv(359) @ 1105000: uvm_test_top.env.scb [scoreboard] [SCB][AHB][PASS] AHB AHB_READ addr=0x2828 trans=AHB_TRANS_SEQ burst=AHB_BURST_INCR16 size=4B mastlock=0 resp=AHB_RESP_OKAY waits=0 | data=0xffffd7d7 | total=34
# UVM_INFO ../10_tb/axi4_mst/axi4_mst_driver.sv(290) @ 1105000: uvm_test_top.env.axi_agent.drv [axi4_mst_driver] [DRV][AXI][R] id=0x0 beat=10/16 data=0xffffd7db resp=AXI4_RESP_OKAY last=0
# UVM_INFO ../10_tb/axi4_mst/axi4_mst_monitor.sv(256) @ 1105000: uvm_test_top.env.axi_agent.mon [axi4_mst_monitor] [MON][AXI][R] id=0x0 beat=10/16 data=0xffffd7db resp=AXI4_RESP_OKAY last=0
# UVM_INFO ../10_tb/ahb_slv/ahb_slv_driver.sv(87) @ 1115000: uvm_test_top.env.ahb_agent.drv [ahb_slv_driver] [DRV][AHB][REQ] AHB_READ addr=0x282c trans=AHB_TRANS_SEQ burst=AHB_BURST_INCR16 size=4B
# UVM_INFO ../10_tb/ahb_slv/ahb_slv_driver.sv(201) @ 1125000: uvm_test_top.env.ahb_agent.drv [ahb_slv_driver] [DRV][AHB][RSP] AHB_READ addr=0x282c data=0xffffd7d3 resp=AHB_RESP_OKAY ready_delay=0
# UVM_INFO ../10_tb/ahb_slv/ahb_slv_monitor.sv(119) @ 1125000: uvm_test_top.env.ahb_agent.mon [ahb_slv_monitor] [MON][AHB][TR] AHB AHB_READ addr=0x282c trans=AHB_TRANS_SEQ burst=AHB_BURST_INCR16 size=4B mastlock=0 resp=AHB_RESP_OKAY waits=0 | data=0xffffd7d3
# UVM_INFO ../10_tb/env/scoreboard.sv(359) @ 1125000: uvm_test_top.env.scb [scoreboard] [SCB][AHB][PASS] AHB AHB_READ addr=0x282c trans=AHB_TRANS_SEQ burst=AHB_BURST_INCR16 size=4B mastlock=0 resp=AHB_RESP_OKAY waits=0 | data=0xffffd7d3 | total=35
# UVM_INFO ../10_tb/axi4_mst/axi4_mst_driver.sv(290) @ 1125000: uvm_test_top.env.axi_agent.drv [axi4_mst_driver] [DRV][AXI][R] id=0x0 beat=11/16 data=0xffffd7d7 resp=AXI4_RESP_OKAY last=0
# UVM_INFO ../10_tb/axi4_mst/axi4_mst_monitor.sv(256) @ 1125000: uvm_test_top.env.axi_agent.mon [axi4_mst_monitor] [MON][AXI][R] id=0x0 beat=11/16 data=0xffffd7d7 resp=AXI4_RESP_OKAY last=0
# UVM_INFO ../10_tb/ahb_slv/ahb_slv_driver.sv(87) @ 1135000: uvm_test_top.env.ahb_agent.drv [ahb_slv_driver] [DRV][AHB][REQ] AHB_READ addr=0x2830 trans=AHB_TRANS_SEQ burst=AHB_BURST_INCR16 size=4B
# UVM_INFO ../10_tb/ahb_slv/ahb_slv_driver.sv(201) @ 1145000: uvm_test_top.env.ahb_agent.drv [ahb_slv_driver] [DRV][AHB][RSP] AHB_READ addr=0x2830 data=0xffffd7cf resp=AHB_RESP_OKAY ready_delay=0
# UVM_INFO ../10_tb/ahb_slv/ahb_slv_monitor.sv(119) @ 1145000: uvm_test_top.env.ahb_agent.mon [ahb_slv_monitor] [MON][AHB][TR] AHB AHB_READ addr=0x2830 trans=AHB_TRANS_SEQ burst=AHB_BURST_INCR16 size=4B mastlock=0 resp=AHB_RESP_OKAY waits=0 | data=0xffffd7cf
# UVM_INFO ../10_tb/env/scoreboard.sv(359) @ 1145000: uvm_test_top.env.scb [scoreboard] [SCB][AHB][PASS] AHB AHB_READ addr=0x2830 trans=AHB_TRANS_SEQ burst=AHB_BURST_INCR16 size=4B mastlock=0 resp=AHB_RESP_OKAY waits=0 | data=0xffffd7cf | total=36
# UVM_INFO ../10_tb/axi4_mst/axi4_mst_driver.sv(290) @ 1145000: uvm_test_top.env.axi_agent.drv [axi4_mst_driver] [DRV][AXI][R] id=0x0 beat=12/16 data=0xffffd7d3 resp=AXI4_RESP_OKAY last=0
# UVM_INFO ../10_tb/axi4_mst/axi4_mst_monitor.sv(256) @ 1145000: uvm_test_top.env.axi_agent.mon [axi4_mst_monitor] [MON][AXI][R] id=0x0 beat=12/16 data=0xffffd7d3 resp=AXI4_RESP_OKAY last=0
# UVM_INFO ../10_tb/ahb_slv/ahb_slv_driver.sv(87) @ 1155000: uvm_test_top.env.ahb_agent.drv [ahb_slv_driver] [DRV][AHB][REQ] AHB_READ addr=0x2834 trans=AHB_TRANS_SEQ burst=AHB_BURST_INCR16 size=4B
# UVM_INFO ../10_tb/ahb_slv/ahb_slv_driver.sv(201) @ 1165000: uvm_test_top.env.ahb_agent.drv [ahb_slv_driver] [DRV][AHB][RSP] AHB_READ addr=0x2834 data=0xffffd7cb resp=AHB_RESP_OKAY ready_delay=0
# UVM_INFO ../10_tb/ahb_slv/ahb_slv_monitor.sv(119) @ 1165000: uvm_test_top.env.ahb_agent.mon [ahb_slv_monitor] [MON][AHB][TR] AHB AHB_READ addr=0x2834 trans=AHB_TRANS_SEQ burst=AHB_BURST_INCR16 size=4B mastlock=0 resp=AHB_RESP_OKAY waits=0 | data=0xffffd7cb
# UVM_INFO ../10_tb/env/scoreboard.sv(359) @ 1165000: uvm_test_top.env.scb [scoreboard] [SCB][AHB][PASS] AHB AHB_READ addr=0x2834 trans=AHB_TRANS_SEQ burst=AHB_BURST_INCR16 size=4B mastlock=0 resp=AHB_RESP_OKAY waits=0 | data=0xffffd7cb | total=37
# UVM_INFO ../10_tb/axi4_mst/axi4_mst_driver.sv(290) @ 1165000: uvm_test_top.env.axi_agent.drv [axi4_mst_driver] [DRV][AXI][R] id=0x0 beat=13/16 data=0xffffd7cf resp=AXI4_RESP_OKAY last=0
# UVM_INFO ../10_tb/axi4_mst/axi4_mst_monitor.sv(256) @ 1165000: uvm_test_top.env.axi_agent.mon [axi4_mst_monitor] [MON][AXI][R] id=0x0 beat=13/16 data=0xffffd7cf resp=AXI4_RESP_OKAY last=0
# UVM_INFO ../10_tb/ahb_slv/ahb_slv_driver.sv(87) @ 1175000: uvm_test_top.env.ahb_agent.drv [ahb_slv_driver] [DRV][AHB][REQ] AHB_READ addr=0x2838 trans=AHB_TRANS_SEQ burst=AHB_BURST_INCR16 size=4B
# UVM_INFO ../10_tb/ahb_slv/ahb_slv_driver.sv(201) @ 1185000: uvm_test_top.env.ahb_agent.drv [ahb_slv_driver] [DRV][AHB][RSP] AHB_READ addr=0x2838 data=0xffffd7c7 resp=AHB_RESP_OKAY ready_delay=0
# UVM_INFO ../10_tb/ahb_slv/ahb_slv_monitor.sv(119) @ 1185000: uvm_test_top.env.ahb_agent.mon [ahb_slv_monitor] [MON][AHB][TR] AHB AHB_READ addr=0x2838 trans=AHB_TRANS_SEQ burst=AHB_BURST_INCR16 size=4B mastlock=0 resp=AHB_RESP_OKAY waits=0 | data=0xffffd7c7
# UVM_INFO ../10_tb/env/scoreboard.sv(359) @ 1185000: uvm_test_top.env.scb [scoreboard] [SCB][AHB][PASS] AHB AHB_READ addr=0x2838 trans=AHB_TRANS_SEQ burst=AHB_BURST_INCR16 size=4B mastlock=0 resp=AHB_RESP_OKAY waits=0 | data=0xffffd7c7 | total=38
# UVM_INFO ../10_tb/axi4_mst/axi4_mst_driver.sv(290) @ 1185000: uvm_test_top.env.axi_agent.drv [axi4_mst_driver] [DRV][AXI][R] id=0x0 beat=14/16 data=0xffffd7cb resp=AXI4_RESP_OKAY last=0
# UVM_INFO ../10_tb/axi4_mst/axi4_mst_monitor.sv(256) @ 1185000: uvm_test_top.env.axi_agent.mon [axi4_mst_monitor] [MON][AXI][R] id=0x0 beat=14/16 data=0xffffd7cb resp=AXI4_RESP_OKAY last=0
# UVM_INFO ../10_tb/ahb_slv/ahb_slv_driver.sv(87) @ 1195000: uvm_test_top.env.ahb_agent.drv [ahb_slv_driver] [DRV][AHB][REQ] AHB_READ addr=0x283c trans=AHB_TRANS_SEQ burst=AHB_BURST_INCR16 size=4B
# UVM_INFO ../10_tb/ahb_slv/ahb_slv_driver.sv(201) @ 1205000: uvm_test_top.env.ahb_agent.drv [ahb_slv_driver] [DRV][AHB][RSP] AHB_READ addr=0x283c data=0xffffd7c3 resp=AHB_RESP_OKAY ready_delay=0
# UVM_INFO ../10_tb/ahb_slv/ahb_slv_monitor.sv(119) @ 1205000: uvm_test_top.env.ahb_agent.mon [ahb_slv_monitor] [MON][AHB][TR] AHB AHB_READ addr=0x283c trans=AHB_TRANS_SEQ burst=AHB_BURST_INCR16 size=4B mastlock=0 resp=AHB_RESP_OKAY waits=0 | data=0xffffd7c3
# UVM_INFO ../10_tb/env/scoreboard.sv(359) @ 1205000: uvm_test_top.env.scb [scoreboard] [SCB][AHB][PASS] AHB AHB_READ addr=0x283c trans=AHB_TRANS_SEQ burst=AHB_BURST_INCR16 size=4B mastlock=0 resp=AHB_RESP_OKAY waits=0 | data=0xffffd7c3 | total=39
# UVM_INFO ../10_tb/axi4_mst/axi4_mst_driver.sv(290) @ 1205000: uvm_test_top.env.axi_agent.drv [axi4_mst_driver] [DRV][AXI][R] id=0x0 beat=15/16 data=0xffffd7c7 resp=AXI4_RESP_OKAY last=0
# UVM_INFO ../10_tb/axi4_mst/axi4_mst_monitor.sv(256) @ 1205000: uvm_test_top.env.axi_agent.mon [axi4_mst_monitor] [MON][AXI][R] id=0x0 beat=15/16 data=0xffffd7c7 resp=AXI4_RESP_OKAY last=0
# UVM_INFO ../10_tb/axi4_mst/axi4_mst_driver.sv(290) @ 1225000: uvm_test_top.env.axi_agent.drv [axi4_mst_driver] [DRV][AXI][R] id=0x0 beat=16/16 data=0xffffd7c3 resp=AXI4_RESP_OKAY last=1
# UVM_INFO ../10_tb/axi4_mst/axi4_mst_monitor.sv(256) @ 1225000: uvm_test_top.env.axi_agent.mon [axi4_mst_monitor] [MON][AXI][R] id=0x0 beat=16/16 data=0xffffd7c3 resp=AXI4_RESP_OKAY last=1
# UVM_INFO ../10_tb/axi4_mst/axi4_mst_monitor.sv(262) @ 1225000: uvm_test_top.env.axi_agent.mon [axi4_mst_monitor] [MON][AXI][RSP] READ id=0x0 beats=16
# UVM_INFO ../10_tb/env/scoreboard.sv(506) @ 1225000: uvm_test_top.env.scb [scoreboard] [SCB][AXI][PASS] AXI4 AXI4_READ id=0x0 addr=0x2800 burst=AXI4_BURST_INCR beats=16 size=4B lock=0 | read beats=16 | total=9
# UVM_INFO ../10_tb/axi4_mst/axi4_mst_driver.sv(225) @ 1235000: uvm_test_top.env.axi_agent.drv [axi4_mst_driver] [DRV][AXI][AR] id=0x1 addr=0x2900 burst=AXI4_BURST_INCR beats=8 size=4B
# UVM_INFO ../10_tb/axi4_mst/axi4_mst_monitor.sv(211) @ 1235000: uvm_test_top.env.axi_agent.mon [axi4_mst_monitor] [MON][AXI][REQ] AXI4 AXI4_READ id=0x1 addr=0x2900 burst=AXI4_BURST_INCR beats=8 size=4B lock=0
# UVM_INFO ../10_tb/env/predictor.sv(75) @ 1235000: uvm_test_top.env.pred [predictor] [PRED][AXI][IN] AXI4 AXI4_READ id=0x1 addr=0x2900 burst=AXI4_BURST_INCR beats=8 size=4B lock=0 | queued=1
# UVM_INFO ../10_tb/env/predictor.sv(138) @ 1235000: uvm_test_top.env.pred [predictor] [PRED][MAP] AXI4 AXI4_READ id=0x1 addr=0x2900 burst=AXI4_BURST_INCR beats=8 size=4B lock=0 -> AHB burst=AHB_BURST_INCR8 size=4B crosses_1kb=0
# UVM_INFO ../10_tb/env/predictor.sv(175) @ 1235000: uvm_test_top.env.pred [predictor] [PRED][AHB] beat=1/8 | AHB AHB_READ addr=0x2900 trans=AHB_TRANS_NONSEQ burst=AHB_BURST_INCR8 size=4B mastlock=0 resp=AHB_RESP_OKAY waits=0
# UVM_INFO ../10_tb/env/predictor.sv(175) @ 1235000: uvm_test_top.env.pred [predictor] [PRED][AHB] beat=2/8 | AHB AHB_READ addr=0x2904 trans=AHB_TRANS_SEQ burst=AHB_BURST_INCR8 size=4B mastlock=0 resp=AHB_RESP_OKAY waits=0
# UVM_INFO ../10_tb/env/predictor.sv(175) @ 1235000: uvm_test_top.env.pred [predictor] [PRED][AHB] beat=3/8 | AHB AHB_READ addr=0x2908 trans=AHB_TRANS_SEQ burst=AHB_BURST_INCR8 size=4B mastlock=0 resp=AHB_RESP_OKAY waits=0
# UVM_INFO ../10_tb/env/predictor.sv(175) @ 1235000: uvm_test_top.env.pred [predictor] [PRED][AHB] beat=4/8 | AHB AHB_READ addr=0x290c trans=AHB_TRANS_SEQ burst=AHB_BURST_INCR8 size=4B mastlock=0 resp=AHB_RESP_OKAY waits=0
# UVM_INFO ../10_tb/env/predictor.sv(175) @ 1235000: uvm_test_top.env.pred [predictor] [PRED][AHB] beat=5/8 | AHB AHB_READ addr=0x2910 trans=AHB_TRANS_SEQ burst=AHB_BURST_INCR8 size=4B mastlock=0 resp=AHB_RESP_OKAY waits=0
# UVM_INFO ../10_tb/env/predictor.sv(175) @ 1235000: uvm_test_top.env.pred [predictor] [PRED][AHB] beat=6/8 | AHB AHB_READ addr=0x2914 trans=AHB_TRANS_SEQ burst=AHB_BURST_INCR8 size=4B mastlock=0 resp=AHB_RESP_OKAY waits=0
# UVM_INFO ../10_tb/env/predictor.sv(175) @ 1235000: uvm_test_top.env.pred [predictor] [PRED][AHB] beat=7/8 | AHB AHB_READ addr=0x2918 trans=AHB_TRANS_SEQ burst=AHB_BURST_INCR8 size=4B mastlock=0 resp=AHB_RESP_OKAY waits=0
# UVM_INFO ../10_tb/env/predictor.sv(175) @ 1235000: uvm_test_top.env.pred [predictor] [PRED][AHB] beat=8/8 | AHB AHB_READ addr=0x291c trans=AHB_TRANS_SEQ burst=AHB_BURST_INCR8 size=4B mastlock=0 resp=AHB_RESP_OKAY waits=0
# UVM_INFO ../10_tb/ahb_slv/ahb_slv_driver.sv(87) @ 1245000: uvm_test_top.env.ahb_agent.drv [ahb_slv_driver] [DRV][AHB][REQ] AHB_READ addr=0x2900 trans=AHB_TRANS_NONSEQ burst=AHB_BURST_INCR8 size=4B
# UVM_INFO ../10_tb/ahb_slv/ahb_slv_driver.sv(201) @ 1255000: uvm_test_top.env.ahb_agent.drv [ahb_slv_driver] [DRV][AHB][RSP] AHB_READ addr=0x2900 data=0xffffd6ff resp=AHB_RESP_OKAY ready_delay=0
# UVM_INFO ../10_tb/ahb_slv/ahb_slv_monitor.sv(119) @ 1255000: uvm_test_top.env.ahb_agent.mon [ahb_slv_monitor] [MON][AHB][TR] AHB AHB_READ addr=0x2900 trans=AHB_TRANS_NONSEQ burst=AHB_BURST_INCR8 size=4B mastlock=0 resp=AHB_RESP_OKAY waits=0 | data=0xffffd6ff
# UVM_INFO ../10_tb/env/scoreboard.sv(359) @ 1255000: uvm_test_top.env.scb [scoreboard] [SCB][AHB][PASS] AHB AHB_READ addr=0x2900 trans=AHB_TRANS_NONSEQ burst=AHB_BURST_INCR8 size=4B mastlock=0 resp=AHB_RESP_OKAY waits=0 | data=0xffffd6ff | total=40
# UVM_INFO ../10_tb/ahb_slv/ahb_slv_driver.sv(87) @ 1265000: uvm_test_top.env.ahb_agent.drv [ahb_slv_driver] [DRV][AHB][REQ] AHB_READ addr=0x2904 trans=AHB_TRANS_SEQ burst=AHB_BURST_INCR8 size=4B
# UVM_INFO ../10_tb/ahb_slv/ahb_slv_driver.sv(201) @ 1275000: uvm_test_top.env.ahb_agent.drv [ahb_slv_driver] [DRV][AHB][RSP] AHB_READ addr=0x2904 data=0xffffd6fb resp=AHB_RESP_OKAY ready_delay=0
# UVM_INFO ../10_tb/ahb_slv/ahb_slv_monitor.sv(119) @ 1275000: uvm_test_top.env.ahb_agent.mon [ahb_slv_monitor] [MON][AHB][TR] AHB AHB_READ addr=0x2904 trans=AHB_TRANS_SEQ burst=AHB_BURST_INCR8 size=4B mastlock=0 resp=AHB_RESP_OKAY waits=0 | data=0xffffd6fb
# UVM_INFO ../10_tb/env/scoreboard.sv(359) @ 1275000: uvm_test_top.env.scb [scoreboard] [SCB][AHB][PASS] AHB AHB_READ addr=0x2904 trans=AHB_TRANS_SEQ burst=AHB_BURST_INCR8 size=4B mastlock=0 resp=AHB_RESP_OKAY waits=0 | data=0xffffd6fb | total=41
# UVM_INFO ../10_tb/axi4_mst/axi4_mst_driver.sv(290) @ 1275000: uvm_test_top.env.axi_agent.drv [axi4_mst_driver] [DRV][AXI][R] id=0x1 beat=1/8 data=0xffffd6ff resp=AXI4_RESP_OKAY last=0
# UVM_INFO ../10_tb/axi4_mst/axi4_mst_monitor.sv(256) @ 1275000: uvm_test_top.env.axi_agent.mon [axi4_mst_monitor] [MON][AXI][R] id=0x1 beat=1/8 data=0xffffd6ff resp=AXI4_RESP_OKAY last=0
# UVM_INFO ../10_tb/ahb_slv/ahb_slv_driver.sv(87) @ 1285000: uvm_test_top.env.ahb_agent.drv [ahb_slv_driver] [DRV][AHB][REQ] AHB_READ addr=0x2908 trans=AHB_TRANS_SEQ burst=AHB_BURST_INCR8 size=4B
# UVM_INFO ../10_tb/ahb_slv/ahb_slv_driver.sv(201) @ 1295000: uvm_test_top.env.ahb_agent.drv [ahb_slv_driver] [DRV][AHB][RSP] AHB_READ addr=0x2908 data=0xffffd6f7 resp=AHB_RESP_OKAY ready_delay=0
# UVM_INFO ../10_tb/ahb_slv/ahb_slv_monitor.sv(119) @ 1295000: uvm_test_top.env.ahb_agent.mon [ahb_slv_monitor] [MON][AHB][TR] AHB AHB_READ addr=0x2908 trans=AHB_TRANS_SEQ burst=AHB_BURST_INCR8 size=4B mastlock=0 resp=AHB_RESP_OKAY waits=0 | data=0xffffd6f7
# UVM_INFO ../10_tb/env/scoreboard.sv(359) @ 1295000: uvm_test_top.env.scb [scoreboard] [SCB][AHB][PASS] AHB AHB_READ addr=0x2908 trans=AHB_TRANS_SEQ burst=AHB_BURST_INCR8 size=4B mastlock=0 resp=AHB_RESP_OKAY waits=0 | data=0xffffd6f7 | total=42
# UVM_INFO ../10_tb/axi4_mst/axi4_mst_driver.sv(290) @ 1295000: uvm_test_top.env.axi_agent.drv [axi4_mst_driver] [DRV][AXI][R] id=0x1 beat=2/8 data=0xffffd6fb resp=AXI4_RESP_OKAY last=0
# UVM_INFO ../10_tb/axi4_mst/axi4_mst_monitor.sv(256) @ 1295000: uvm_test_top.env.axi_agent.mon [axi4_mst_monitor] [MON][AXI][R] id=0x1 beat=2/8 data=0xffffd6fb resp=AXI4_RESP_OKAY last=0
# UVM_INFO ../10_tb/ahb_slv/ahb_slv_driver.sv(87) @ 1305000: uvm_test_top.env.ahb_agent.drv [ahb_slv_driver] [DRV][AHB][REQ] AHB_READ addr=0x290c trans=AHB_TRANS_SEQ burst=AHB_BURST_INCR8 size=4B
# UVM_INFO ../10_tb/ahb_slv/ahb_slv_driver.sv(201) @ 1315000: uvm_test_top.env.ahb_agent.drv [ahb_slv_driver] [DRV][AHB][RSP] AHB_READ addr=0x290c data=0xffffd6f3 resp=AHB_RESP_OKAY ready_delay=0
# UVM_INFO ../10_tb/ahb_slv/ahb_slv_monitor.sv(119) @ 1315000: uvm_test_top.env.ahb_agent.mon [ahb_slv_monitor] [MON][AHB][TR] AHB AHB_READ addr=0x290c trans=AHB_TRANS_SEQ burst=AHB_BURST_INCR8 size=4B mastlock=0 resp=AHB_RESP_OKAY waits=0 | data=0xffffd6f3
# UVM_INFO ../10_tb/env/scoreboard.sv(359) @ 1315000: uvm_test_top.env.scb [scoreboard] [SCB][AHB][PASS] AHB AHB_READ addr=0x290c trans=AHB_TRANS_SEQ burst=AHB_BURST_INCR8 size=4B mastlock=0 resp=AHB_RESP_OKAY waits=0 | data=0xffffd6f3 | total=43
# UVM_INFO ../10_tb/axi4_mst/axi4_mst_driver.sv(290) @ 1315000: uvm_test_top.env.axi_agent.drv [axi4_mst_driver] [DRV][AXI][R] id=0x1 beat=3/8 data=0xffffd6f7 resp=AXI4_RESP_OKAY last=0
# UVM_INFO ../10_tb/axi4_mst/axi4_mst_monitor.sv(256) @ 1315000: uvm_test_top.env.axi_agent.mon [axi4_mst_monitor] [MON][AXI][R] id=0x1 beat=3/8 data=0xffffd6f7 resp=AXI4_RESP_OKAY last=0
# UVM_INFO ../10_tb/ahb_slv/ahb_slv_driver.sv(87) @ 1325000: uvm_test_top.env.ahb_agent.drv [ahb_slv_driver] [DRV][AHB][REQ] AHB_READ addr=0x2910 trans=AHB_TRANS_SEQ burst=AHB_BURST_INCR8 size=4B
# UVM_INFO ../10_tb/ahb_slv/ahb_slv_driver.sv(201) @ 1335000: uvm_test_top.env.ahb_agent.drv [ahb_slv_driver] [DRV][AHB][RSP] AHB_READ addr=0x2910 data=0xffffd6ef resp=AHB_RESP_OKAY ready_delay=0
# UVM_INFO ../10_tb/ahb_slv/ahb_slv_monitor.sv(119) @ 1335000: uvm_test_top.env.ahb_agent.mon [ahb_slv_monitor] [MON][AHB][TR] AHB AHB_READ addr=0x2910 trans=AHB_TRANS_SEQ burst=AHB_BURST_INCR8 size=4B mastlock=0 resp=AHB_RESP_OKAY waits=0 | data=0xffffd6ef
# UVM_INFO ../10_tb/env/scoreboard.sv(359) @ 1335000: uvm_test_top.env.scb [scoreboard] [SCB][AHB][PASS] AHB AHB_READ addr=0x2910 trans=AHB_TRANS_SEQ burst=AHB_BURST_INCR8 size=4B mastlock=0 resp=AHB_RESP_OKAY waits=0 | data=0xffffd6ef | total=44
# UVM_INFO ../10_tb/axi4_mst/axi4_mst_driver.sv(290) @ 1335000: uvm_test_top.env.axi_agent.drv [axi4_mst_driver] [DRV][AXI][R] id=0x1 beat=4/8 data=0xffffd6f3 resp=AXI4_RESP_OKAY last=0
# UVM_INFO ../10_tb/axi4_mst/axi4_mst_monitor.sv(256) @ 1335000: uvm_test_top.env.axi_agent.mon [axi4_mst_monitor] [MON][AXI][R] id=0x1 beat=4/8 data=0xffffd6f3 resp=AXI4_RESP_OKAY last=0
# UVM_INFO ../10_tb/ahb_slv/ahb_slv_driver.sv(87) @ 1345000: uvm_test_top.env.ahb_agent.drv [ahb_slv_driver] [DRV][AHB][REQ] AHB_READ addr=0x2914 trans=AHB_TRANS_SEQ burst=AHB_BURST_INCR8 size=4B
# UVM_INFO ../10_tb/ahb_slv/ahb_slv_driver.sv(201) @ 1355000: uvm_test_top.env.ahb_agent.drv [ahb_slv_driver] [DRV][AHB][RSP] AHB_READ addr=0x2914 data=0xffffd6eb resp=AHB_RESP_OKAY ready_delay=0
# UVM_INFO ../10_tb/ahb_slv/ahb_slv_monitor.sv(119) @ 1355000: uvm_test_top.env.ahb_agent.mon [ahb_slv_monitor] [MON][AHB][TR] AHB AHB_READ addr=0x2914 trans=AHB_TRANS_SEQ burst=AHB_BURST_INCR8 size=4B mastlock=0 resp=AHB_RESP_OKAY waits=0 | data=0xffffd6eb
# UVM_INFO ../10_tb/env/scoreboard.sv(359) @ 1355000: uvm_test_top.env.scb [scoreboard] [SCB][AHB][PASS] AHB AHB_READ addr=0x2914 trans=AHB_TRANS_SEQ burst=AHB_BURST_INCR8 size=4B mastlock=0 resp=AHB_RESP_OKAY waits=0 | data=0xffffd6eb | total=45
# UVM_INFO ../10_tb/axi4_mst/axi4_mst_driver.sv(290) @ 1355000: uvm_test_top.env.axi_agent.drv [axi4_mst_driver] [DRV][AXI][R] id=0x1 beat=5/8 data=0xffffd6ef resp=AXI4_RESP_OKAY last=0
# UVM_INFO ../10_tb/axi4_mst/axi4_mst_monitor.sv(256) @ 1355000: uvm_test_top.env.axi_agent.mon [axi4_mst_monitor] [MON][AXI][R] id=0x1 beat=5/8 data=0xffffd6ef resp=AXI4_RESP_OKAY last=0
# UVM_INFO ../10_tb/ahb_slv/ahb_slv_driver.sv(87) @ 1365000: uvm_test_top.env.ahb_agent.drv [ahb_slv_driver] [DRV][AHB][REQ] AHB_READ addr=0x2918 trans=AHB_TRANS_SEQ burst=AHB_BURST_INCR8 size=4B
# UVM_INFO ../10_tb/ahb_slv/ahb_slv_driver.sv(201) @ 1375000: uvm_test_top.env.ahb_agent.drv [ahb_slv_driver] [DRV][AHB][RSP] AHB_READ addr=0x2918 data=0xffffd6e7 resp=AHB_RESP_OKAY ready_delay=0
# UVM_INFO ../10_tb/ahb_slv/ahb_slv_monitor.sv(119) @ 1375000: uvm_test_top.env.ahb_agent.mon [ahb_slv_monitor] [MON][AHB][TR] AHB AHB_READ addr=0x2918 trans=AHB_TRANS_SEQ burst=AHB_BURST_INCR8 size=4B mastlock=0 resp=AHB_RESP_OKAY waits=0 | data=0xffffd6e7
# UVM_INFO ../10_tb/env/scoreboard.sv(359) @ 1375000: uvm_test_top.env.scb [scoreboard] [SCB][AHB][PASS] AHB AHB_READ addr=0x2918 trans=AHB_TRANS_SEQ burst=AHB_BURST_INCR8 size=4B mastlock=0 resp=AHB_RESP_OKAY waits=0 | data=0xffffd6e7 | total=46
# UVM_INFO ../10_tb/axi4_mst/axi4_mst_driver.sv(290) @ 1375000: uvm_test_top.env.axi_agent.drv [axi4_mst_driver] [DRV][AXI][R] id=0x1 beat=6/8 data=0xffffd6eb resp=AXI4_RESP_OKAY last=0
# UVM_INFO ../10_tb/axi4_mst/axi4_mst_monitor.sv(256) @ 1375000: uvm_test_top.env.axi_agent.mon [axi4_mst_monitor] [MON][AXI][R] id=0x1 beat=6/8 data=0xffffd6eb resp=AXI4_RESP_OKAY last=0
# UVM_INFO ../10_tb/ahb_slv/ahb_slv_driver.sv(87) @ 1385000: uvm_test_top.env.ahb_agent.drv [ahb_slv_driver] [DRV][AHB][REQ] AHB_READ addr=0x291c trans=AHB_TRANS_SEQ burst=AHB_BURST_INCR8 size=4B
# UVM_INFO ../10_tb/ahb_slv/ahb_slv_driver.sv(201) @ 1395000: uvm_test_top.env.ahb_agent.drv [ahb_slv_driver] [DRV][AHB][RSP] AHB_READ addr=0x291c data=0xffffd6e3 resp=AHB_RESP_OKAY ready_delay=0
# UVM_INFO ../10_tb/ahb_slv/ahb_slv_monitor.sv(119) @ 1395000: uvm_test_top.env.ahb_agent.mon [ahb_slv_monitor] [MON][AHB][TR] AHB AHB_READ addr=0x291c trans=AHB_TRANS_SEQ burst=AHB_BURST_INCR8 size=4B mastlock=0 resp=AHB_RESP_OKAY waits=0 | data=0xffffd6e3
# UVM_INFO ../10_tb/env/scoreboard.sv(359) @ 1395000: uvm_test_top.env.scb [scoreboard] [SCB][AHB][PASS] AHB AHB_READ addr=0x291c trans=AHB_TRANS_SEQ burst=AHB_BURST_INCR8 size=4B mastlock=0 resp=AHB_RESP_OKAY waits=0 | data=0xffffd6e3 | total=47
# UVM_INFO ../10_tb/axi4_mst/axi4_mst_driver.sv(290) @ 1395000: uvm_test_top.env.axi_agent.drv [axi4_mst_driver] [DRV][AXI][R] id=0x1 beat=7/8 data=0xffffd6e7 resp=AXI4_RESP_OKAY last=0
# UVM_INFO ../10_tb/axi4_mst/axi4_mst_monitor.sv(256) @ 1395000: uvm_test_top.env.axi_agent.mon [axi4_mst_monitor] [MON][AXI][R] id=0x1 beat=7/8 data=0xffffd6e7 resp=AXI4_RESP_OKAY last=0
# UVM_INFO ../10_tb/axi4_mst/axi4_mst_driver.sv(290) @ 1415000: uvm_test_top.env.axi_agent.drv [axi4_mst_driver] [DRV][AXI][R] id=0x1 beat=8/8 data=0xffffd6e3 resp=AXI4_RESP_OKAY last=1
# UVM_INFO ../10_tb/axi4_mst/axi4_mst_monitor.sv(256) @ 1415000: uvm_test_top.env.axi_agent.mon [axi4_mst_monitor] [MON][AXI][R] id=0x1 beat=8/8 data=0xffffd6e3 resp=AXI4_RESP_OKAY last=1
# UVM_INFO ../10_tb/axi4_mst/axi4_mst_monitor.sv(262) @ 1415000: uvm_test_top.env.axi_agent.mon [axi4_mst_monitor] [MON][AXI][RSP] READ id=0x1 beats=8
# UVM_INFO ../10_tb/env/scoreboard.sv(506) @ 1415000: uvm_test_top.env.scb [scoreboard] [SCB][AXI][PASS] AXI4 AXI4_READ id=0x1 addr=0x2900 burst=AXI4_BURST_INCR beats=8 size=4B lock=0 | read beats=8 | total=10
# UVM_INFO ../10_tb/axi4_mst/axi4_mst_driver.sv(225) @ 1425000: uvm_test_top.env.axi_agent.drv [axi4_mst_driver] [DRV][AXI][AR] id=0x2 addr=0x2a00 burst=AXI4_BURST_INCR beats=4 size=4B
# UVM_INFO ../10_tb/axi4_mst/axi4_mst_monitor.sv(211) @ 1425000: uvm_test_top.env.axi_agent.mon [axi4_mst_monitor] [MON][AXI][REQ] AXI4 AXI4_READ id=0x2 addr=0x2a00 burst=AXI4_BURST_INCR beats=4 size=4B lock=0
# UVM_INFO ../10_tb/env/predictor.sv(75) @ 1425000: uvm_test_top.env.pred [predictor] [PRED][AXI][IN] AXI4 AXI4_READ id=0x2 addr=0x2a00 burst=AXI4_BURST_INCR beats=4 size=4B lock=0 | queued=1
# UVM_INFO ../10_tb/env/predictor.sv(138) @ 1425000: uvm_test_top.env.pred [predictor] [PRED][MAP] AXI4 AXI4_READ id=0x2 addr=0x2a00 burst=AXI4_BURST_INCR beats=4 size=4B lock=0 -> AHB burst=AHB_BURST_INCR4 size=4B crosses_1kb=0
# UVM_INFO ../10_tb/env/predictor.sv(175) @ 1425000: uvm_test_top.env.pred [predictor] [PRED][AHB] beat=1/4 | AHB AHB_READ addr=0x2a00 trans=AHB_TRANS_NONSEQ burst=AHB_BURST_INCR4 size=4B mastlock=0 resp=AHB_RESP_OKAY waits=0
# UVM_INFO ../10_tb/env/predictor.sv(175) @ 1425000: uvm_test_top.env.pred [predictor] [PRED][AHB] beat=2/4 | AHB AHB_READ addr=0x2a04 trans=AHB_TRANS_SEQ burst=AHB_BURST_INCR4 size=4B mastlock=0 resp=AHB_RESP_OKAY waits=0
# UVM_INFO ../10_tb/env/predictor.sv(175) @ 1425000: uvm_test_top.env.pred [predictor] [PRED][AHB] beat=3/4 | AHB AHB_READ addr=0x2a08 trans=AHB_TRANS_SEQ burst=AHB_BURST_INCR4 size=4B mastlock=0 resp=AHB_RESP_OKAY waits=0
# UVM_INFO ../10_tb/env/predictor.sv(175) @ 1425000: uvm_test_top.env.pred [predictor] [PRED][AHB] beat=4/4 | AHB AHB_READ addr=0x2a0c trans=AHB_TRANS_SEQ burst=AHB_BURST_INCR4 size=4B mastlock=0 resp=AHB_RESP_OKAY waits=0
# UVM_INFO ../10_tb/ahb_slv/ahb_slv_driver.sv(87) @ 1435000: uvm_test_top.env.ahb_agent.drv [ahb_slv_driver] [DRV][AHB][REQ] AHB_READ addr=0x2a00 trans=AHB_TRANS_NONSEQ burst=AHB_BURST_INCR4 size=4B
# UVM_INFO ../10_tb/ahb_slv/ahb_slv_driver.sv(201) @ 1445000: uvm_test_top.env.ahb_agent.drv [ahb_slv_driver] [DRV][AHB][RSP] AHB_READ addr=0x2a00 data=0xffffd5ff resp=AHB_RESP_OKAY ready_delay=0
# UVM_INFO ../10_tb/ahb_slv/ahb_slv_monitor.sv(119) @ 1445000: uvm_test_top.env.ahb_agent.mon [ahb_slv_monitor] [MON][AHB][TR] AHB AHB_READ addr=0x2a00 trans=AHB_TRANS_NONSEQ burst=AHB_BURST_INCR4 size=4B mastlock=0 resp=AHB_RESP_OKAY waits=0 | data=0xffffd5ff
# UVM_INFO ../10_tb/env/scoreboard.sv(359) @ 1445000: uvm_test_top.env.scb [scoreboard] [SCB][AHB][PASS] AHB AHB_READ addr=0x2a00 trans=AHB_TRANS_NONSEQ burst=AHB_BURST_INCR4 size=4B mastlock=0 resp=AHB_RESP_OKAY waits=0 | data=0xffffd5ff | total=48
# UVM_INFO ../10_tb/ahb_slv/ahb_slv_driver.sv(87) @ 1455000: uvm_test_top.env.ahb_agent.drv [ahb_slv_driver] [DRV][AHB][REQ] AHB_READ addr=0x2a04 trans=AHB_TRANS_SEQ burst=AHB_BURST_INCR4 size=4B
# UVM_INFO ../10_tb/ahb_slv/ahb_slv_driver.sv(201) @ 1465000: uvm_test_top.env.ahb_agent.drv [ahb_slv_driver] [DRV][AHB][RSP] AHB_READ addr=0x2a04 data=0xffffd5fb resp=AHB_RESP_OKAY ready_delay=0
# UVM_INFO ../10_tb/ahb_slv/ahb_slv_monitor.sv(119) @ 1465000: uvm_test_top.env.ahb_agent.mon [ahb_slv_monitor] [MON][AHB][TR] AHB AHB_READ addr=0x2a04 trans=AHB_TRANS_SEQ burst=AHB_BURST_INCR4 size=4B mastlock=0 resp=AHB_RESP_OKAY waits=0 | data=0xffffd5fb
# UVM_INFO ../10_tb/env/scoreboard.sv(359) @ 1465000: uvm_test_top.env.scb [scoreboard] [SCB][AHB][PASS] AHB AHB_READ addr=0x2a04 trans=AHB_TRANS_SEQ burst=AHB_BURST_INCR4 size=4B mastlock=0 resp=AHB_RESP_OKAY waits=0 | data=0xffffd5fb | total=49
# UVM_INFO ../10_tb/axi4_mst/axi4_mst_driver.sv(290) @ 1465000: uvm_test_top.env.axi_agent.drv [axi4_mst_driver] [DRV][AXI][R] id=0x2 beat=1/4 data=0xffffd5ff resp=AXI4_RESP_OKAY last=0
# UVM_INFO ../10_tb/axi4_mst/axi4_mst_monitor.sv(256) @ 1465000: uvm_test_top.env.axi_agent.mon [axi4_mst_monitor] [MON][AXI][R] id=0x2 beat=1/4 data=0xffffd5ff resp=AXI4_RESP_OKAY last=0
# UVM_INFO ../10_tb/ahb_slv/ahb_slv_driver.sv(87) @ 1475000: uvm_test_top.env.ahb_agent.drv [ahb_slv_driver] [DRV][AHB][REQ] AHB_READ addr=0x2a08 trans=AHB_TRANS_SEQ burst=AHB_BURST_INCR4 size=4B
# UVM_INFO ../10_tb/ahb_slv/ahb_slv_driver.sv(201) @ 1485000: uvm_test_top.env.ahb_agent.drv [ahb_slv_driver] [DRV][AHB][RSP] AHB_READ addr=0x2a08 data=0xffffd5f7 resp=AHB_RESP_OKAY ready_delay=0
# UVM_INFO ../10_tb/ahb_slv/ahb_slv_monitor.sv(119) @ 1485000: uvm_test_top.env.ahb_agent.mon [ahb_slv_monitor] [MON][AHB][TR] AHB AHB_READ addr=0x2a08 trans=AHB_TRANS_SEQ burst=AHB_BURST_INCR4 size=4B mastlock=0 resp=AHB_RESP_OKAY waits=0 | data=0xffffd5f7
# UVM_INFO ../10_tb/env/scoreboard.sv(359) @ 1485000: uvm_test_top.env.scb [scoreboard] [SCB][AHB][PASS] AHB AHB_READ addr=0x2a08 trans=AHB_TRANS_SEQ burst=AHB_BURST_INCR4 size=4B mastlock=0 resp=AHB_RESP_OKAY waits=0 | data=0xffffd5f7 | total=50
# UVM_INFO ../10_tb/axi4_mst/axi4_mst_driver.sv(290) @ 1485000: uvm_test_top.env.axi_agent.drv [axi4_mst_driver] [DRV][AXI][R] id=0x2 beat=2/4 data=0xffffd5fb resp=AXI4_RESP_OKAY last=0
# UVM_INFO ../10_tb/axi4_mst/axi4_mst_monitor.sv(256) @ 1485000: uvm_test_top.env.axi_agent.mon [axi4_mst_monitor] [MON][AXI][R] id=0x2 beat=2/4 data=0xffffd5fb resp=AXI4_RESP_OKAY last=0
# UVM_INFO ../10_tb/ahb_slv/ahb_slv_driver.sv(87) @ 1495000: uvm_test_top.env.ahb_agent.drv [ahb_slv_driver] [DRV][AHB][REQ] AHB_READ addr=0x2a0c trans=AHB_TRANS_SEQ burst=AHB_BURST_INCR4 size=4B
# UVM_INFO ../10_tb/ahb_slv/ahb_slv_driver.sv(201) @ 1505000: uvm_test_top.env.ahb_agent.drv [ahb_slv_driver] [DRV][AHB][RSP] AHB_READ addr=0x2a0c data=0xffffd5f3 resp=AHB_RESP_OKAY ready_delay=0
# UVM_INFO ../10_tb/ahb_slv/ahb_slv_monitor.sv(119) @ 1505000: uvm_test_top.env.ahb_agent.mon [ahb_slv_monitor] [MON][AHB][TR] AHB AHB_READ addr=0x2a0c trans=AHB_TRANS_SEQ burst=AHB_BURST_INCR4 size=4B mastlock=0 resp=AHB_RESP_OKAY waits=0 | data=0xffffd5f3
