# vsim -c -coverage -sv_seed 61628061 "+UVM_TESTNAME=bridge_unaligned_read_test" "+UVM_VERBOSITY=UVM_HIGH" -l report/logs/bridge_unaligned_read_test_narrow_run_2_seed_61628061.log -wlf report/wlf/bridge_unaligned_read_test_narrow_run_2_seed_61628061.wlf -do "coverage save -onexit report/coverage/bridge_unaligned_read_test_narrow_run_2_seed_61628061.ucdb; run -all; quit -f" work.opt_bridge_tb_top_narrow 
# Start time: 13:42:04 on Sep 29,2026
# //  Questa Sim-64
# //  Version 10.6b linux_x86_64 May 25 2017
# //
# //  Copyright 1991-2017 Mentor Graphics Corporation
# //  All Rights Reserved.
# //
# //  QuestaSim and its associated documentation contain trade
# //  secrets and commercial or financial information that are the property of
# //  Mentor Graphics Corporation and are privileged, confidential,
# //  and exempt from disclosure under the Freedom of Information Act,
# //  5 U.S.C. Section 552. Furthermore, this information
# //  is prohibited from disclosure under the Trade Secrets Act,
# //  18 U.S.C. Section 1905.
# //
# Loading sv_std.std
# Loading work.axi4_if(fast)
# Loading work.ahb_if(fast)
# Loading mtiUvm.uvm_pkg
# Loading work.bridge_vip_pkg(fast)
# Loading work.bridge_seq_pkg(fast)
# Loading work.bridge_test_pkg(fast)
# Loading work.bridge_tb_top(fast)
# Loading work.axi4_if(fast)
# Loading work.ahb_if(fast)
# Loading work.axi_ahblite_bridge(fast)
# Loading work.ahb_skid_buf(fast)
# Loading work.axi_slv_if(fast)
# Loading work.ahb_mstr_if(fast)
# Loading work.time_out(fast)
# Loading work.axi4_sva(fast)
# Loading work.ahb_sva(fast)
# Loading mtiUvm.questa_uvm_pkg(fast)
# Loading /cadtools/mentor/Questa_10.6b/questasim/uvm-1.1d/linux_x86_64/uvm_dpi.so
# coverage save -onexit report/coverage/bridge_unaligned_read_test_narrow_run_2_seed_61628061.ucdb
#  run -all
# ----------------------------------------------------------------
# UVM-1.1d
# (C) 2007-2013 Mentor Graphics Corporation
# (C) 2007-2013 Cadence Design Systems, Inc.
# (C) 2006-2013 Synopsys, Inc.
# (C) 2011-2013 Cypress Semiconductor Corp.
# ----------------------------------------------------------------
# 
#   ***********       IMPORTANT RELEASE NOTES         ************
# 
#   You are using a version of the UVM library that has been compiled
#   with `UVM_NO_DEPRECATED undefined.
#   See http://www.eda.org/svdb/view.php?id=3313 for more details.
# 
#   You are using a version of the UVM library that has been compiled
#   with `UVM_OBJECT_MUST_HAVE_CONSTRUCTOR undefined.
#   See http://www.eda.org/svdb/view.php?id=3770 for more details.
# 
#       (Specify +UVM_NO_RELNOTES to turn off this notice)
# 
# UVM_INFO verilog_src/questa_uvm_pkg-1.2/src/questa_uvm_pkg.sv(215) @ 0: reporter [Questa UVM] QUESTA_UVM-1.2.3
# UVM_INFO verilog_src/questa_uvm_pkg-1.2/src/questa_uvm_pkg.sv(217) @ 0: reporter [Questa UVM]  questa_uvm::init(+struct)
# UVM_INFO @ 0: reporter [RNTST] Running test bridge_unaligned_read_test...
# UVM_INFO @ 0: reporter [UVMTOP] UVM testbench topology:
# -------------------------------------------------------------------------
# Name                       Type                               Size  Value
# -------------------------------------------------------------------------
# uvm_test_top               bridge_unaligned_read_test         -     @490 
#   env                      vip_env                            -     @508 
#     ahb_agent              ahb_slv_agent                      -     @529 
#       ap                   uvm_analysis_port                  -     @667 
#       cov                  ahb_slv_coverage                   -     @693 
#         analysis_imp       uvm_analysis_imp                   -     @700 
#         trans_export       uvm_analysis_imp_ahb_trans         -     @841 
#       drv                  ahb_slv_driver                     -     @818 
#         rsp_port           uvm_analysis_port                  -     @833 
#         seq_item_port      uvm_seq_item_pull_port             -     @825 
#       mon                  ahb_slv_monitor                    -     @686 
#         ap                 uvm_analysis_port                  -     @850 
#         trans_ap           uvm_analysis_port                  -     @858 
#       sqr                  ahb_slv_sequencer                  -     @709 
#         rsp_export         uvm_analysis_export                -     @716 
#         seq_item_export    uvm_seq_item_pull_imp              -     @810 
#         arbitration_queue  array                              0     -    
#         lock_queue         array                              0     -    
#         num_last_reqs      integral                           32    'd1  
#         num_last_rsps      integral                           32    'd1  
#       trans_ap             uvm_analysis_port                  -     @675 
#     axi_agent              axi4_mst_agent                     -     @522 
#       ap                   uvm_analysis_port                  -     @881 
#       cov                  axi4_mst_coverage                  -     @899 
#         analysis_imp       uvm_analysis_imp                   -     @906 
#       drv                  axi4_mst_driver                    -     @1024
#         rsp_port           uvm_analysis_port                  -     @1039
#         seq_item_port      uvm_seq_item_pull_port             -     @1031
#       mon                  axi4_mst_monitor                   -     @892 
#         ap                 uvm_analysis_port                  -     @1056
#         req_ap             uvm_analysis_port                  -     @1048
#       req_ap               uvm_analysis_port                  -     @873 
#       sqr                  axi4_mst_sequencer                 -     @915 
#         rsp_export         uvm_analysis_export                -     @922 
#         seq_item_export    uvm_seq_item_pull_imp              -     @1016
#         arbitration_queue  array                              0     -    
#         lock_queue         array                              0     -    
#         num_last_reqs      integral                           32    'd1  
#         num_last_rsps      integral                           32    'd1  
#     cov                    e2e_cov                            -     @659 
#       actual_ahb_export    uvm_analysis_imp_e2e_actual_ahb    -     @1086
#       axi_req_export       uvm_analysis_imp_e2e_axi_req       -     @1070
#       axi_rsp_export       uvm_analysis_imp_e2e_axi_rsp       -     @1094
#       expected_ahb_export  uvm_analysis_imp_e2e_expected_ahb  -     @1078
#     pred                   predictor                          -     @645 
#       axi_request_export   uvm_analysis_imp_axi_request       -     @1102
#       expected_ahb_ap      uvm_analysis_port                  -     @1110
#       expected_axi_ap      uvm_analysis_port                  -     @1118
#     scb                    scoreboard                         -     @652 
#       actual_ahb_export    uvm_analysis_imp_actual_ahb        -     @1134
#       actual_axi_export    uvm_analysis_imp_actual_axi        -     @1150
#       expected_ahb_export  uvm_analysis_imp_expected_ahb      -     @1126
#       expected_axi_export  uvm_analysis_imp_expected_axi      -     @1142
#     vseqr                  virtual_sequencer                  -     @536 
#       rsp_export           uvm_analysis_export                -     @543 
#       seq_item_export      uvm_seq_item_pull_imp              -     @637 
#       arbitration_queue    array                              0     -    
#       lock_queue           array                              0     -    
#       num_last_reqs        integral                           32    'd1  
#       num_last_rsps        integral                           32    'd1  
# -------------------------------------------------------------------------
# 
# UVM_INFO verilog_src/questa_uvm_pkg-1.2/src/questa_uvm_pkg.sv(277) @ 0: reporter [Questa UVM] End Of Elaboration
# UVM_INFO ../10_tb/bridge_tb_top.sv(47) @ 95000: reporter [BRIDGE_TB_TOP] Power-on reset released
# UVM_INFO ../10_tb/seq/axi4_mst_seq/axi4_mst_unaligned_read_seq.sv(74) @ 95000: uvm_test_top.env.axi_agent.sqr@@axi_seq [axi4_mst_unaligned_read_seq] Unaligned read: 24 cases, narrow=1
# UVM_INFO ../10_tb/seq/axi4_mst_seq/axi4_mst_unaligned_read_seq.sv(151) @ 95000: uvm_test_top.env.axi_agent.sqr@@axi_seq [axi4_mst_unaligned_read_seq] [0] SINGLE_FULL_OFF0 ARADDR=0x1000 ARSIZE=4B beats=1 expected first HADDR=0x1000
# UVM_INFO ../10_tb/axi4_mst/axi4_mst_driver.sv(105) @ 95000: uvm_test_top.env.axi_agent.drv [axi4_mst_driver] [DRV][AXI][REQ] AXI4 AXI4_WRITE id=0xc addr=0x1000 burst=AXI4_BURST_INCR beats=16 size=4B lock=0 | outstanding=1
# UVM_INFO ../10_tb/axi4_mst/axi4_mst_driver.sv(178) @ 135000: uvm_test_top.env.axi_agent.drv [axi4_mst_driver] [DRV][AXI][AW] id=0xc addr=0x1000 burst=AXI4_BURST_INCR beats=16 size=4B
# UVM_INFO ../10_tb/axi4_mst/axi4_mst_driver.sv(204) @ 135000: uvm_test_top.env.axi_agent.drv [axi4_mst_driver] [DRV][AXI][W] id=0xc beat=1/16 data=0x33323130 strb=0xf last=0
# UVM_INFO ../10_tb/ahb_slv/ahb_slv_driver.sv(87) @ 145000: uvm_test_top.env.ahb_agent.drv [ahb_slv_driver] [DRV][AHB][REQ] AHB_WRITE addr=0x1000 trans=AHB_TRANS_NONSEQ burst=AHB_BURST_INCR16 size=4B
# UVM_INFO ../10_tb/ahb_slv/ahb_slv_driver.sv(201) @ 155000: uvm_test_top.env.ahb_agent.drv [ahb_slv_driver] [DRV][AHB][RSP] AHB_WRITE addr=0x1000 data=0x33323130 resp=AHB_RESP_OKAY ready_delay=0
# UVM_INFO ../10_tb/ahb_slv/ahb_slv_monitor.sv(119) @ 155000: uvm_test_top.env.ahb_agent.mon [ahb_slv_monitor] [MON][AHB][TR] AHB AHB_WRITE addr=0x1000 trans=AHB_TRANS_NONSEQ burst=AHB_BURST_INCR16 size=4B mastlock=0 resp=AHB_RESP_OKAY waits=0 | data=0x33323130
# UVM_INFO ../10_tb/ahb_slv/ahb_slv_driver.sv(87) @ 165000: uvm_test_top.env.ahb_agent.drv [ahb_slv_driver] [DRV][AHB][REQ] AHB_WRITE addr=0x1004 trans=AHB_TRANS_SEQ burst=AHB_BURST_INCR16 size=4B
# UVM_INFO ../10_tb/axi4_mst/axi4_mst_driver.sv(204) @ 165000: uvm_test_top.env.axi_agent.drv [axi4_mst_driver] [DRV][AXI][W] id=0xc beat=2/16 data=0x37363534 strb=0xf last=0
# UVM_INFO ../10_tb/ahb_slv/ahb_slv_driver.sv(201) @ 175000: uvm_test_top.env.ahb_agent.drv [ahb_slv_driver] [DRV][AHB][RSP] AHB_WRITE addr=0x1004 data=0x37363534 resp=AHB_RESP_OKAY ready_delay=0
# UVM_INFO ../10_tb/ahb_slv/ahb_slv_monitor.sv(119) @ 175000: uvm_test_top.env.ahb_agent.mon [ahb_slv_monitor] [MON][AHB][TR] AHB AHB_WRITE addr=0x1004 trans=AHB_TRANS_SEQ burst=AHB_BURST_INCR16 size=4B mastlock=0 resp=AHB_RESP_OKAY waits=0 | data=0x37363534
# UVM_INFO ../10_tb/ahb_slv/ahb_slv_driver.sv(87) @ 185000: uvm_test_top.env.ahb_agent.drv [ahb_slv_driver] [DRV][AHB][REQ] AHB_WRITE addr=0x1008 trans=AHB_TRANS_SEQ burst=AHB_BURST_INCR16 size=4B
# UVM_INFO ../10_tb/axi4_mst/axi4_mst_driver.sv(204) @ 185000: uvm_test_top.env.axi_agent.drv [axi4_mst_driver] [DRV][AXI][W] id=0xc beat=3/16 data=0x3b3a3938 strb=0xf last=0
# UVM_INFO ../10_tb/ahb_slv/ahb_slv_driver.sv(201) @ 195000: uvm_test_top.env.ahb_agent.drv [ahb_slv_driver] [DRV][AHB][RSP] AHB_WRITE addr=0x1008 data=0x3b3a3938 resp=AHB_RESP_OKAY ready_delay=0
# UVM_INFO ../10_tb/ahb_slv/ahb_slv_monitor.sv(119) @ 195000: uvm_test_top.env.ahb_agent.mon [ahb_slv_monitor] [MON][AHB][TR] AHB AHB_WRITE addr=0x1008 trans=AHB_TRANS_SEQ burst=AHB_BURST_INCR16 size=4B mastlock=0 resp=AHB_RESP_OKAY waits=0 | data=0x3b3a3938
# UVM_INFO ../10_tb/ahb_slv/ahb_slv_driver.sv(87) @ 205000: uvm_test_top.env.ahb_agent.drv [ahb_slv_driver] [DRV][AHB][REQ] AHB_WRITE addr=0x100c trans=AHB_TRANS_SEQ burst=AHB_BURST_INCR16 size=4B
# UVM_INFO ../10_tb/axi4_mst/axi4_mst_driver.sv(204) @ 205000: uvm_test_top.env.axi_agent.drv [axi4_mst_driver] [DRV][AXI][W] id=0xc beat=4/16 data=0x3f3e3d3c strb=0xf last=0
# UVM_INFO ../10_tb/ahb_slv/ahb_slv_driver.sv(201) @ 215000: uvm_test_top.env.ahb_agent.drv [ahb_slv_driver] [DRV][AHB][RSP] AHB_WRITE addr=0x100c data=0x3f3e3d3c resp=AHB_RESP_OKAY ready_delay=0
# UVM_INFO ../10_tb/ahb_slv/ahb_slv_monitor.sv(119) @ 215000: uvm_test_top.env.ahb_agent.mon [ahb_slv_monitor] [MON][AHB][TR] AHB AHB_WRITE addr=0x100c trans=AHB_TRANS_SEQ burst=AHB_BURST_INCR16 size=4B mastlock=0 resp=AHB_RESP_OKAY waits=0 | data=0x3f3e3d3c
# UVM_INFO ../10_tb/ahb_slv/ahb_slv_driver.sv(87) @ 225000: uvm_test_top.env.ahb_agent.drv [ahb_slv_driver] [DRV][AHB][REQ] AHB_WRITE addr=0x1010 trans=AHB_TRANS_SEQ burst=AHB_BURST_INCR16 size=4B
# UVM_INFO ../10_tb/axi4_mst/axi4_mst_driver.sv(204) @ 225000: uvm_test_top.env.axi_agent.drv [axi4_mst_driver] [DRV][AXI][W] id=0xc beat=5/16 data=0x43424140 strb=0xf last=0
# UVM_INFO ../10_tb/ahb_slv/ahb_slv_driver.sv(201) @ 235000: uvm_test_top.env.ahb_agent.drv [ahb_slv_driver] [DRV][AHB][RSP] AHB_WRITE addr=0x1010 data=0x43424140 resp=AHB_RESP_OKAY ready_delay=0
# UVM_INFO ../10_tb/ahb_slv/ahb_slv_monitor.sv(119) @ 235000: uvm_test_top.env.ahb_agent.mon [ahb_slv_monitor] [MON][AHB][TR] AHB AHB_WRITE addr=0x1010 trans=AHB_TRANS_SEQ burst=AHB_BURST_INCR16 size=4B mastlock=0 resp=AHB_RESP_OKAY waits=0 | data=0x43424140
# UVM_INFO ../10_tb/ahb_slv/ahb_slv_driver.sv(87) @ 245000: uvm_test_top.env.ahb_agent.drv [ahb_slv_driver] [DRV][AHB][REQ] AHB_WRITE addr=0x1014 trans=AHB_TRANS_SEQ burst=AHB_BURST_INCR16 size=4B
# UVM_INFO ../10_tb/axi4_mst/axi4_mst_driver.sv(204) @ 245000: uvm_test_top.env.axi_agent.drv [axi4_mst_driver] [DRV][AXI][W] id=0xc beat=6/16 data=0x47464544 strb=0xf last=0
# UVM_INFO ../10_tb/ahb_slv/ahb_slv_driver.sv(201) @ 255000: uvm_test_top.env.ahb_agent.drv [ahb_slv_driver] [DRV][AHB][RSP] AHB_WRITE addr=0x1014 data=0x47464544 resp=AHB_RESP_OKAY ready_delay=0
# UVM_INFO ../10_tb/ahb_slv/ahb_slv_monitor.sv(119) @ 255000: uvm_test_top.env.ahb_agent.mon [ahb_slv_monitor] [MON][AHB][TR] AHB AHB_WRITE addr=0x1014 trans=AHB_TRANS_SEQ burst=AHB_BURST_INCR16 size=4B mastlock=0 resp=AHB_RESP_OKAY waits=0 | data=0x47464544
# UVM_INFO ../10_tb/ahb_slv/ahb_slv_driver.sv(87) @ 265000: uvm_test_top.env.ahb_agent.drv [ahb_slv_driver] [DRV][AHB][REQ] AHB_WRITE addr=0x1018 trans=AHB_TRANS_SEQ burst=AHB_BURST_INCR16 size=4B
# UVM_INFO ../10_tb/axi4_mst/axi4_mst_driver.sv(204) @ 265000: uvm_test_top.env.axi_agent.drv [axi4_mst_driver] [DRV][AXI][W] id=0xc beat=7/16 data=0x4b4a4948 strb=0xf last=0
# UVM_INFO ../10_tb/ahb_slv/ahb_slv_driver.sv(201) @ 275000: uvm_test_top.env.ahb_agent.drv [ahb_slv_driver] [DRV][AHB][RSP] AHB_WRITE addr=0x1018 data=0x4b4a4948 resp=AHB_RESP_OKAY ready_delay=0
# UVM_INFO ../10_tb/ahb_slv/ahb_slv_monitor.sv(119) @ 275000: uvm_test_top.env.ahb_agent.mon [ahb_slv_monitor] [MON][AHB][TR] AHB AHB_WRITE addr=0x1018 trans=AHB_TRANS_SEQ burst=AHB_BURST_INCR16 size=4B mastlock=0 resp=AHB_RESP_OKAY waits=0 | data=0x4b4a4948
# UVM_INFO ../10_tb/ahb_slv/ahb_slv_driver.sv(87) @ 285000: uvm_test_top.env.ahb_agent.drv [ahb_slv_driver] [DRV][AHB][REQ] AHB_WRITE addr=0x101c trans=AHB_TRANS_SEQ burst=AHB_BURST_INCR16 size=4B
# UVM_INFO ../10_tb/axi4_mst/axi4_mst_driver.sv(204) @ 285000: uvm_test_top.env.axi_agent.drv [axi4_mst_driver] [DRV][AXI][W] id=0xc beat=8/16 data=0x4f4e4d4c strb=0xf last=0
# UVM_INFO ../10_tb/ahb_slv/ahb_slv_driver.sv(201) @ 295000: uvm_test_top.env.ahb_agent.drv [ahb_slv_driver] [DRV][AHB][RSP] AHB_WRITE addr=0x101c data=0x4f4e4d4c resp=AHB_RESP_OKAY ready_delay=0
# UVM_INFO ../10_tb/ahb_slv/ahb_slv_monitor.sv(119) @ 295000: uvm_test_top.env.ahb_agent.mon [ahb_slv_monitor] [MON][AHB][TR] AHB AHB_WRITE addr=0x101c trans=AHB_TRANS_SEQ burst=AHB_BURST_INCR16 size=4B mastlock=0 resp=AHB_RESP_OKAY waits=0 | data=0x4f4e4d4c
# UVM_INFO ../10_tb/ahb_slv/ahb_slv_driver.sv(87) @ 305000: uvm_test_top.env.ahb_agent.drv [ahb_slv_driver] [DRV][AHB][REQ] AHB_WRITE addr=0x1020 trans=AHB_TRANS_SEQ burst=AHB_BURST_INCR16 size=4B
# UVM_INFO ../10_tb/axi4_mst/axi4_mst_driver.sv(204) @ 305000: uvm_test_top.env.axi_agent.drv [axi4_mst_driver] [DRV][AXI][W] id=0xc beat=9/16 data=0x53525150 strb=0xf last=0
# UVM_INFO ../10_tb/ahb_slv/ahb_slv_driver.sv(201) @ 315000: uvm_test_top.env.ahb_agent.drv [ahb_slv_driver] [DRV][AHB][RSP] AHB_WRITE addr=0x1020 data=0x53525150 resp=AHB_RESP_OKAY ready_delay=0
# UVM_INFO ../10_tb/ahb_slv/ahb_slv_monitor.sv(119) @ 315000: uvm_test_top.env.ahb_agent.mon [ahb_slv_monitor] [MON][AHB][TR] AHB AHB_WRITE addr=0x1020 trans=AHB_TRANS_SEQ burst=AHB_BURST_INCR16 size=4B mastlock=0 resp=AHB_RESP_OKAY waits=0 | data=0x53525150
# UVM_INFO ../10_tb/ahb_slv/ahb_slv_driver.sv(87) @ 325000: uvm_test_top.env.ahb_agent.drv [ahb_slv_driver] [DRV][AHB][REQ] AHB_WRITE addr=0x1024 trans=AHB_TRANS_SEQ burst=AHB_BURST_INCR16 size=4B
# UVM_INFO ../10_tb/axi4_mst/axi4_mst_driver.sv(204) @ 325000: uvm_test_top.env.axi_agent.drv [axi4_mst_driver] [DRV][AXI][W] id=0xc beat=10/16 data=0x57565554 strb=0xf last=0
# UVM_INFO ../10_tb/ahb_slv/ahb_slv_driver.sv(201) @ 335000: uvm_test_top.env.ahb_agent.drv [ahb_slv_driver] [DRV][AHB][RSP] AHB_WRITE addr=0x1024 data=0x57565554 resp=AHB_RESP_OKAY ready_delay=0
# UVM_INFO ../10_tb/ahb_slv/ahb_slv_monitor.sv(119) @ 335000: uvm_test_top.env.ahb_agent.mon [ahb_slv_monitor] [MON][AHB][TR] AHB AHB_WRITE addr=0x1024 trans=AHB_TRANS_SEQ burst=AHB_BURST_INCR16 size=4B mastlock=0 resp=AHB_RESP_OKAY waits=0 | data=0x57565554
# UVM_INFO ../10_tb/ahb_slv/ahb_slv_driver.sv(87) @ 345000: uvm_test_top.env.ahb_agent.drv [ahb_slv_driver] [DRV][AHB][REQ] AHB_WRITE addr=0x1028 trans=AHB_TRANS_SEQ burst=AHB_BURST_INCR16 size=4B
# UVM_INFO ../10_tb/axi4_mst/axi4_mst_driver.sv(204) @ 345000: uvm_test_top.env.axi_agent.drv [axi4_mst_driver] [DRV][AXI][W] id=0xc beat=11/16 data=0x5b5a5958 strb=0xf last=0
# UVM_INFO ../10_tb/ahb_slv/ahb_slv_driver.sv(201) @ 355000: uvm_test_top.env.ahb_agent.drv [ahb_slv_driver] [DRV][AHB][RSP] AHB_WRITE addr=0x1028 data=0x5b5a5958 resp=AHB_RESP_OKAY ready_delay=0
# UVM_INFO ../10_tb/ahb_slv/ahb_slv_monitor.sv(119) @ 355000: uvm_test_top.env.ahb_agent.mon [ahb_slv_monitor] [MON][AHB][TR] AHB AHB_WRITE addr=0x1028 trans=AHB_TRANS_SEQ burst=AHB_BURST_INCR16 size=4B mastlock=0 resp=AHB_RESP_OKAY waits=0 | data=0x5b5a5958
# UVM_INFO ../10_tb/ahb_slv/ahb_slv_driver.sv(87) @ 365000: uvm_test_top.env.ahb_agent.drv [ahb_slv_driver] [DRV][AHB][REQ] AHB_WRITE addr=0x102c trans=AHB_TRANS_SEQ burst=AHB_BURST_INCR16 size=4B
# UVM_INFO ../10_tb/axi4_mst/axi4_mst_driver.sv(204) @ 365000: uvm_test_top.env.axi_agent.drv [axi4_mst_driver] [DRV][AXI][W] id=0xc beat=12/16 data=0x5f5e5d5c strb=0xf last=0
# UVM_INFO ../10_tb/ahb_slv/ahb_slv_driver.sv(201) @ 375000: uvm_test_top.env.ahb_agent.drv [ahb_slv_driver] [DRV][AHB][RSP] AHB_WRITE addr=0x102c data=0x5f5e5d5c resp=AHB_RESP_OKAY ready_delay=0
# UVM_INFO ../10_tb/ahb_slv/ahb_slv_monitor.sv(119) @ 375000: uvm_test_top.env.ahb_agent.mon [ahb_slv_monitor] [MON][AHB][TR] AHB AHB_WRITE addr=0x102c trans=AHB_TRANS_SEQ burst=AHB_BURST_INCR16 size=4B mastlock=0 resp=AHB_RESP_OKAY waits=0 | data=0x5f5e5d5c
# UVM_INFO ../10_tb/ahb_slv/ahb_slv_driver.sv(87) @ 385000: uvm_test_top.env.ahb_agent.drv [ahb_slv_driver] [DRV][AHB][REQ] AHB_WRITE addr=0x1030 trans=AHB_TRANS_SEQ burst=AHB_BURST_INCR16 size=4B
# UVM_INFO ../10_tb/axi4_mst/axi4_mst_driver.sv(204) @ 385000: uvm_test_top.env.axi_agent.drv [axi4_mst_driver] [DRV][AXI][W] id=0xc beat=13/16 data=0x63626160 strb=0xf last=0
# UVM_INFO ../10_tb/ahb_slv/ahb_slv_driver.sv(201) @ 395000: uvm_test_top.env.ahb_agent.drv [ahb_slv_driver] [DRV][AHB][RSP] AHB_WRITE addr=0x1030 data=0x63626160 resp=AHB_RESP_OKAY ready_delay=0
# UVM_INFO ../10_tb/ahb_slv/ahb_slv_monitor.sv(119) @ 395000: uvm_test_top.env.ahb_agent.mon [ahb_slv_monitor] [MON][AHB][TR] AHB AHB_WRITE addr=0x1030 trans=AHB_TRANS_SEQ burst=AHB_BURST_INCR16 size=4B mastlock=0 resp=AHB_RESP_OKAY waits=0 | data=0x63626160
# UVM_INFO ../10_tb/ahb_slv/ahb_slv_driver.sv(87) @ 405000: uvm_test_top.env.ahb_agent.drv [ahb_slv_driver] [DRV][AHB][REQ] AHB_WRITE addr=0x1034 trans=AHB_TRANS_SEQ burst=AHB_BURST_INCR16 size=4B
# UVM_INFO ../10_tb/axi4_mst/axi4_mst_driver.sv(204) @ 405000: uvm_test_top.env.axi_agent.drv [axi4_mst_driver] [DRV][AXI][W] id=0xc beat=14/16 data=0x67666564 strb=0xf last=0
# UVM_INFO ../10_tb/ahb_slv/ahb_slv_driver.sv(201) @ 415000: uvm_test_top.env.ahb_agent.drv [ahb_slv_driver] [DRV][AHB][RSP] AHB_WRITE addr=0x1034 data=0x67666564 resp=AHB_RESP_OKAY ready_delay=0
# UVM_INFO ../10_tb/ahb_slv/ahb_slv_monitor.sv(119) @ 415000: uvm_test_top.env.ahb_agent.mon [ahb_slv_monitor] [MON][AHB][TR] AHB AHB_WRITE addr=0x1034 trans=AHB_TRANS_SEQ burst=AHB_BURST_INCR16 size=4B mastlock=0 resp=AHB_RESP_OKAY waits=0 | data=0x67666564
# UVM_INFO ../10_tb/ahb_slv/ahb_slv_driver.sv(87) @ 425000: uvm_test_top.env.ahb_agent.drv [ahb_slv_driver] [DRV][AHB][REQ] AHB_WRITE addr=0x1038 trans=AHB_TRANS_SEQ burst=AHB_BURST_INCR16 size=4B
# UVM_INFO ../10_tb/axi4_mst/axi4_mst_driver.sv(204) @ 425000: uvm_test_top.env.axi_agent.drv [axi4_mst_driver] [DRV][AXI][W] id=0xc beat=15/16 data=0x6b6a6968 strb=0xf last=0
# UVM_INFO ../10_tb/ahb_slv/ahb_slv_driver.sv(201) @ 435000: uvm_test_top.env.ahb_agent.drv [ahb_slv_driver] [DRV][AHB][RSP] AHB_WRITE addr=0x1038 data=0x6b6a6968 resp=AHB_RESP_OKAY ready_delay=0
# UVM_INFO ../10_tb/ahb_slv/ahb_slv_monitor.sv(119) @ 435000: uvm_test_top.env.ahb_agent.mon [ahb_slv_monitor] [MON][AHB][TR] AHB AHB_WRITE addr=0x1038 trans=AHB_TRANS_SEQ burst=AHB_BURST_INCR16 size=4B mastlock=0 resp=AHB_RESP_OKAY waits=0 | data=0x6b6a6968
# UVM_INFO ../10_tb/ahb_slv/ahb_slv_driver.sv(87) @ 445000: uvm_test_top.env.ahb_agent.drv [ahb_slv_driver] [DRV][AHB][REQ] AHB_WRITE addr=0x103c trans=AHB_TRANS_SEQ burst=AHB_BURST_INCR16 size=4B
# UVM_INFO ../10_tb/axi4_mst/axi4_mst_driver.sv(204) @ 445000: uvm_test_top.env.axi_agent.drv [axi4_mst_driver] [DRV][AXI][W] id=0xc beat=16/16 data=0x6f6e6d6c strb=0xf last=1
# UVM_INFO ../10_tb/axi4_mst/axi4_mst_monitor.sv(151) @ 445000: uvm_test_top.env.axi_agent.mon [axi4_mst_monitor] [MON][AXI][REQ] AXI4 AXI4_WRITE id=0xc addr=0x1000 burst=AXI4_BURST_INCR beats=16 size=4B lock=0
# UVM_INFO ../10_tb/env/predictor.sv(75) @ 445000: uvm_test_top.env.pred [predictor] [PRED][AXI][IN] AXI4 AXI4_WRITE id=0xc addr=0x1000 burst=AXI4_BURST_INCR beats=16 size=4B lock=0 | queued=1
# UVM_INFO ../10_tb/env/predictor.sv(138) @ 445000: uvm_test_top.env.pred [predictor] [PRED][MAP] AXI4 AXI4_WRITE id=0xc addr=0x1000 burst=AXI4_BURST_INCR beats=16 size=4B lock=0 -> AHB burst=AHB_BURST_INCR16 size=4B crosses_1kb=0
# UVM_INFO ../10_tb/env/predictor.sv(169) @ 445000: uvm_test_top.env.pred [predictor] [PRED][AHB] beat=1/16 | AHB AHB_WRITE addr=0x1000 trans=AHB_TRANS_NONSEQ burst=AHB_BURST_INCR16 size=4B mastlock=0 resp=AHB_RESP_OKAY waits=0 | wdata=0x33323130
# UVM_INFO ../10_tb/env/scoreboard.sv(359) @ 445000: uvm_test_top.env.scb [scoreboard] [SCB][AHB][PASS] AHB AHB_WRITE addr=0x1000 trans=AHB_TRANS_NONSEQ burst=AHB_BURST_INCR16 size=4B mastlock=0 resp=AHB_RESP_OKAY waits=0 | data=0x33323130 | total=1
# UVM_INFO ../10_tb/env/predictor.sv(169) @ 445000: uvm_test_top.env.pred [predictor] [PRED][AHB] beat=2/16 | AHB AHB_WRITE addr=0x1004 trans=AHB_TRANS_SEQ burst=AHB_BURST_INCR16 size=4B mastlock=0 resp=AHB_RESP_OKAY waits=0 | wdata=0x37363534
# UVM_INFO ../10_tb/env/scoreboard.sv(359) @ 445000: uvm_test_top.env.scb [scoreboard] [SCB][AHB][PASS] AHB AHB_WRITE addr=0x1004 trans=AHB_TRANS_SEQ burst=AHB_BURST_INCR16 size=4B mastlock=0 resp=AHB_RESP_OKAY waits=0 | data=0x37363534 | total=2
# UVM_INFO ../10_tb/env/predictor.sv(169) @ 445000: uvm_test_top.env.pred [predictor] [PRED][AHB] beat=3/16 | AHB AHB_WRITE addr=0x1008 trans=AHB_TRANS_SEQ burst=AHB_BURST_INCR16 size=4B mastlock=0 resp=AHB_RESP_OKAY waits=0 | wdata=0x3b3a3938
# UVM_INFO ../10_tb/env/scoreboard.sv(359) @ 445000: uvm_test_top.env.scb [scoreboard] [SCB][AHB][PASS] AHB AHB_WRITE addr=0x1008 trans=AHB_TRANS_SEQ burst=AHB_BURST_INCR16 size=4B mastlock=0 resp=AHB_RESP_OKAY waits=0 | data=0x3b3a3938 | total=3
# UVM_INFO ../10_tb/env/predictor.sv(169) @ 445000: uvm_test_top.env.pred [predictor] [PRED][AHB] beat=4/16 | AHB AHB_WRITE addr=0x100c trans=AHB_TRANS_SEQ burst=AHB_BURST_INCR16 size=4B mastlock=0 resp=AHB_RESP_OKAY waits=0 | wdata=0x3f3e3d3c
# UVM_INFO ../10_tb/env/scoreboard.sv(359) @ 445000: uvm_test_top.env.scb [scoreboard] [SCB][AHB][PASS] AHB AHB_WRITE addr=0x100c trans=AHB_TRANS_SEQ burst=AHB_BURST_INCR16 size=4B mastlock=0 resp=AHB_RESP_OKAY waits=0 | data=0x3f3e3d3c | total=4
# UVM_INFO ../10_tb/env/predictor.sv(169) @ 445000: uvm_test_top.env.pred [predictor] [PRED][AHB] beat=5/16 | AHB AHB_WRITE addr=0x1010 trans=AHB_TRANS_SEQ burst=AHB_BURST_INCR16 size=4B mastlock=0 resp=AHB_RESP_OKAY waits=0 | wdata=0x43424140
# UVM_INFO ../10_tb/env/scoreboard.sv(359) @ 445000: uvm_test_top.env.scb [scoreboard] [SCB][AHB][PASS] AHB AHB_WRITE addr=0x1010 trans=AHB_TRANS_SEQ burst=AHB_BURST_INCR16 size=4B mastlock=0 resp=AHB_RESP_OKAY waits=0 | data=0x43424140 | total=5
# UVM_INFO ../10_tb/env/predictor.sv(169) @ 445000: uvm_test_top.env.pred [predictor] [PRED][AHB] beat=6/16 | AHB AHB_WRITE addr=0x1014 trans=AHB_TRANS_SEQ burst=AHB_BURST_INCR16 size=4B mastlock=0 resp=AHB_RESP_OKAY waits=0 | wdata=0x47464544
# UVM_INFO ../10_tb/env/scoreboard.sv(359) @ 445000: uvm_test_top.env.scb [scoreboard] [SCB][AHB][PASS] AHB AHB_WRITE addr=0x1014 trans=AHB_TRANS_SEQ burst=AHB_BURST_INCR16 size=4B mastlock=0 resp=AHB_RESP_OKAY waits=0 | data=0x47464544 | total=6
# UVM_INFO ../10_tb/env/predictor.sv(169) @ 445000: uvm_test_top.env.pred [predictor] [PRED][AHB] beat=7/16 | AHB AHB_WRITE addr=0x1018 trans=AHB_TRANS_SEQ burst=AHB_BURST_INCR16 size=4B mastlock=0 resp=AHB_RESP_OKAY waits=0 | wdata=0x4b4a4948
# UVM_INFO ../10_tb/env/scoreboard.sv(359) @ 445000: uvm_test_top.env.scb [scoreboard] [SCB][AHB][PASS] AHB AHB_WRITE addr=0x1018 trans=AHB_TRANS_SEQ burst=AHB_BURST_INCR16 size=4B mastlock=0 resp=AHB_RESP_OKAY waits=0 | data=0x4b4a4948 | total=7
# UVM_INFO ../10_tb/env/predictor.sv(169) @ 445000: uvm_test_top.env.pred [predictor] [PRED][AHB] beat=8/16 | AHB AHB_WRITE addr=0x101c trans=AHB_TRANS_SEQ burst=AHB_BURST_INCR16 size=4B mastlock=0 resp=AHB_RESP_OKAY waits=0 | wdata=0x4f4e4d4c
# UVM_INFO ../10_tb/env/scoreboard.sv(359) @ 445000: uvm_test_top.env.scb [scoreboard] [SCB][AHB][PASS] AHB AHB_WRITE addr=0x101c trans=AHB_TRANS_SEQ burst=AHB_BURST_INCR16 size=4B mastlock=0 resp=AHB_RESP_OKAY waits=0 | data=0x4f4e4d4c | total=8
# UVM_INFO ../10_tb/env/predictor.sv(169) @ 445000: uvm_test_top.env.pred [predictor] [PRED][AHB] beat=9/16 | AHB AHB_WRITE addr=0x1020 trans=AHB_TRANS_SEQ burst=AHB_BURST_INCR16 size=4B mastlock=0 resp=AHB_RESP_OKAY waits=0 | wdata=0x53525150
# UVM_INFO ../10_tb/env/scoreboard.sv(359) @ 445000: uvm_test_top.env.scb [scoreboard] [SCB][AHB][PASS] AHB AHB_WRITE addr=0x1020 trans=AHB_TRANS_SEQ burst=AHB_BURST_INCR16 size=4B mastlock=0 resp=AHB_RESP_OKAY waits=0 | data=0x53525150 | total=9
# UVM_INFO ../10_tb/env/predictor.sv(169) @ 445000: uvm_test_top.env.pred [predictor] [PRED][AHB] beat=10/16 | AHB AHB_WRITE addr=0x1024 trans=AHB_TRANS_SEQ burst=AHB_BURST_INCR16 size=4B mastlock=0 resp=AHB_RESP_OKAY waits=0 | wdata=0x57565554
# UVM_INFO ../10_tb/env/scoreboard.sv(359) @ 445000: uvm_test_top.env.scb [scoreboard] [SCB][AHB][PASS] AHB AHB_WRITE addr=0x1024 trans=AHB_TRANS_SEQ burst=AHB_BURST_INCR16 size=4B mastlock=0 resp=AHB_RESP_OKAY waits=0 | data=0x57565554 | total=10
# UVM_INFO ../10_tb/env/predictor.sv(169) @ 445000: uvm_test_top.env.pred [predictor] [PRED][AHB] beat=11/16 | AHB AHB_WRITE addr=0x1028 trans=AHB_TRANS_SEQ burst=AHB_BURST_INCR16 size=4B mastlock=0 resp=AHB_RESP_OKAY waits=0 | wdata=0x5b5a5958
# UVM_INFO ../10_tb/env/scoreboard.sv(359) @ 445000: uvm_test_top.env.scb [scoreboard] [SCB][AHB][PASS] AHB AHB_WRITE addr=0x1028 trans=AHB_TRANS_SEQ burst=AHB_BURST_INCR16 size=4B mastlock=0 resp=AHB_RESP_OKAY waits=0 | data=0x5b5a5958 | total=11
# UVM_INFO ../10_tb/env/predictor.sv(169) @ 445000: uvm_test_top.env.pred [predictor] [PRED][AHB] beat=12/16 | AHB AHB_WRITE addr=0x102c trans=AHB_TRANS_SEQ burst=AHB_BURST_INCR16 size=4B mastlock=0 resp=AHB_RESP_OKAY waits=0 | wdata=0x5f5e5d5c
# UVM_INFO ../10_tb/env/scoreboard.sv(359) @ 445000: uvm_test_top.env.scb [scoreboard] [SCB][AHB][PASS] AHB AHB_WRITE addr=0x102c trans=AHB_TRANS_SEQ burst=AHB_BURST_INCR16 size=4B mastlock=0 resp=AHB_RESP_OKAY waits=0 | data=0x5f5e5d5c | total=12
# UVM_INFO ../10_tb/env/predictor.sv(169) @ 445000: uvm_test_top.env.pred [predictor] [PRED][AHB] beat=13/16 | AHB AHB_WRITE addr=0x1030 trans=AHB_TRANS_SEQ burst=AHB_BURST_INCR16 size=4B mastlock=0 resp=AHB_RESP_OKAY waits=0 | wdata=0x63626160
# UVM_INFO ../10_tb/env/scoreboard.sv(359) @ 445000: uvm_test_top.env.scb [scoreboard] [SCB][AHB][PASS] AHB AHB_WRITE addr=0x1030 trans=AHB_TRANS_SEQ burst=AHB_BURST_INCR16 size=4B mastlock=0 resp=AHB_RESP_OKAY waits=0 | data=0x63626160 | total=13
# UVM_INFO ../10_tb/env/predictor.sv(169) @ 445000: uvm_test_top.env.pred [predictor] [PRED][AHB] beat=14/16 | AHB AHB_WRITE addr=0x1034 trans=AHB_TRANS_SEQ burst=AHB_BURST_INCR16 size=4B mastlock=0 resp=AHB_RESP_OKAY waits=0 | wdata=0x67666564
# UVM_INFO ../10_tb/env/scoreboard.sv(359) @ 445000: uvm_test_top.env.scb [scoreboard] [SCB][AHB][PASS] AHB AHB_WRITE addr=0x1034 trans=AHB_TRANS_SEQ burst=AHB_BURST_INCR16 size=4B mastlock=0 resp=AHB_RESP_OKAY waits=0 | data=0x67666564 | total=14
# UVM_INFO ../10_tb/env/predictor.sv(169) @ 445000: uvm_test_top.env.pred [predictor] [PRED][AHB] beat=15/16 | AHB AHB_WRITE addr=0x1038 trans=AHB_TRANS_SEQ burst=AHB_BURST_INCR16 size=4B mastlock=0 resp=AHB_RESP_OKAY waits=0 | wdata=0x6b6a6968
# UVM_INFO ../10_tb/env/scoreboard.sv(359) @ 445000: uvm_test_top.env.scb [scoreboard] [SCB][AHB][PASS] AHB AHB_WRITE addr=0x1038 trans=AHB_TRANS_SEQ burst=AHB_BURST_INCR16 size=4B mastlock=0 resp=AHB_RESP_OKAY waits=0 | data=0x6b6a6968 | total=15
# UVM_INFO ../10_tb/env/predictor.sv(169) @ 445000: uvm_test_top.env.pred [predictor] [PRED][AHB] beat=16/16 | AHB AHB_WRITE addr=0x103c trans=AHB_TRANS_SEQ burst=AHB_BURST_INCR16 size=4B mastlock=0 resp=AHB_RESP_OKAY waits=0 | wdata=0x6f6e6d6c
# UVM_INFO ../10_tb/ahb_slv/ahb_slv_driver.sv(201) @ 455000: uvm_test_top.env.ahb_agent.drv [ahb_slv_driver] [DRV][AHB][RSP] AHB_WRITE addr=0x103c data=0x6f6e6d6c resp=AHB_RESP_OKAY ready_delay=0
# UVM_INFO ../10_tb/ahb_slv/ahb_slv_monitor.sv(119) @ 455000: uvm_test_top.env.ahb_agent.mon [ahb_slv_monitor] [MON][AHB][TR] AHB AHB_WRITE addr=0x103c trans=AHB_TRANS_SEQ burst=AHB_BURST_INCR16 size=4B mastlock=0 resp=AHB_RESP_OKAY waits=0 | data=0x6f6e6d6c
# UVM_INFO ../10_tb/env/scoreboard.sv(359) @ 455000: uvm_test_top.env.scb [scoreboard] [SCB][AHB][PASS] AHB AHB_WRITE addr=0x103c trans=AHB_TRANS_SEQ burst=AHB_BURST_INCR16 size=4B mastlock=0 resp=AHB_RESP_OKAY waits=0 | data=0x6f6e6d6c | total=16
# UVM_INFO ../10_tb/axi4_mst/axi4_mst_driver.sv(286) @ 465000: uvm_test_top.env.axi_agent.drv [axi4_mst_driver] [DRV][AXI][B] id=0xc resp=AXI4_RESP_OKAY
# UVM_INFO ../10_tb/axi4_mst/axi4_mst_monitor.sv(177) @ 465000: uvm_test_top.env.axi_agent.mon [axi4_mst_monitor] [MON][AXI][RSP] WRITE id=0xc resp=AXI4_RESP_OKAY
# UVM_INFO ../10_tb/env/scoreboard.sv(499) @ 465000: uvm_test_top.env.scb [scoreboard] [SCB][AXI][PASS] AXI4 AXI4_WRITE id=0xc addr=0x1000 burst=AXI4_BURST_INCR beats=16 size=4B lock=0 | bresp=AXI4_RESP_OKAY | total=1
# UVM_INFO ../10_tb/axi4_mst/axi4_mst_driver.sv(105) @ 465000: uvm_test_top.env.axi_agent.drv [axi4_mst_driver] [DRV][AXI][REQ] AXI4 AXI4_READ id=0xe addr=0x1000 burst=AXI4_BURST_INCR beats=1 size=4B lock=0 | outstanding=1
# UVM_INFO ../10_tb/axi4_mst/axi4_mst_driver.sv(261) @ 495000: uvm_test_top.env.axi_agent.drv [axi4_mst_driver] [DRV][AXI][AR] id=0xe addr=0x1000 burst=AXI4_BURST_INCR beats=1 size=4B
# UVM_INFO ../10_tb/axi4_mst/axi4_mst_monitor.sv(211) @ 495000: uvm_test_top.env.axi_agent.mon [axi4_mst_monitor] [MON][AXI][REQ] AXI4 AXI4_READ id=0xe addr=0x1000 burst=AXI4_BURST_INCR beats=1 size=4B lock=0
# UVM_INFO ../10_tb/env/predictor.sv(75) @ 495000: uvm_test_top.env.pred [predictor] [PRED][AXI][IN] AXI4 AXI4_READ id=0xe addr=0x1000 burst=AXI4_BURST_INCR beats=1 size=4B lock=0 | queued=1
# UVM_INFO ../10_tb/env/predictor.sv(138) @ 495000: uvm_test_top.env.pred [predictor] [PRED][MAP] AXI4 AXI4_READ id=0xe addr=0x1000 burst=AXI4_BURST_INCR beats=1 size=4B lock=0 -> AHB burst=AHB_BURST_SINGLE size=4B crosses_1kb=0
# UVM_INFO ../10_tb/env/predictor.sv(175) @ 495000: uvm_test_top.env.pred [predictor] [PRED][AHB] beat=1/1 | AHB AHB_READ addr=0x1000 trans=AHB_TRANS_NONSEQ burst=AHB_BURST_SINGLE size=4B mastlock=0 resp=AHB_RESP_OKAY waits=0
# UVM_INFO ../10_tb/ahb_slv/ahb_slv_driver.sv(87) @ 505000: uvm_test_top.env.ahb_agent.drv [ahb_slv_driver] [DRV][AHB][REQ] AHB_READ addr=0x1000 trans=AHB_TRANS_NONSEQ burst=AHB_BURST_SINGLE size=4B
# UVM_INFO ../10_tb/ahb_slv/ahb_slv_driver.sv(201) @ 515000: uvm_test_top.env.ahb_agent.drv [ahb_slv_driver] [DRV][AHB][RSP] AHB_READ addr=0x1000 data=0x33323130 resp=AHB_RESP_OKAY ready_delay=0
# UVM_INFO ../10_tb/ahb_slv/ahb_slv_monitor.sv(119) @ 515000: uvm_test_top.env.ahb_agent.mon [ahb_slv_monitor] [MON][AHB][TR] AHB AHB_READ addr=0x1000 trans=AHB_TRANS_NONSEQ burst=AHB_BURST_SINGLE size=4B mastlock=0 resp=AHB_RESP_OKAY waits=0 | data=0x33323130
# UVM_INFO ../10_tb/env/scoreboard.sv(359) @ 515000: uvm_test_top.env.scb [scoreboard] [SCB][AHB][PASS] AHB AHB_READ addr=0x1000 trans=AHB_TRANS_NONSEQ burst=AHB_BURST_SINGLE size=4B mastlock=0 resp=AHB_RESP_OKAY waits=0 | data=0x33323130 | total=17
# UVM_INFO ../10_tb/axi4_mst/axi4_mst_driver.sv(326) @ 535000: uvm_test_top.env.axi_agent.drv [axi4_mst_driver] [DRV][AXI][R] id=0xe beat=1/1 data=0x33323130 resp=AXI4_RESP_OKAY last=1
# UVM_INFO ../10_tb/axi4_mst/axi4_mst_monitor.sv(256) @ 535000: uvm_test_top.env.axi_agent.mon [axi4_mst_monitor] [MON][AXI][R] id=0xe beat=1/1 data=0x33323130 resp=AXI4_RESP_OKAY last=1
# UVM_INFO ../10_tb/axi4_mst/axi4_mst_monitor.sv(262) @ 535000: uvm_test_top.env.axi_agent.mon [axi4_mst_monitor] [MON][AXI][RSP] READ id=0xe beats=1
# UVM_INFO ../10_tb/env/scoreboard.sv(506) @ 535000: uvm_test_top.env.scb [scoreboard] [SCB][AXI][PASS] AXI4 AXI4_READ id=0xe addr=0x1000 burst=AXI4_BURST_INCR beats=1 size=4B lock=0 | read beats=1 | total=2
# UVM_INFO ../10_tb/seq/axi4_mst_seq/axi4_mst_unaligned_read_seq.sv(151) @ 535000: uvm_test_top.env.axi_agent.sqr@@axi_seq [axi4_mst_unaligned_read_seq] [1] INCR4_FULL_OFF0 ARADDR=0x1100 ARSIZE=4B beats=4 expected first HADDR=0x1100
# UVM_INFO ../10_tb/axi4_mst/axi4_mst_driver.sv(105) @ 535000: uvm_test_top.env.axi_agent.drv [axi4_mst_driver] [DRV][AXI][REQ] AXI4 AXI4_WRITE id=0x0 addr=0x1100 burst=AXI4_BURST_INCR beats=16 size=4B lock=0 | outstanding=1
# UVM_INFO ../10_tb/axi4_mst/axi4_mst_driver.sv(178) @ 575000: uvm_test_top.env.axi_agent.drv [axi4_mst_driver] [DRV][AXI][AW] id=0x0 addr=0x1100 burst=AXI4_BURST_INCR beats=16 size=4B
# UVM_INFO ../10_tb/axi4_mst/axi4_mst_driver.sv(204) @ 575000: uvm_test_top.env.axi_agent.drv [axi4_mst_driver] [DRV][AXI][W] id=0x0 beat=1/16 data=0x43424140 strb=0xf last=0
# UVM_INFO ../10_tb/ahb_slv/ahb_slv_driver.sv(87) @ 585000: uvm_test_top.env.ahb_agent.drv [ahb_slv_driver] [DRV][AHB][REQ] AHB_WRITE addr=0x1100 trans=AHB_TRANS_NONSEQ burst=AHB_BURST_INCR16 size=4B
# UVM_INFO ../10_tb/ahb_slv/ahb_slv_driver.sv(201) @ 595000: uvm_test_top.env.ahb_agent.drv [ahb_slv_driver] [DRV][AHB][RSP] AHB_WRITE addr=0x1100 data=0x43424140 resp=AHB_RESP_OKAY ready_delay=0
# UVM_INFO ../10_tb/ahb_slv/ahb_slv_monitor.sv(119) @ 595000: uvm_test_top.env.ahb_agent.mon [ahb_slv_monitor] [MON][AHB][TR] AHB AHB_WRITE addr=0x1100 trans=AHB_TRANS_NONSEQ burst=AHB_BURST_INCR16 size=4B mastlock=0 resp=AHB_RESP_OKAY waits=0 | data=0x43424140
# UVM_INFO ../10_tb/ahb_slv/ahb_slv_driver.sv(87) @ 605000: uvm_test_top.env.ahb_agent.drv [ahb_slv_driver] [DRV][AHB][REQ] AHB_WRITE addr=0x1104 trans=AHB_TRANS_SEQ burst=AHB_BURST_INCR16 size=4B
# UVM_INFO ../10_tb/axi4_mst/axi4_mst_driver.sv(204) @ 605000: uvm_test_top.env.axi_agent.drv [axi4_mst_driver] [DRV][AXI][W] id=0x0 beat=2/16 data=0x47464544 strb=0xf last=0
# UVM_INFO ../10_tb/ahb_slv/ahb_slv_driver.sv(201) @ 615000: uvm_test_top.env.ahb_agent.drv [ahb_slv_driver] [DRV][AHB][RSP] AHB_WRITE addr=0x1104 data=0x47464544 resp=AHB_RESP_OKAY ready_delay=0
# UVM_INFO ../10_tb/ahb_slv/ahb_slv_monitor.sv(119) @ 615000: uvm_test_top.env.ahb_agent.mon [ahb_slv_monitor] [MON][AHB][TR] AHB AHB_WRITE addr=0x1104 trans=AHB_TRANS_SEQ burst=AHB_BURST_INCR16 size=4B mastlock=0 resp=AHB_RESP_OKAY waits=0 | data=0x47464544
# UVM_INFO ../10_tb/ahb_slv/ahb_slv_driver.sv(87) @ 625000: uvm_test_top.env.ahb_agent.drv [ahb_slv_driver] [DRV][AHB][REQ] AHB_WRITE addr=0x1108 trans=AHB_TRANS_SEQ burst=AHB_BURST_INCR16 size=4B
# UVM_INFO ../10_tb/axi4_mst/axi4_mst_driver.sv(204) @ 625000: uvm_test_top.env.axi_agent.drv [axi4_mst_driver] [DRV][AXI][W] id=0x0 beat=3/16 data=0x4b4a4948 strb=0xf last=0
# UVM_INFO ../10_tb/ahb_slv/ahb_slv_driver.sv(201) @ 635000: uvm_test_top.env.ahb_agent.drv [ahb_slv_driver] [DRV][AHB][RSP] AHB_WRITE addr=0x1108 data=0x4b4a4948 resp=AHB_RESP_OKAY ready_delay=0
# UVM_INFO ../10_tb/ahb_slv/ahb_slv_monitor.sv(119) @ 635000: uvm_test_top.env.ahb_agent.mon [ahb_slv_monitor] [MON][AHB][TR] AHB AHB_WRITE addr=0x1108 trans=AHB_TRANS_SEQ burst=AHB_BURST_INCR16 size=4B mastlock=0 resp=AHB_RESP_OKAY waits=0 | data=0x4b4a4948
# UVM_INFO ../10_tb/ahb_slv/ahb_slv_driver.sv(87) @ 645000: uvm_test_top.env.ahb_agent.drv [ahb_slv_driver] [DRV][AHB][REQ] AHB_WRITE addr=0x110c trans=AHB_TRANS_SEQ burst=AHB_BURST_INCR16 size=4B
# UVM_INFO ../10_tb/axi4_mst/axi4_mst_driver.sv(204) @ 645000: uvm_test_top.env.axi_agent.drv [axi4_mst_driver] [DRV][AXI][W] id=0x0 beat=4/16 data=0x4f4e4d4c strb=0xf last=0
# UVM_INFO ../10_tb/ahb_slv/ahb_slv_driver.sv(201) @ 655000: uvm_test_top.env.ahb_agent.drv [ahb_slv_driver] [DRV][AHB][RSP] AHB_WRITE addr=0x110c data=0x4f4e4d4c resp=AHB_RESP_OKAY ready_delay=0
# UVM_INFO ../10_tb/ahb_slv/ahb_slv_monitor.sv(119) @ 655000: uvm_test_top.env.ahb_agent.mon [ahb_slv_monitor] [MON][AHB][TR] AHB AHB_WRITE addr=0x110c trans=AHB_TRANS_SEQ burst=AHB_BURST_INCR16 size=4B mastlock=0 resp=AHB_RESP_OKAY waits=0 | data=0x4f4e4d4c
# UVM_INFO ../10_tb/ahb_slv/ahb_slv_driver.sv(87) @ 665000: uvm_test_top.env.ahb_agent.drv [ahb_slv_driver] [DRV][AHB][REQ] AHB_WRITE addr=0x1110 trans=AHB_TRANS_SEQ burst=AHB_BURST_INCR16 size=4B
# UVM_INFO ../10_tb/axi4_mst/axi4_mst_driver.sv(204) @ 665000: uvm_test_top.env.axi_agent.drv [axi4_mst_driver] [DRV][AXI][W] id=0x0 beat=5/16 data=0x53525150 strb=0xf last=0
# UVM_INFO ../10_tb/ahb_slv/ahb_slv_driver.sv(201) @ 675000: uvm_test_top.env.ahb_agent.drv [ahb_slv_driver] [DRV][AHB][RSP] AHB_WRITE addr=0x1110 data=0x53525150 resp=AHB_RESP_OKAY ready_delay=0
# UVM_INFO ../10_tb/ahb_slv/ahb_slv_monitor.sv(119) @ 675000: uvm_test_top.env.ahb_agent.mon [ahb_slv_monitor] [MON][AHB][TR] AHB AHB_WRITE addr=0x1110 trans=AHB_TRANS_SEQ burst=AHB_BURST_INCR16 size=4B mastlock=0 resp=AHB_RESP_OKAY waits=0 | data=0x53525150
# UVM_INFO ../10_tb/ahb_slv/ahb_slv_driver.sv(87) @ 685000: uvm_test_top.env.ahb_agent.drv [ahb_slv_driver] [DRV][AHB][REQ] AHB_WRITE addr=0x1114 trans=AHB_TRANS_SEQ burst=AHB_BURST_INCR16 size=4B
# UVM_INFO ../10_tb/axi4_mst/axi4_mst_driver.sv(204) @ 685000: uvm_test_top.env.axi_agent.drv [axi4_mst_driver] [DRV][AXI][W] id=0x0 beat=6/16 data=0x57565554 strb=0xf last=0
# UVM_INFO ../10_tb/ahb_slv/ahb_slv_driver.sv(201) @ 695000: uvm_test_top.env.ahb_agent.drv [ahb_slv_driver] [DRV][AHB][RSP] AHB_WRITE addr=0x1114 data=0x57565554 resp=AHB_RESP_OKAY ready_delay=0
# UVM_INFO ../10_tb/ahb_slv/ahb_slv_monitor.sv(119) @ 695000: uvm_test_top.env.ahb_agent.mon [ahb_slv_monitor] [MON][AHB][TR] AHB AHB_WRITE addr=0x1114 trans=AHB_TRANS_SEQ burst=AHB_BURST_INCR16 size=4B mastlock=0 resp=AHB_RESP_OKAY waits=0 | data=0x57565554
# UVM_INFO ../10_tb/ahb_slv/ahb_slv_driver.sv(87) @ 705000: uvm_test_top.env.ahb_agent.drv [ahb_slv_driver] [DRV][AHB][REQ] AHB_WRITE addr=0x1118 trans=AHB_TRANS_SEQ burst=AHB_BURST_INCR16 size=4B
# UVM_INFO ../10_tb/axi4_mst/axi4_mst_driver.sv(204) @ 705000: uvm_test_top.env.axi_agent.drv [axi4_mst_driver] [DRV][AXI][W] id=0x0 beat=7/16 data=0x5b5a5958 strb=0xf last=0
# UVM_INFO ../10_tb/ahb_slv/ahb_slv_driver.sv(201) @ 715000: uvm_test_top.env.ahb_agent.drv [ahb_slv_driver] [DRV][AHB][RSP] AHB_WRITE addr=0x1118 data=0x5b5a5958 resp=AHB_RESP_OKAY ready_delay=0
# UVM_INFO ../10_tb/ahb_slv/ahb_slv_monitor.sv(119) @ 715000: uvm_test_top.env.ahb_agent.mon [ahb_slv_monitor] [MON][AHB][TR] AHB AHB_WRITE addr=0x1118 trans=AHB_TRANS_SEQ burst=AHB_BURST_INCR16 size=4B mastlock=0 resp=AHB_RESP_OKAY waits=0 | data=0x5b5a5958
# UVM_INFO ../10_tb/ahb_slv/ahb_slv_driver.sv(87) @ 725000: uvm_test_top.env.ahb_agent.drv [ahb_slv_driver] [DRV][AHB][REQ] AHB_WRITE addr=0x111c trans=AHB_TRANS_SEQ burst=AHB_BURST_INCR16 size=4B
# UVM_INFO ../10_tb/axi4_mst/axi4_mst_driver.sv(204) @ 725000: uvm_test_top.env.axi_agent.drv [axi4_mst_driver] [DRV][AXI][W] id=0x0 beat=8/16 data=0x5f5e5d5c strb=0xf last=0
# UVM_INFO ../10_tb/ahb_slv/ahb_slv_driver.sv(201) @ 735000: uvm_test_top.env.ahb_agent.drv [ahb_slv_driver] [DRV][AHB][RSP] AHB_WRITE addr=0x111c data=0x5f5e5d5c resp=AHB_RESP_OKAY ready_delay=0
# UVM_INFO ../10_tb/ahb_slv/ahb_slv_monitor.sv(119) @ 735000: uvm_test_top.env.ahb_agent.mon [ahb_slv_monitor] [MON][AHB][TR] AHB AHB_WRITE addr=0x111c trans=AHB_TRANS_SEQ burst=AHB_BURST_INCR16 size=4B mastlock=0 resp=AHB_RESP_OKAY waits=0 | data=0x5f5e5d5c
# UVM_INFO ../10_tb/ahb_slv/ahb_slv_driver.sv(87) @ 745000: uvm_test_top.env.ahb_agent.drv [ahb_slv_driver] [DRV][AHB][REQ] AHB_WRITE addr=0x1120 trans=AHB_TRANS_SEQ burst=AHB_BURST_INCR16 size=4B
# UVM_INFO ../10_tb/axi4_mst/axi4_mst_driver.sv(204) @ 745000: uvm_test_top.env.axi_agent.drv [axi4_mst_driver] [DRV][AXI][W] id=0x0 beat=9/16 data=0x63626160 strb=0xf last=0
# UVM_INFO ../10_tb/ahb_slv/ahb_slv_driver.sv(201) @ 755000: uvm_test_top.env.ahb_agent.drv [ahb_slv_driver] [DRV][AHB][RSP] AHB_WRITE addr=0x1120 data=0x63626160 resp=AHB_RESP_OKAY ready_delay=0
# UVM_INFO ../10_tb/ahb_slv/ahb_slv_monitor.sv(119) @ 755000: uvm_test_top.env.ahb_agent.mon [ahb_slv_monitor] [MON][AHB][TR] AHB AHB_WRITE addr=0x1120 trans=AHB_TRANS_SEQ burst=AHB_BURST_INCR16 size=4B mastlock=0 resp=AHB_RESP_OKAY waits=0 | data=0x63626160
# UVM_INFO ../10_tb/ahb_slv/ahb_slv_driver.sv(87) @ 765000: uvm_test_top.env.ahb_agent.drv [ahb_slv_driver] [DRV][AHB][REQ] AHB_WRITE addr=0x1124 trans=AHB_TRANS_SEQ burst=AHB_BURST_INCR16 size=4B
# UVM_INFO ../10_tb/axi4_mst/axi4_mst_driver.sv(204) @ 765000: uvm_test_top.env.axi_agent.drv [axi4_mst_driver] [DRV][AXI][W] id=0x0 beat=10/16 data=0x67666564 strb=0xf last=0
# UVM_INFO ../10_tb/ahb_slv/ahb_slv_driver.sv(201) @ 775000: uvm_test_top.env.ahb_agent.drv [ahb_slv_driver] [DRV][AHB][RSP] AHB_WRITE addr=0x1124 data=0x67666564 resp=AHB_RESP_OKAY ready_delay=0
# UVM_INFO ../10_tb/ahb_slv/ahb_slv_monitor.sv(119) @ 775000: uvm_test_top.env.ahb_agent.mon [ahb_slv_monitor] [MON][AHB][TR] AHB AHB_WRITE addr=0x1124 trans=AHB_TRANS_SEQ burst=AHB_BURST_INCR16 size=4B mastlock=0 resp=AHB_RESP_OKAY waits=0 | data=0x67666564
# UVM_INFO ../10_tb/ahb_slv/ahb_slv_driver.sv(87) @ 785000: uvm_test_top.env.ahb_agent.drv [ahb_slv_driver] [DRV][AHB][REQ] AHB_WRITE addr=0x1128 trans=AHB_TRANS_SEQ burst=AHB_BURST_INCR16 size=4B
# UVM_INFO ../10_tb/axi4_mst/axi4_mst_driver.sv(204) @ 785000: uvm_test_top.env.axi_agent.drv [axi4_mst_driver] [DRV][AXI][W] id=0x0 beat=11/16 data=0x6b6a6968 strb=0xf last=0
# UVM_INFO ../10_tb/ahb_slv/ahb_slv_driver.sv(201) @ 795000: uvm_test_top.env.ahb_agent.drv [ahb_slv_driver] [DRV][AHB][RSP] AHB_WRITE addr=0x1128 data=0x6b6a6968 resp=AHB_RESP_OKAY ready_delay=0
# UVM_INFO ../10_tb/ahb_slv/ahb_slv_monitor.sv(119) @ 795000: uvm_test_top.env.ahb_agent.mon [ahb_slv_monitor] [MON][AHB][TR] AHB AHB_WRITE addr=0x1128 trans=AHB_TRANS_SEQ burst=AHB_BURST_INCR16 size=4B mastlock=0 resp=AHB_RESP_OKAY waits=0 | data=0x6b6a6968
# UVM_INFO ../10_tb/ahb_slv/ahb_slv_driver.sv(87) @ 805000: uvm_test_top.env.ahb_agent.drv [ahb_slv_driver] [DRV][AHB][REQ] AHB_WRITE addr=0x112c trans=AHB_TRANS_SEQ burst=AHB_BURST_INCR16 size=4B
# UVM_INFO ../10_tb/axi4_mst/axi4_mst_driver.sv(204) @ 805000: uvm_test_top.env.axi_agent.drv [axi4_mst_driver] [DRV][AXI][W] id=0x0 beat=12/16 data=0x6f6e6d6c strb=0xf last=0
# UVM_INFO ../10_tb/ahb_slv/ahb_slv_driver.sv(201) @ 815000: uvm_test_top.env.ahb_agent.drv [ahb_slv_driver] [DRV][AHB][RSP] AHB_WRITE addr=0x112c data=0x6f6e6d6c resp=AHB_RESP_OKAY ready_delay=0
# UVM_INFO ../10_tb/ahb_slv/ahb_slv_monitor.sv(119) @ 815000: uvm_test_top.env.ahb_agent.mon [ahb_slv_monitor] [MON][AHB][TR] AHB AHB_WRITE addr=0x112c trans=AHB_TRANS_SEQ burst=AHB_BURST_INCR16 size=4B mastlock=0 resp=AHB_RESP_OKAY waits=0 | data=0x6f6e6d6c
# UVM_INFO ../10_tb/ahb_slv/ahb_slv_driver.sv(87) @ 825000: uvm_test_top.env.ahb_agent.drv [ahb_slv_driver] [DRV][AHB][REQ] AHB_WRITE addr=0x1130 trans=AHB_TRANS_SEQ burst=AHB_BURST_INCR16 size=4B
# UVM_INFO ../10_tb/axi4_mst/axi4_mst_driver.sv(204) @ 825000: uvm_test_top.env.axi_agent.drv [axi4_mst_driver] [DRV][AXI][W] id=0x0 beat=13/16 data=0x73727170 strb=0xf last=0
# UVM_INFO ../10_tb/ahb_slv/ahb_slv_driver.sv(201) @ 835000: uvm_test_top.env.ahb_agent.drv [ahb_slv_driver] [DRV][AHB][RSP] AHB_WRITE addr=0x1130 data=0x73727170 resp=AHB_RESP_OKAY ready_delay=0
# UVM_INFO ../10_tb/ahb_slv/ahb_slv_monitor.sv(119) @ 835000: uvm_test_top.env.ahb_agent.mon [ahb_slv_monitor] [MON][AHB][TR] AHB AHB_WRITE addr=0x1130 trans=AHB_TRANS_SEQ burst=AHB_BURST_INCR16 size=4B mastlock=0 resp=AHB_RESP_OKAY waits=0 | data=0x73727170
# UVM_INFO ../10_tb/ahb_slv/ahb_slv_driver.sv(87) @ 845000: uvm_test_top.env.ahb_agent.drv [ahb_slv_driver] [DRV][AHB][REQ] AHB_WRITE addr=0x1134 trans=AHB_TRANS_SEQ burst=AHB_BURST_INCR16 size=4B
# UVM_INFO ../10_tb/axi4_mst/axi4_mst_driver.sv(204) @ 845000: uvm_test_top.env.axi_agent.drv [axi4_mst_driver] [DRV][AXI][W] id=0x0 beat=14/16 data=0x77767574 strb=0xf last=0
# UVM_INFO ../10_tb/ahb_slv/ahb_slv_driver.sv(201) @ 855000: uvm_test_top.env.ahb_agent.drv [ahb_slv_driver] [DRV][AHB][RSP] AHB_WRITE addr=0x1134 data=0x77767574 resp=AHB_RESP_OKAY ready_delay=0
# UVM_INFO ../10_tb/ahb_slv/ahb_slv_monitor.sv(119) @ 855000: uvm_test_top.env.ahb_agent.mon [ahb_slv_monitor] [MON][AHB][TR] AHB AHB_WRITE addr=0x1134 trans=AHB_TRANS_SEQ burst=AHB_BURST_INCR16 size=4B mastlock=0 resp=AHB_RESP_OKAY waits=0 | data=0x77767574
# UVM_INFO ../10_tb/ahb_slv/ahb_slv_driver.sv(87) @ 865000: uvm_test_top.env.ahb_agent.drv [ahb_slv_driver] [DRV][AHB][REQ] AHB_WRITE addr=0x1138 trans=AHB_TRANS_SEQ burst=AHB_BURST_INCR16 size=4B
# UVM_INFO ../10_tb/axi4_mst/axi4_mst_driver.sv(204) @ 865000: uvm_test_top.env.axi_agent.drv [axi4_mst_driver] [DRV][AXI][W] id=0x0 beat=15/16 data=0x7b7a7978 strb=0xf last=0
# UVM_INFO ../10_tb/ahb_slv/ahb_slv_driver.sv(201) @ 875000: uvm_test_top.env.ahb_agent.drv [ahb_slv_driver] [DRV][AHB][RSP] AHB_WRITE addr=0x1138 data=0x7b7a7978 resp=AHB_RESP_OKAY ready_delay=0
# UVM_INFO ../10_tb/ahb_slv/ahb_slv_monitor.sv(119) @ 875000: uvm_test_top.env.ahb_agent.mon [ahb_slv_monitor] [MON][AHB][TR] AHB AHB_WRITE addr=0x1138 trans=AHB_TRANS_SEQ burst=AHB_BURST_INCR16 size=4B mastlock=0 resp=AHB_RESP_OKAY waits=0 | data=0x7b7a7978
# UVM_INFO ../10_tb/ahb_slv/ahb_slv_driver.sv(87) @ 885000: uvm_test_top.env.ahb_agent.drv [ahb_slv_driver] [DRV][AHB][REQ] AHB_WRITE addr=0x113c trans=AHB_TRANS_SEQ burst=AHB_BURST_INCR16 size=4B
# UVM_INFO ../10_tb/axi4_mst/axi4_mst_driver.sv(204) @ 885000: uvm_test_top.env.axi_agent.drv [axi4_mst_driver] [DRV][AXI][W] id=0x0 beat=16/16 data=0x7f7e7d7c strb=0xf last=1
# UVM_INFO ../10_tb/axi4_mst/axi4_mst_monitor.sv(151) @ 885000: uvm_test_top.env.axi_agent.mon [axi4_mst_monitor] [MON][AXI][REQ] AXI4 AXI4_WRITE id=0x0 addr=0x1100 burst=AXI4_BURST_INCR beats=16 size=4B lock=0
# UVM_INFO ../10_tb/env/predictor.sv(75) @ 885000: uvm_test_top.env.pred [predictor] [PRED][AXI][IN] AXI4 AXI4_WRITE id=0x0 addr=0x1100 burst=AXI4_BURST_INCR beats=16 size=4B lock=0 | queued=1
# UVM_INFO ../10_tb/env/predictor.sv(138) @ 885000: uvm_test_top.env.pred [predictor] [PRED][MAP] AXI4 AXI4_WRITE id=0x0 addr=0x1100 burst=AXI4_BURST_INCR beats=16 size=4B lock=0 -> AHB burst=AHB_BURST_INCR16 size=4B crosses_1kb=0
# UVM_INFO ../10_tb/env/predictor.sv(169) @ 885000: uvm_test_top.env.pred [predictor] [PRED][AHB] beat=1/16 | AHB AHB_WRITE addr=0x1100 trans=AHB_TRANS_NONSEQ burst=AHB_BURST_INCR16 size=4B mastlock=0 resp=AHB_RESP_OKAY waits=0 | wdata=0x43424140
# UVM_INFO ../10_tb/env/scoreboard.sv(359) @ 885000: uvm_test_top.env.scb [scoreboard] [SCB][AHB][PASS] AHB AHB_WRITE addr=0x1100 trans=AHB_TRANS_NONSEQ burst=AHB_BURST_INCR16 size=4B mastlock=0 resp=AHB_RESP_OKAY waits=0 | data=0x43424140 | total=18
# UVM_INFO ../10_tb/env/predictor.sv(169) @ 885000: uvm_test_top.env.pred [predictor] [PRED][AHB] beat=2/16 | AHB AHB_WRITE addr=0x1104 trans=AHB_TRANS_SEQ burst=AHB_BURST_INCR16 size=4B mastlock=0 resp=AHB_RESP_OKAY waits=0 | wdata=0x47464544
# UVM_INFO ../10_tb/env/scoreboard.sv(359) @ 885000: uvm_test_top.env.scb [scoreboard] [SCB][AHB][PASS] AHB AHB_WRITE addr=0x1104 trans=AHB_TRANS_SEQ burst=AHB_BURST_INCR16 size=4B mastlock=0 resp=AHB_RESP_OKAY waits=0 | data=0x47464544 | total=19
# UVM_INFO ../10_tb/env/predictor.sv(169) @ 885000: uvm_test_top.env.pred [predictor] [PRED][AHB] beat=3/16 | AHB AHB_WRITE addr=0x1108 trans=AHB_TRANS_SEQ burst=AHB_BURST_INCR16 size=4B mastlock=0 resp=AHB_RESP_OKAY waits=0 | wdata=0x4b4a4948
# UVM_INFO ../10_tb/env/scoreboard.sv(359) @ 885000: uvm_test_top.env.scb [scoreboard] [SCB][AHB][PASS] AHB AHB_WRITE addr=0x1108 trans=AHB_TRANS_SEQ burst=AHB_BURST_INCR16 size=4B mastlock=0 resp=AHB_RESP_OKAY waits=0 | data=0x4b4a4948 | total=20
# UVM_INFO ../10_tb/env/predictor.sv(169) @ 885000: uvm_test_top.env.pred [predictor] [PRED][AHB] beat=4/16 | AHB AHB_WRITE addr=0x110c trans=AHB_TRANS_SEQ burst=AHB_BURST_INCR16 size=4B mastlock=0 resp=AHB_RESP_OKAY waits=0 | wdata=0x4f4e4d4c
# UVM_INFO ../10_tb/env/scoreboard.sv(359) @ 885000: uvm_test_top.env.scb [scoreboard] [SCB][AHB][PASS] AHB AHB_WRITE addr=0x110c trans=AHB_TRANS_SEQ burst=AHB_BURST_INCR16 size=4B mastlock=0 resp=AHB_RESP_OKAY waits=0 | data=0x4f4e4d4c | total=21
# UVM_INFO ../10_tb/env/predictor.sv(169) @ 885000: uvm_test_top.env.pred [predictor] [PRED][AHB] beat=5/16 | AHB AHB_WRITE addr=0x1110 trans=AHB_TRANS_SEQ burst=AHB_BURST_INCR16 size=4B mastlock=0 resp=AHB_RESP_OKAY waits=0 | wdata=0x53525150
# UVM_INFO ../10_tb/env/scoreboard.sv(359) @ 885000: uvm_test_top.env.scb [scoreboard] [SCB][AHB][PASS] AHB AHB_WRITE addr=0x1110 trans=AHB_TRANS_SEQ burst=AHB_BURST_INCR16 size=4B mastlock=0 resp=AHB_RESP_OKAY waits=0 | data=0x53525150 | total=22
# UVM_INFO ../10_tb/env/predictor.sv(169) @ 885000: uvm_test_top.env.pred [predictor] [PRED][AHB] beat=6/16 | AHB AHB_WRITE addr=0x1114 trans=AHB_TRANS_SEQ burst=AHB_BURST_INCR16 size=4B mastlock=0 resp=AHB_RESP_OKAY waits=0 | wdata=0x57565554
# UVM_INFO ../10_tb/env/scoreboard.sv(359) @ 885000: uvm_test_top.env.scb [scoreboard] [SCB][AHB][PASS] AHB AHB_WRITE addr=0x1114 trans=AHB_TRANS_SEQ burst=AHB_BURST_INCR16 size=4B mastlock=0 resp=AHB_RESP_OKAY waits=0 | data=0x57565554 | total=23
# UVM_INFO ../10_tb/env/predictor.sv(169) @ 885000: uvm_test_top.env.pred [predictor] [PRED][AHB] beat=7/16 | AHB AHB_WRITE addr=0x1118 trans=AHB_TRANS_SEQ burst=AHB_BURST_INCR16 size=4B mastlock=0 resp=AHB_RESP_OKAY waits=0 | wdata=0x5b5a5958
# UVM_INFO ../10_tb/env/scoreboard.sv(359) @ 885000: uvm_test_top.env.scb [scoreboard] [SCB][AHB][PASS] AHB AHB_WRITE addr=0x1118 trans=AHB_TRANS_SEQ burst=AHB_BURST_INCR16 size=4B mastlock=0 resp=AHB_RESP_OKAY waits=0 | data=0x5b5a5958 | total=24
# UVM_INFO ../10_tb/env/predictor.sv(169) @ 885000: uvm_test_top.env.pred [predictor] [PRED][AHB] beat=8/16 | AHB AHB_WRITE addr=0x111c trans=AHB_TRANS_SEQ burst=AHB_BURST_INCR16 size=4B mastlock=0 resp=AHB_RESP_OKAY waits=0 | wdata=0x5f5e5d5c
# UVM_INFO ../10_tb/env/scoreboard.sv(359) @ 885000: uvm_test_top.env.scb [scoreboard] [SCB][AHB][PASS] AHB AHB_WRITE addr=0x111c trans=AHB_TRANS_SEQ burst=AHB_BURST_INCR16 size=4B mastlock=0 resp=AHB_RESP_OKAY waits=0 | data=0x5f5e5d5c | total=25
# UVM_INFO ../10_tb/env/predictor.sv(169) @ 885000: uvm_test_top.env.pred [predictor] [PRED][AHB] beat=9/16 | AHB AHB_WRITE addr=0x1120 trans=AHB_TRANS_SEQ burst=AHB_BURST_INCR16 size=4B mastlock=0 resp=AHB_RESP_OKAY waits=0 | wdata=0x63626160
# UVM_INFO ../10_tb/env/scoreboard.sv(359) @ 885000: uvm_test_top.env.scb [scoreboard] [SCB][AHB][PASS] AHB AHB_WRITE addr=0x1120 trans=AHB_TRANS_SEQ burst=AHB_BURST_INCR16 size=4B mastlock=0 resp=AHB_RESP_OKAY waits=0 | data=0x63626160 | total=26
# UVM_INFO ../10_tb/env/predictor.sv(169) @ 885000: uvm_test_top.env.pred [predictor] [PRED][AHB] beat=10/16 | AHB AHB_WRITE addr=0x1124 trans=AHB_TRANS_SEQ burst=AHB_BURST_INCR16 size=4B mastlock=0 resp=AHB_RESP_OKAY waits=0 | wdata=0x67666564
# UVM_INFO ../10_tb/env/scoreboard.sv(359) @ 885000: uvm_test_top.env.scb [scoreboard] [SCB][AHB][PASS] AHB AHB_WRITE addr=0x1124 trans=AHB_TRANS_SEQ burst=AHB_BURST_INCR16 size=4B mastlock=0 resp=AHB_RESP_OKAY waits=0 | data=0x67666564 | total=27
# UVM_INFO ../10_tb/env/predictor.sv(169) @ 885000: uvm_test_top.env.pred [predictor] [PRED][AHB] beat=11/16 | AHB AHB_WRITE addr=0x1128 trans=AHB_TRANS_SEQ burst=AHB_BURST_INCR16 size=4B mastlock=0 resp=AHB_RESP_OKAY waits=0 | wdata=0x6b6a6968
# UVM_INFO ../10_tb/env/scoreboard.sv(359) @ 885000: uvm_test_top.env.scb [scoreboard] [SCB][AHB][PASS] AHB AHB_WRITE addr=0x1128 trans=AHB_TRANS_SEQ burst=AHB_BURST_INCR16 size=4B mastlock=0 resp=AHB_RESP_OKAY waits=0 | data=0x6b6a6968 | total=28
# UVM_INFO ../10_tb/env/predictor.sv(169) @ 885000: uvm_test_top.env.pred [predictor] [PRED][AHB] beat=12/16 | AHB AHB_WRITE addr=0x112c trans=AHB_TRANS_SEQ burst=AHB_BURST_INCR16 size=4B mastlock=0 resp=AHB_RESP_OKAY waits=0 | wdata=0x6f6e6d6c
# UVM_INFO ../10_tb/env/scoreboard.sv(359) @ 885000: uvm_test_top.env.scb [scoreboard] [SCB][AHB][PASS] AHB AHB_WRITE addr=0x112c trans=AHB_TRANS_SEQ burst=AHB_BURST_INCR16 size=4B mastlock=0 resp=AHB_RESP_OKAY waits=0 | data=0x6f6e6d6c | total=29
# UVM_INFO ../10_tb/env/predictor.sv(169) @ 885000: uvm_test_top.env.pred [predictor] [PRED][AHB] beat=13/16 | AHB AHB_WRITE addr=0x1130 trans=AHB_TRANS_SEQ burst=AHB_BURST_INCR16 size=4B mastlock=0 resp=AHB_RESP_OKAY waits=0 | wdata=0x73727170
# UVM_INFO ../10_tb/env/scoreboard.sv(359) @ 885000: uvm_test_top.env.scb [scoreboard] [SCB][AHB][PASS] AHB AHB_WRITE addr=0x1130 trans=AHB_TRANS_SEQ burst=AHB_BURST_INCR16 size=4B mastlock=0 resp=AHB_RESP_OKAY waits=0 | data=0x73727170 | total=30
# UVM_INFO ../10_tb/env/predictor.sv(169) @ 885000: uvm_test_top.env.pred [predictor] [PRED][AHB] beat=14/16 | AHB AHB_WRITE addr=0x1134 trans=AHB_TRANS_SEQ burst=AHB_BURST_INCR16 size=4B mastlock=0 resp=AHB_RESP_OKAY waits=0 | wdata=0x77767574
# UVM_INFO ../10_tb/env/scoreboard.sv(359) @ 885000: uvm_test_top.env.scb [scoreboard] [SCB][AHB][PASS] AHB AHB_WRITE addr=0x1134 trans=AHB_TRANS_SEQ burst=AHB_BURST_INCR16 size=4B mastlock=0 resp=AHB_RESP_OKAY waits=0 | data=0x77767574 | total=31
# UVM_INFO ../10_tb/env/predictor.sv(169) @ 885000: uvm_test_top.env.pred [predictor] [PRED][AHB] beat=15/16 | AHB AHB_WRITE addr=0x1138 trans=AHB_TRANS_SEQ burst=AHB_BURST_INCR16 size=4B mastlock=0 resp=AHB_RESP_OKAY waits=0 | wdata=0x7b7a7978
# UVM_INFO ../10_tb/env/scoreboard.sv(359) @ 885000: uvm_test_top.env.scb [scoreboard] [SCB][AHB][PASS] AHB AHB_WRITE addr=0x1138 trans=AHB_TRANS_SEQ burst=AHB_BURST_INCR16 size=4B mastlock=0 resp=AHB_RESP_OKAY waits=0 | data=0x7b7a7978 | total=32
# UVM_INFO ../10_tb/env/predictor.sv(169) @ 885000: uvm_test_top.env.pred [predictor] [PRED][AHB] beat=16/16 | AHB AHB_WRITE addr=0x113c trans=AHB_TRANS_SEQ burst=AHB_BURST_INCR16 size=4B mastlock=0 resp=AHB_RESP_OKAY waits=0 | wdata=0x7f7e7d7c
# UVM_INFO ../10_tb/ahb_slv/ahb_slv_driver.sv(201) @ 895000: uvm_test_top.env.ahb_agent.drv [ahb_slv_driver] [DRV][AHB][RSP] AHB_WRITE addr=0x113c data=0x7f7e7d7c resp=AHB_RESP_OKAY ready_delay=0
# UVM_INFO ../10_tb/ahb_slv/ahb_slv_monitor.sv(119) @ 895000: uvm_test_top.env.ahb_agent.mon [ahb_slv_monitor] [MON][AHB][TR] AHB AHB_WRITE addr=0x113c trans=AHB_TRANS_SEQ burst=AHB_BURST_INCR16 size=4B mastlock=0 resp=AHB_RESP_OKAY waits=0 | data=0x7f7e7d7c
# UVM_INFO ../10_tb/env/scoreboard.sv(359) @ 895000: uvm_test_top.env.scb [scoreboard] [SCB][AHB][PASS] AHB AHB_WRITE addr=0x113c trans=AHB_TRANS_SEQ burst=AHB_BURST_INCR16 size=4B mastlock=0 resp=AHB_RESP_OKAY waits=0 | data=0x7f7e7d7c | total=33
# UVM_INFO ../10_tb/axi4_mst/axi4_mst_driver.sv(286) @ 905000: uvm_test_top.env.axi_agent.drv [axi4_mst_driver] [DRV][AXI][B] id=0x0 resp=AXI4_RESP_OKAY
# UVM_INFO ../10_tb/axi4_mst/axi4_mst_monitor.sv(177) @ 905000: uvm_test_top.env.axi_agent.mon [axi4_mst_monitor] [MON][AXI][RSP] WRITE id=0x0 resp=AXI4_RESP_OKAY
# UVM_INFO ../10_tb/env/scoreboard.sv(499) @ 905000: uvm_test_top.env.scb [scoreboard] [SCB][AXI][PASS] AXI4 AXI4_WRITE id=0x0 addr=0x1100 burst=AXI4_BURST_INCR beats=16 size=4B lock=0 | bresp=AXI4_RESP_OKAY | total=3
# UVM_INFO ../10_tb/axi4_mst/axi4_mst_driver.sv(105) @ 905000: uvm_test_top.env.axi_agent.drv [axi4_mst_driver] [DRV][AXI][REQ] AXI4 AXI4_READ id=0x6 addr=0x1100 burst=AXI4_BURST_INCR beats=4 size=4B lock=0 | outstanding=1
# UVM_INFO ../10_tb/axi4_mst/axi4_mst_driver.sv(261) @ 935000: uvm_test_top.env.axi_agent.drv [axi4_mst_driver] [DRV][AXI][AR] id=0x6 addr=0x1100 burst=AXI4_BURST_INCR beats=4 size=4B
# UVM_INFO ../10_tb/axi4_mst/axi4_mst_monitor.sv(211) @ 935000: uvm_test_top.env.axi_agent.mon [axi4_mst_monitor] [MON][AXI][REQ] AXI4 AXI4_READ id=0x6 addr=0x1100 burst=AXI4_BURST_INCR beats=4 size=4B lock=0
# UVM_INFO ../10_tb/env/predictor.sv(75) @ 935000: uvm_test_top.env.pred [predictor] [PRED][AXI][IN] AXI4 AXI4_READ id=0x6 addr=0x1100 burst=AXI4_BURST_INCR beats=4 size=4B lock=0 | queued=1
# UVM_INFO ../10_tb/env/predictor.sv(138) @ 935000: uvm_test_top.env.pred [predictor] [PRED][MAP] AXI4 AXI4_READ id=0x6 addr=0x1100 burst=AXI4_BURST_INCR beats=4 size=4B lock=0 -> AHB burst=AHB_BURST_INCR4 size=4B crosses_1kb=0
# UVM_INFO ../10_tb/env/predictor.sv(175) @ 935000: uvm_test_top.env.pred [predictor] [PRED][AHB] beat=1/4 | AHB AHB_READ addr=0x1100 trans=AHB_TRANS_NONSEQ burst=AHB_BURST_INCR4 size=4B mastlock=0 resp=AHB_RESP_OKAY waits=0
# UVM_INFO ../10_tb/env/predictor.sv(175) @ 935000: uvm_test_top.env.pred [predictor] [PRED][AHB] beat=2/4 | AHB AHB_READ addr=0x1104 trans=AHB_TRANS_SEQ burst=AHB_BURST_INCR4 size=4B mastlock=0 resp=AHB_RESP_OKAY waits=0
# UVM_INFO ../10_tb/env/predictor.sv(175) @ 935000: uvm_test_top.env.pred [predictor] [PRED][AHB] beat=3/4 | AHB AHB_READ addr=0x1108 trans=AHB_TRANS_SEQ burst=AHB_BURST_INCR4 size=4B mastlock=0 resp=AHB_RESP_OKAY waits=0
# UVM_INFO ../10_tb/env/predictor.sv(175) @ 935000: uvm_test_top.env.pred [predictor] [PRED][AHB] beat=4/4 | AHB AHB_READ addr=0x110c trans=AHB_TRANS_SEQ burst=AHB_BURST_INCR4 size=4B mastlock=0 resp=AHB_RESP_OKAY waits=0
# UVM_INFO ../10_tb/ahb_slv/ahb_slv_driver.sv(87) @ 945000: uvm_test_top.env.ahb_agent.drv [ahb_slv_driver] [DRV][AHB][REQ] AHB_READ addr=0x1100 trans=AHB_TRANS_NONSEQ burst=AHB_BURST_INCR4 size=4B
# UVM_INFO ../10_tb/ahb_slv/ahb_slv_driver.sv(201) @ 955000: uvm_test_top.env.ahb_agent.drv [ahb_slv_driver] [DRV][AHB][RSP] AHB_READ addr=0x1100 data=0x43424140 resp=AHB_RESP_OKAY ready_delay=0
# UVM_INFO ../10_tb/ahb_slv/ahb_slv_monitor.sv(119) @ 955000: uvm_test_top.env.ahb_agent.mon [ahb_slv_monitor] [MON][AHB][TR] AHB AHB_READ addr=0x1100 trans=AHB_TRANS_NONSEQ burst=AHB_BURST_INCR4 size=4B mastlock=0 resp=AHB_RESP_OKAY waits=0 | data=0x43424140
# UVM_INFO ../10_tb/env/scoreboard.sv(359) @ 955000: uvm_test_top.env.scb [scoreboard] [SCB][AHB][PASS] AHB AHB_READ addr=0x1100 trans=AHB_TRANS_NONSEQ burst=AHB_BURST_INCR4 size=4B mastlock=0 resp=AHB_RESP_OKAY waits=0 | data=0x43424140 | total=34
# UVM_INFO ../10_tb/ahb_slv/ahb_slv_driver.sv(87) @ 965000: uvm_test_top.env.ahb_agent.drv [ahb_slv_driver] [DRV][AHB][REQ] AHB_READ addr=0x1104 trans=AHB_TRANS_SEQ burst=AHB_BURST_INCR4 size=4B
# UVM_INFO ../10_tb/ahb_slv/ahb_slv_driver.sv(201) @ 975000: uvm_test_top.env.ahb_agent.drv [ahb_slv_driver] [DRV][AHB][RSP] AHB_READ addr=0x1104 data=0x47464544 resp=AHB_RESP_OKAY ready_delay=0
# UVM_INFO ../10_tb/ahb_slv/ahb_slv_monitor.sv(119) @ 975000: uvm_test_top.env.ahb_agent.mon [ahb_slv_monitor] [MON][AHB][TR] AHB AHB_READ addr=0x1104 trans=AHB_TRANS_SEQ burst=AHB_BURST_INCR4 size=4B mastlock=0 resp=AHB_RESP_OKAY waits=0 | data=0x47464544
# UVM_INFO ../10_tb/env/scoreboard.sv(359) @ 975000: uvm_test_top.env.scb [scoreboard] [SCB][AHB][PASS] AHB AHB_READ addr=0x1104 trans=AHB_TRANS_SEQ burst=AHB_BURST_INCR4 size=4B mastlock=0 resp=AHB_RESP_OKAY waits=0 | data=0x47464544 | total=35
# UVM_INFO ../10_tb/axi4_mst/axi4_mst_driver.sv(326) @ 975000: uvm_test_top.env.axi_agent.drv [axi4_mst_driver] [DRV][AXI][R] id=0x6 beat=1/4 data=0x43424140 resp=AXI4_RESP_OKAY last=0
# UVM_INFO ../10_tb/axi4_mst/axi4_mst_monitor.sv(256) @ 975000: uvm_test_top.env.axi_agent.mon [axi4_mst_monitor] [MON][AXI][R] id=0x6 beat=1/4 data=0x43424140 resp=AXI4_RESP_OKAY last=0
# UVM_INFO ../10_tb/ahb_slv/ahb_slv_driver.sv(87) @ 985000: uvm_test_top.env.ahb_agent.drv [ahb_slv_driver] [DRV][AHB][REQ] AHB_READ addr=0x1108 trans=AHB_TRANS_SEQ burst=AHB_BURST_INCR4 size=4B
# UVM_INFO ../10_tb/ahb_slv/ahb_slv_driver.sv(201) @ 995000: uvm_test_top.env.ahb_agent.drv [ahb_slv_driver] [DRV][AHB][RSP] AHB_READ addr=0x1108 data=0x4b4a4948 resp=AHB_RESP_OKAY ready_delay=0
# UVM_INFO ../10_tb/ahb_slv/ahb_slv_monitor.sv(119) @ 995000: uvm_test_top.env.ahb_agent.mon [ahb_slv_monitor] [MON][AHB][TR] AHB AHB_READ addr=0x1108 trans=AHB_TRANS_SEQ burst=AHB_BURST_INCR4 size=4B mastlock=0 resp=AHB_RESP_OKAY waits=0 | data=0x4b4a4948
# UVM_INFO ../10_tb/env/scoreboard.sv(359) @ 995000: uvm_test_top.env.scb [scoreboard] [SCB][AHB][PASS] AHB AHB_READ addr=0x1108 trans=AHB_TRANS_SEQ burst=AHB_BURST_INCR4 size=4B mastlock=0 resp=AHB_RESP_OKAY waits=0 | data=0x4b4a4948 | total=36
# UVM_INFO ../10_tb/axi4_mst/axi4_mst_driver.sv(326) @ 995000: uvm_test_top.env.axi_agent.drv [axi4_mst_driver] [DRV][AXI][R] id=0x6 beat=2/4 data=0x47464544 resp=AXI4_RESP_OKAY last=0
# UVM_INFO ../10_tb/axi4_mst/axi4_mst_monitor.sv(256) @ 995000: uvm_test_top.env.axi_agent.mon [axi4_mst_monitor] [MON][AXI][R] id=0x6 beat=2/4 data=0x47464544 resp=AXI4_RESP_OKAY last=0
# UVM_INFO ../10_tb/ahb_slv/ahb_slv_driver.sv(87) @ 1005000: uvm_test_top.env.ahb_agent.drv [ahb_slv_driver] [DRV][AHB][REQ] AHB_READ addr=0x110c trans=AHB_TRANS_SEQ burst=AHB_BURST_INCR4 size=4B
# UVM_INFO ../10_tb/ahb_slv/ahb_slv_driver.sv(201) @ 1015000: uvm_test_top.env.ahb_agent.drv [ahb_slv_driver] [DRV][AHB][RSP] AHB_READ addr=0x110c data=0x4f4e4d4c resp=AHB_RESP_OKAY ready_delay=0
# UVM_INFO ../10_tb/ahb_slv/ahb_slv_monitor.sv(119) @ 1015000: uvm_test_top.env.ahb_agent.mon [ahb_slv_monitor] [MON][AHB][TR] AHB AHB_READ addr=0x110c trans=AHB_TRANS_SEQ burst=AHB_BURST_INCR4 size=4B mastlock=0 resp=AHB_RESP_OKAY waits=0 | data=0x4f4e4d4c
# UVM_INFO ../10_tb/env/scoreboard.sv(359) @ 1015000: uvm_test_top.env.scb [scoreboard] [SCB][AHB][PASS] AHB AHB_READ addr=0x110c trans=AHB_TRANS_SEQ burst=AHB_BURST_INCR4 size=4B mastlock=0 resp=AHB_RESP_OKAY waits=0 | data=0x4f4e4d4c | total=37
# UVM_INFO ../10_tb/axi4_mst/axi4_mst_driver.sv(326) @ 1015000: uvm_test_top.env.axi_agent.drv [axi4_mst_driver] [DRV][AXI][R] id=0x6 beat=3/4 data=0x4b4a4948 resp=AXI4_RESP_OKAY last=0
# UVM_INFO ../10_tb/axi4_mst/axi4_mst_monitor.sv(256) @ 1015000: uvm_test_top.env.axi_agent.mon [axi4_mst_monitor] [MON][AXI][R] id=0x6 beat=3/4 data=0x4b4a4948 resp=AXI4_RESP_OKAY last=0
# UVM_INFO ../10_tb/axi4_mst/axi4_mst_driver.sv(326) @ 1035000: uvm_test_top.env.axi_agent.drv [axi4_mst_driver] [DRV][AXI][R] id=0x6 beat=4/4 data=0x4f4e4d4c resp=AXI4_RESP_OKAY last=1
# UVM_INFO ../10_tb/axi4_mst/axi4_mst_monitor.sv(256) @ 1035000: uvm_test_top.env.axi_agent.mon [axi4_mst_monitor] [MON][AXI][R] id=0x6 beat=4/4 data=0x4f4e4d4c resp=AXI4_RESP_OKAY last=1
# UVM_INFO ../10_tb/axi4_mst/axi4_mst_monitor.sv(262) @ 1035000: uvm_test_top.env.axi_agent.mon [axi4_mst_monitor] [MON][AXI][RSP] READ id=0x6 beats=4
# UVM_INFO ../10_tb/env/scoreboard.sv(506) @ 1035000: uvm_test_top.env.scb [scoreboard] [SCB][AXI][PASS] AXI4 AXI4_READ id=0x6 addr=0x1100 burst=AXI4_BURST_INCR beats=4 size=4B lock=0 | read beats=4 | total=4
# UVM_INFO ../10_tb/seq/axi4_mst_seq/axi4_mst_unaligned_read_seq.sv(151) @ 1035000: uvm_test_top.env.axi_agent.sqr@@axi_seq [axi4_mst_unaligned_read_seq] [2] INCR5_FULL_OFF0 ARADDR=0x1200 ARSIZE=4B beats=5 expected first HADDR=0x1200
# UVM_INFO ../10_tb/axi4_mst/axi4_mst_driver.sv(105) @ 1035000: uvm_test_top.env.axi_agent.drv [axi4_mst_driver] [DRV][AXI][REQ] AXI4 AXI4_WRITE id=0x6 addr=0x1200 burst=AXI4_BURST_INCR beats=16 size=4B lock=0 | outstanding=1
# UVM_INFO ../10_tb/axi4_mst/axi4_mst_driver.sv(178) @ 1075000: uvm_test_top.env.axi_agent.drv [axi4_mst_driver] [DRV][AXI][AW] id=0x6 addr=0x1200 burst=AXI4_BURST_INCR beats=16 size=4B
# UVM_INFO ../10_tb/axi4_mst/axi4_mst_driver.sv(204) @ 1075000: uvm_test_top.env.axi_agent.drv [axi4_mst_driver] [DRV][AXI][W] id=0x6 beat=1/16 data=0x53525150 strb=0xf last=0
# UVM_INFO ../10_tb/ahb_slv/ahb_slv_driver.sv(87) @ 1085000: uvm_test_top.env.ahb_agent.drv [ahb_slv_driver] [DRV][AHB][REQ] AHB_WRITE addr=0x1200 trans=AHB_TRANS_NONSEQ burst=AHB_BURST_INCR16 size=4B
# UVM_INFO ../10_tb/ahb_slv/ahb_slv_driver.sv(201) @ 1095000: uvm_test_top.env.ahb_agent.drv [ahb_slv_driver] [DRV][AHB][RSP] AHB_WRITE addr=0x1200 data=0x53525150 resp=AHB_RESP_OKAY ready_delay=0
# UVM_INFO ../10_tb/ahb_slv/ahb_slv_monitor.sv(119) @ 1095000: uvm_test_top.env.ahb_agent.mon [ahb_slv_monitor] [MON][AHB][TR] AHB AHB_WRITE addr=0x1200 trans=AHB_TRANS_NONSEQ burst=AHB_BURST_INCR16 size=4B mastlock=0 resp=AHB_RESP_OKAY waits=0 | data=0x53525150
# UVM_INFO ../10_tb/ahb_slv/ahb_slv_driver.sv(87) @ 1105000: uvm_test_top.env.ahb_agent.drv [ahb_slv_driver] [DRV][AHB][REQ] AHB_WRITE addr=0x1204 trans=AHB_TRANS_SEQ burst=AHB_BURST_INCR16 size=4B
# UVM_INFO ../10_tb/axi4_mst/axi4_mst_driver.sv(204) @ 1105000: uvm_test_top.env.axi_agent.drv [axi4_mst_driver] [DRV][AXI][W] id=0x6 beat=2/16 data=0x57565554 strb=0xf last=0
# UVM_INFO ../10_tb/ahb_slv/ahb_slv_driver.sv(201) @ 1115000: uvm_test_top.env.ahb_agent.drv [ahb_slv_driver] [DRV][AHB][RSP] AHB_WRITE addr=0x1204 data=0x57565554 resp=AHB_RESP_OKAY ready_delay=0
# UVM_INFO ../10_tb/ahb_slv/ahb_slv_monitor.sv(119) @ 1115000: uvm_test_top.env.ahb_agent.mon [ahb_slv_monitor] [MON][AHB][TR] AHB AHB_WRITE addr=0x1204 trans=AHB_TRANS_SEQ burst=AHB_BURST_INCR16 size=4B mastlock=0 resp=AHB_RESP_OKAY waits=0 | data=0x57565554
# UVM_INFO ../10_tb/ahb_slv/ahb_slv_driver.sv(87) @ 1125000: uvm_test_top.env.ahb_agent.drv [ahb_slv_driver] [DRV][AHB][REQ] AHB_WRITE addr=0x1208 trans=AHB_TRANS_SEQ burst=AHB_BURST_INCR16 size=4B
# UVM_INFO ../10_tb/axi4_mst/axi4_mst_driver.sv(204) @ 1125000: uvm_test_top.env.axi_agent.drv [axi4_mst_driver] [DRV][AXI][W] id=0x6 beat=3/16 data=0x5b5a5958 strb=0xf last=0
# UVM_INFO ../10_tb/ahb_slv/ahb_slv_driver.sv(201) @ 1135000: uvm_test_top.env.ahb_agent.drv [ahb_slv_driver] [DRV][AHB][RSP] AHB_WRITE addr=0x1208 data=0x5b5a5958 resp=AHB_RESP_OKAY ready_delay=0
# UVM_INFO ../10_tb/ahb_slv/ahb_slv_monitor.sv(119) @ 1135000: uvm_test_top.env.ahb_agent.mon [ahb_slv_monitor] [MON][AHB][TR] AHB AHB_WRITE addr=0x1208 trans=AHB_TRANS_SEQ burst=AHB_BURST_INCR16 size=4B mastlock=0 resp=AHB_RESP_OKAY waits=0 | data=0x5b5a5958
# UVM_INFO ../10_tb/ahb_slv/ahb_slv_driver.sv(87) @ 1145000: uvm_test_top.env.ahb_agent.drv [ahb_slv_driver] [DRV][AHB][REQ] AHB_WRITE addr=0x120c trans=AHB_TRANS_SEQ burst=AHB_BURST_INCR16 size=4B
# UVM_INFO ../10_tb/axi4_mst/axi4_mst_driver.sv(204) @ 1145000: uvm_test_top.env.axi_agent.drv [axi4_mst_driver] [DRV][AXI][W] id=0x6 beat=4/16 data=0x5f5e5d5c strb=0xf last=0
# UVM_INFO ../10_tb/ahb_slv/ahb_slv_driver.sv(201) @ 1155000: uvm_test_top.env.ahb_agent.drv [ahb_slv_driver] [DRV][AHB][RSP] AHB_WRITE addr=0x120c data=0x5f5e5d5c resp=AHB_RESP_OKAY ready_delay=0
# UVM_INFO ../10_tb/ahb_slv/ahb_slv_monitor.sv(119) @ 1155000: uvm_test_top.env.ahb_agent.mon [ahb_slv_monitor] [MON][AHB][TR] AHB AHB_WRITE addr=0x120c trans=AHB_TRANS_SEQ burst=AHB_BURST_INCR16 size=4B mastlock=0 resp=AHB_RESP_OKAY waits=0 | data=0x5f5e5d5c
# UVM_INFO ../10_tb/ahb_slv/ahb_slv_driver.sv(87) @ 1165000: uvm_test_top.env.ahb_agent.drv [ahb_slv_driver] [DRV][AHB][REQ] AHB_WRITE addr=0x1210 trans=AHB_TRANS_SEQ burst=AHB_BURST_INCR16 size=4B
# UVM_INFO ../10_tb/axi4_mst/axi4_mst_driver.sv(204) @ 1165000: uvm_test_top.env.axi_agent.drv [axi4_mst_driver] [DRV][AXI][W] id=0x6 beat=5/16 data=0x63626160 strb=0xf last=0
# UVM_INFO ../10_tb/ahb_slv/ahb_slv_driver.sv(201) @ 1175000: uvm_test_top.env.ahb_agent.drv [ahb_slv_driver] [DRV][AHB][RSP] AHB_WRITE addr=0x1210 data=0x63626160 resp=AHB_RESP_OKAY ready_delay=0
# UVM_INFO ../10_tb/ahb_slv/ahb_slv_monitor.sv(119) @ 1175000: uvm_test_top.env.ahb_agent.mon [ahb_slv_monitor] [MON][AHB][TR] AHB AHB_WRITE addr=0x1210 trans=AHB_TRANS_SEQ burst=AHB_BURST_INCR16 size=4B mastlock=0 resp=AHB_RESP_OKAY waits=0 | data=0x63626160
# UVM_INFO ../10_tb/ahb_slv/ahb_slv_driver.sv(87) @ 1185000: uvm_test_top.env.ahb_agent.drv [ahb_slv_driver] [DRV][AHB][REQ] AHB_WRITE addr=0x1214 trans=AHB_TRANS_SEQ burst=AHB_BURST_INCR16 size=4B
# UVM_INFO ../10_tb/axi4_mst/axi4_mst_driver.sv(204) @ 1185000: uvm_test_top.env.axi_agent.drv [axi4_mst_driver] [DRV][AXI][W] id=0x6 beat=6/16 data=0x67666564 strb=0xf last=0
# UVM_INFO ../10_tb/ahb_slv/ahb_slv_driver.sv(201) @ 1195000: uvm_test_top.env.ahb_agent.drv [ahb_slv_driver] [DRV][AHB][RSP] AHB_WRITE addr=0x1214 data=0x67666564 resp=AHB_RESP_OKAY ready_delay=0
# UVM_INFO ../10_tb/ahb_slv/ahb_slv_monitor.sv(119) @ 1195000: uvm_test_top.env.ahb_agent.mon [ahb_slv_monitor] [MON][AHB][TR] AHB AHB_WRITE addr=0x1214 trans=AHB_TRANS_SEQ burst=AHB_BURST_INCR16 size=4B mastlock=0 resp=AHB_RESP_OKAY waits=0 | data=0x67666564
# UVM_INFO ../10_tb/ahb_slv/ahb_slv_driver.sv(87) @ 1205000: uvm_test_top.env.ahb_agent.drv [ahb_slv_driver] [DRV][AHB][REQ] AHB_WRITE addr=0x1218 trans=AHB_TRANS_SEQ burst=AHB_BURST_INCR16 size=4B
# UVM_INFO ../10_tb/axi4_mst/axi4_mst_driver.sv(204) @ 1205000: uvm_test_top.env.axi_agent.drv [axi4_mst_driver] [DRV][AXI][W] id=0x6 beat=7/16 data=0x6b6a6968 strb=0xf last=0
# UVM_INFO ../10_tb/ahb_slv/ahb_slv_driver.sv(201) @ 1215000: uvm_test_top.env.ahb_agent.drv [ahb_slv_driver] [DRV][AHB][RSP] AHB_WRITE addr=0x1218 data=0x6b6a6968 resp=AHB_RESP_OKAY ready_delay=0
# UVM_INFO ../10_tb/ahb_slv/ahb_slv_monitor.sv(119) @ 1215000: uvm_test_top.env.ahb_agent.mon [ahb_slv_monitor] [MON][AHB][TR] AHB AHB_WRITE addr=0x1218 trans=AHB_TRANS_SEQ burst=AHB_BURST_INCR16 size=4B mastlock=0 resp=AHB_RESP_OKAY waits=0 | data=0x6b6a6968
# UVM_INFO ../10_tb/ahb_slv/ahb_slv_driver.sv(87) @ 1225000: uvm_test_top.env.ahb_agent.drv [ahb_slv_driver] [DRV][AHB][REQ] AHB_WRITE addr=0x121c trans=AHB_TRANS_SEQ burst=AHB_BURST_INCR16 size=4B
# UVM_INFO ../10_tb/axi4_mst/axi4_mst_driver.sv(204) @ 1225000: uvm_test_top.env.axi_agent.drv [axi4_mst_driver] [DRV][AXI][W] id=0x6 beat=8/16 data=0x6f6e6d6c strb=0xf last=0
# UVM_INFO ../10_tb/ahb_slv/ahb_slv_driver.sv(201) @ 1235000: uvm_test_top.env.ahb_agent.drv [ahb_slv_driver] [DRV][AHB][RSP] AHB_WRITE addr=0x121c data=0x6f6e6d6c resp=AHB_RESP_OKAY ready_delay=0
# UVM_INFO ../10_tb/ahb_slv/ahb_slv_monitor.sv(119) @ 1235000: uvm_test_top.env.ahb_agent.mon [ahb_slv_monitor] [MON][AHB][TR] AHB AHB_WRITE addr=0x121c trans=AHB_TRANS_SEQ burst=AHB_BURST_INCR16 size=4B mastlock=0 resp=AHB_RESP_OKAY waits=0 | data=0x6f6e6d6c
# UVM_INFO ../10_tb/ahb_slv/ahb_slv_driver.sv(87) @ 1245000: uvm_test_top.env.ahb_agent.drv [ahb_slv_driver] [DRV][AHB][REQ] AHB_WRITE addr=0x1220 trans=AHB_TRANS_SEQ burst=AHB_BURST_INCR16 size=4B
# UVM_INFO ../10_tb/axi4_mst/axi4_mst_driver.sv(204) @ 1245000: uvm_test_top.env.axi_agent.drv [axi4_mst_driver] [DRV][AXI][W] id=0x6 beat=9/16 data=0x73727170 strb=0xf last=0
# UVM_INFO ../10_tb/ahb_slv/ahb_slv_driver.sv(201) @ 1255000: uvm_test_top.env.ahb_agent.drv [ahb_slv_driver] [DRV][AHB][RSP] AHB_WRITE addr=0x1220 data=0x73727170 resp=AHB_RESP_OKAY ready_delay=0
# UVM_INFO ../10_tb/ahb_slv/ahb_slv_monitor.sv(119) @ 1255000: uvm_test_top.env.ahb_agent.mon [ahb_slv_monitor] [MON][AHB][TR] AHB AHB_WRITE addr=0x1220 trans=AHB_TRANS_SEQ burst=AHB_BURST_INCR16 size=4B mastlock=0 resp=AHB_RESP_OKAY waits=0 | data=0x73727170
# UVM_INFO ../10_tb/ahb_slv/ahb_slv_driver.sv(87) @ 1265000: uvm_test_top.env.ahb_agent.drv [ahb_slv_driver] [DRV][AHB][REQ] AHB_WRITE addr=0x1224 trans=AHB_TRANS_SEQ burst=AHB_BURST_INCR16 size=4B
# UVM_INFO ../10_tb/axi4_mst/axi4_mst_driver.sv(204) @ 1265000: uvm_test_top.env.axi_agent.drv [axi4_mst_driver] [DRV][AXI][W] id=0x6 beat=10/16 data=0x77767574 strb=0xf last=0
# UVM_INFO ../10_tb/ahb_slv/ahb_slv_driver.sv(201) @ 1275000: uvm_test_top.env.ahb_agent.drv [ahb_slv_driver] [DRV][AHB][RSP] AHB_WRITE addr=0x1224 data=0x77767574 resp=AHB_RESP_OKAY ready_delay=0
# UVM_INFO ../10_tb/ahb_slv/ahb_slv_monitor.sv(119) @ 1275000: uvm_test_top.env.ahb_agent.mon [ahb_slv_monitor] [MON][AHB][TR] AHB AHB_WRITE addr=0x1224 trans=AHB_TRANS_SEQ burst=AHB_BURST_INCR16 size=4B mastlock=0 resp=AHB_RESP_OKAY waits=0 | data=0x77767574
# UVM_INFO ../10_tb/ahb_slv/ahb_slv_driver.sv(87) @ 1285000: uvm_test_top.env.ahb_agent.drv [ahb_slv_driver] [DRV][AHB][REQ] AHB_WRITE addr=0x1228 trans=AHB_TRANS_SEQ burst=AHB_BURST_INCR16 size=4B
# UVM_INFO ../10_tb/axi4_mst/axi4_mst_driver.sv(204) @ 1285000: uvm_test_top.env.axi_agent.drv [axi4_mst_driver] [DRV][AXI][W] id=0x6 beat=11/16 data=0x7b7a7978 strb=0xf last=0
# UVM_INFO ../10_tb/ahb_slv/ahb_slv_driver.sv(201) @ 1295000: uvm_test_top.env.ahb_agent.drv [ahb_slv_driver] [DRV][AHB][RSP] AHB_WRITE addr=0x1228 data=0x7b7a7978 resp=AHB_RESP_OKAY ready_delay=0
# UVM_INFO ../10_tb/ahb_slv/ahb_slv_monitor.sv(119) @ 1295000: uvm_test_top.env.ahb_agent.mon [ahb_slv_monitor] [MON][AHB][TR] AHB AHB_WRITE addr=0x1228 trans=AHB_TRANS_SEQ burst=AHB_BURST_INCR16 size=4B mastlock=0 resp=AHB_RESP_OKAY waits=0 | data=0x7b7a7978
# UVM_INFO ../10_tb/ahb_slv/ahb_slv_driver.sv(87) @ 1305000: uvm_test_top.env.ahb_agent.drv [ahb_slv_driver] [DRV][AHB][REQ] AHB_WRITE addr=0x122c trans=AHB_TRANS_SEQ burst=AHB_BURST_INCR16 size=4B
# UVM_INFO ../10_tb/axi4_mst/axi4_mst_driver.sv(204) @ 1305000: uvm_test_top.env.axi_agent.drv [axi4_mst_driver] [DRV][AXI][W] id=0x6 beat=12/16 data=0x7f7e7d7c strb=0xf last=0
# UVM_INFO ../10_tb/ahb_slv/ahb_slv_driver.sv(201) @ 1315000: uvm_test_top.env.ahb_agent.drv [ahb_slv_driver] [DRV][AHB][RSP] AHB_WRITE addr=0x122c data=0x7f7e7d7c resp=AHB_RESP_OKAY ready_delay=0
# UVM_INFO ../10_tb/ahb_slv/ahb_slv_monitor.sv(119) @ 1315000: uvm_test_top.env.ahb_agent.mon [ahb_slv_monitor] [MON][AHB][TR] AHB AHB_WRITE addr=0x122c trans=AHB_TRANS_SEQ burst=AHB_BURST_INCR16 size=4B mastlock=0 resp=AHB_RESP_OKAY waits=0 | data=0x7f7e7d7c
# UVM_INFO ../10_tb/ahb_slv/ahb_slv_driver.sv(87) @ 1325000: uvm_test_top.env.ahb_agent.drv [ahb_slv_driver] [DRV][AHB][REQ] AHB_WRITE addr=0x1230 trans=AHB_TRANS_SEQ burst=AHB_BURST_INCR16 size=4B
# UVM_INFO ../10_tb/axi4_mst/axi4_mst_driver.sv(204) @ 1325000: uvm_test_top.env.axi_agent.drv [axi4_mst_driver] [DRV][AXI][W] id=0x6 beat=13/16 data=0x83828180 strb=0xf last=0
# UVM_INFO ../10_tb/ahb_slv/ahb_slv_driver.sv(201) @ 1335000: uvm_test_top.env.ahb_agent.drv [ahb_slv_driver] [DRV][AHB][RSP] AHB_WRITE addr=0x1230 data=0x83828180 resp=AHB_RESP_OKAY ready_delay=0
# UVM_INFO ../10_tb/ahb_slv/ahb_slv_monitor.sv(119) @ 1335000: uvm_test_top.env.ahb_agent.mon [ahb_slv_monitor] [MON][AHB][TR] AHB AHB_WRITE addr=0x1230 trans=AHB_TRANS_SEQ burst=AHB_BURST_INCR16 size=4B mastlock=0 resp=AHB_RESP_OKAY waits=0 | data=0x83828180
# UVM_INFO ../10_tb/ahb_slv/ahb_slv_driver.sv(87) @ 1345000: uvm_test_top.env.ahb_agent.drv [ahb_slv_driver] [DRV][AHB][REQ] AHB_WRITE addr=0x1234 trans=AHB_TRANS_SEQ burst=AHB_BURST_INCR16 size=4B
# UVM_INFO ../10_tb/axi4_mst/axi4_mst_driver.sv(204) @ 1345000: uvm_test_top.env.axi_agent.drv [axi4_mst_driver] [DRV][AXI][W] id=0x6 beat=14/16 data=0x87868584 strb=0xf last=0
# UVM_INFO ../10_tb/ahb_slv/ahb_slv_driver.sv(201) @ 1355000: uvm_test_top.env.ahb_agent.drv [ahb_slv_driver] [DRV][AHB][RSP] AHB_WRITE addr=0x1234 data=0x87868584 resp=AHB_RESP_OKAY ready_delay=0
# UVM_INFO ../10_tb/ahb_slv/ahb_slv_monitor.sv(119) @ 1355000: uvm_test_top.env.ahb_agent.mon [ahb_slv_monitor] [MON][AHB][TR] AHB AHB_WRITE addr=0x1234 trans=AHB_TRANS_SEQ burst=AHB_BURST_INCR16 size=4B mastlock=0 resp=AHB_RESP_OKAY waits=0 | data=0x87868584
# UVM_INFO ../10_tb/ahb_slv/ahb_slv_driver.sv(87) @ 1365000: uvm_test_top.env.ahb_agent.drv [ahb_slv_driver] [DRV][AHB][REQ] AHB_WRITE addr=0x1238 trans=AHB_TRANS_SEQ burst=AHB_BURST_INCR16 size=4B
# UVM_INFO ../10_tb/axi4_mst/axi4_mst_driver.sv(204) @ 1365000: uvm_test_top.env.axi_agent.drv [axi4_mst_driver] [DRV][AXI][W] id=0x6 beat=15/16 data=0x8b8a8988 strb=0xf last=0
# UVM_INFO ../10_tb/ahb_slv/ahb_slv_driver.sv(201) @ 1375000: uvm_test_top.env.ahb_agent.drv [ahb_slv_driver] [DRV][AHB][RSP] AHB_WRITE addr=0x1238 data=0x8b8a8988 resp=AHB_RESP_OKAY ready_delay=0
# UVM_INFO ../10_tb/ahb_slv/ahb_slv_monitor.sv(119) @ 1375000: uvm_test_top.env.ahb_agent.mon [ahb_slv_monitor] [MON][AHB][TR] AHB AHB_WRITE addr=0x1238 trans=AHB_TRANS_SEQ burst=AHB_BURST_INCR16 size=4B mastlock=0 resp=AHB_RESP_OKAY waits=0 | data=0x8b8a8988
# UVM_INFO ../10_tb/ahb_slv/ahb_slv_driver.sv(87) @ 1385000: uvm_test_top.env.ahb_agent.drv [ahb_slv_driver] [DRV][AHB][REQ] AHB_WRITE addr=0x123c trans=AHB_TRANS_SEQ burst=AHB_BURST_INCR16 size=4B
# UVM_INFO ../10_tb/axi4_mst/axi4_mst_driver.sv(204) @ 1385000: uvm_test_top.env.axi_agent.drv [axi4_mst_driver] [DRV][AXI][W] id=0x6 beat=16/16 data=0x8f8e8d8c strb=0xf last=1
# UVM_INFO ../10_tb/axi4_mst/axi4_mst_monitor.sv(151) @ 1385000: uvm_test_top.env.axi_agent.mon [axi4_mst_monitor] [MON][AXI][REQ] AXI4 AXI4_WRITE id=0x6 addr=0x1200 burst=AXI4_BURST_INCR beats=16 size=4B lock=0
# UVM_INFO ../10_tb/env/predictor.sv(75) @ 1385000: uvm_test_top.env.pred [predictor] [PRED][AXI][IN] AXI4 AXI4_WRITE id=0x6 addr=0x1200 burst=AXI4_BURST_INCR beats=16 size=4B lock=0 | queued=1
# UVM_INFO ../10_tb/env/predictor.sv(138) @ 1385000: uvm_test_top.env.pred [predictor] [PRED][MAP] AXI4 AXI4_WRITE id=0x6 addr=0x1200 burst=AXI4_BURST_INCR beats=16 size=4B lock=0 -> AHB burst=AHB_BURST_INCR16 size=4B crosses_1kb=0
# UVM_INFO ../10_tb/env/predictor.sv(169) @ 1385000: uvm_test_top.env.pred [predictor] [PRED][AHB] beat=1/16 | AHB AHB_WRITE addr=0x1200 trans=AHB_TRANS_NONSEQ burst=AHB_BURST_INCR16 size=4B mastlock=0 resp=AHB_RESP_OKAY waits=0 | wdata=0x53525150
# UVM_INFO ../10_tb/env/scoreboard.sv(359) @ 1385000: uvm_test_top.env.scb [scoreboard] [SCB][AHB][PASS] AHB AHB_WRITE addr=0x1200 trans=AHB_TRANS_NONSEQ burst=AHB_BURST_INCR16 size=4B mastlock=0 resp=AHB_RESP_OKAY waits=0 | data=0x53525150 | total=38
# UVM_INFO ../10_tb/env/predictor.sv(169) @ 1385000: uvm_test_top.env.pred [predictor] [PRED][AHB] beat=2/16 | AHB AHB_WRITE addr=0x1204 trans=AHB_TRANS_SEQ burst=AHB_BURST_INCR16 size=4B mastlock=0 resp=AHB_RESP_OKAY waits=0 | wdata=0x57565554
# UVM_INFO ../10_tb/env/scoreboard.sv(359) @ 1385000: uvm_test_top.env.scb [scoreboard] [SCB][AHB][PASS] AHB AHB_WRITE addr=0x1204 trans=AHB_TRANS_SEQ burst=AHB_BURST_INCR16 size=4B mastlock=0 resp=AHB_RESP_OKAY waits=0 | data=0x57565554 | total=39
# UVM_INFO ../10_tb/env/predictor.sv(169) @ 1385000: uvm_test_top.env.pred [predictor] [PRED][AHB] beat=3/16 | AHB AHB_WRITE addr=0x1208 trans=AHB_TRANS_SEQ burst=AHB_BURST_INCR16 size=4B mastlock=0 resp=AHB_RESP_OKAY waits=0 | wdata=0x5b5a5958
# UVM_INFO ../10_tb/env/scoreboard.sv(359) @ 1385000: uvm_test_top.env.scb [scoreboard] [SCB][AHB][PASS] AHB AHB_WRITE addr=0x1208 trans=AHB_TRANS_SEQ burst=AHB_BURST_INCR16 size=4B mastlock=0 resp=AHB_RESP_OKAY waits=0 | data=0x5b5a5958 | total=40
# UVM_INFO ../10_tb/env/predictor.sv(169) @ 1385000: uvm_test_top.env.pred [predictor] [PRED][AHB] beat=4/16 | AHB AHB_WRITE addr=0x120c trans=AHB_TRANS_SEQ burst=AHB_BURST_INCR16 size=4B mastlock=0 resp=AHB_RESP_OKAY waits=0 | wdata=0x5f5e5d5c
# UVM_INFO ../10_tb/env/scoreboard.sv(359) @ 1385000: uvm_test_top.env.scb [scoreboard] [SCB][AHB][PASS] AHB AHB_WRITE addr=0x120c trans=AHB_TRANS_SEQ burst=AHB_BURST_INCR16 size=4B mastlock=0 resp=AHB_RESP_OKAY waits=0 | data=0x5f5e5d5c | total=41
# UVM_INFO ../10_tb/env/predictor.sv(169) @ 1385000: uvm_test_top.env.pred [predictor] [PRED][AHB] beat=5/16 | AHB AHB_WRITE addr=0x1210 trans=AHB_TRANS_SEQ burst=AHB_BURST_INCR16 size=4B mastlock=0 resp=AHB_RESP_OKAY waits=0 | wdata=0x63626160
# UVM_INFO ../10_tb/env/scoreboard.sv(359) @ 1385000: uvm_test_top.env.scb [scoreboard] [SCB][AHB][PASS] AHB AHB_WRITE addr=0x1210 trans=AHB_TRANS_SEQ burst=AHB_BURST_INCR16 size=4B mastlock=0 resp=AHB_RESP_OKAY waits=0 | data=0x63626160 | total=42
# UVM_INFO ../10_tb/env/predictor.sv(169) @ 1385000: uvm_test_top.env.pred [predictor] [PRED][AHB] beat=6/16 | AHB AHB_WRITE addr=0x1214 trans=AHB_TRANS_SEQ burst=AHB_BURST_INCR16 size=4B mastlock=0 resp=AHB_RESP_OKAY waits=0 | wdata=0x67666564
# UVM_INFO ../10_tb/env/scoreboard.sv(359) @ 1385000: uvm_test_top.env.scb [scoreboard] [SCB][AHB][PASS] AHB AHB_WRITE addr=0x1214 trans=AHB_TRANS_SEQ burst=AHB_BURST_INCR16 size=4B mastlock=0 resp=AHB_RESP_OKAY waits=0 | data=0x67666564 | total=43
# UVM_INFO ../10_tb/env/predictor.sv(169) @ 1385000: uvm_test_top.env.pred [predictor] [PRED][AHB] beat=7/16 | AHB AHB_WRITE addr=0x1218 trans=AHB_TRANS_SEQ burst=AHB_BURST_INCR16 size=4B mastlock=0 resp=AHB_RESP_OKAY waits=0 | wdata=0x6b6a6968
# UVM_INFO ../10_tb/env/scoreboard.sv(359) @ 1385000: uvm_test_top.env.scb [scoreboard] [SCB][AHB][PASS] AHB AHB_WRITE addr=0x1218 trans=AHB_TRANS_SEQ burst=AHB_BURST_INCR16 size=4B mastlock=0 resp=AHB_RESP_OKAY waits=0 | data=0x6b6a6968 | total=44
# UVM_INFO ../10_tb/env/predictor.sv(169) @ 1385000: uvm_test_top.env.pred [predictor] [PRED][AHB] beat=8/16 | AHB AHB_WRITE addr=0x121c trans=AHB_TRANS_SEQ burst=AHB_BURST_INCR16 size=4B mastlock=0 resp=AHB_RESP_OKAY waits=0 | wdata=0x6f6e6d6c
# UVM_INFO ../10_tb/env/scoreboard.sv(359) @ 1385000: uvm_test_top.env.scb [scoreboard] [SCB][AHB][PASS] AHB AHB_WRITE addr=0x121c trans=AHB_TRANS_SEQ burst=AHB_BURST_INCR16 size=4B mastlock=0 resp=AHB_RESP_OKAY waits=0 | data=0x6f6e6d6c | total=45
# UVM_INFO ../10_tb/env/predictor.sv(169) @ 1385000: uvm_test_top.env.pred [predictor] [PRED][AHB] beat=9/16 | AHB AHB_WRITE addr=0x1220 trans=AHB_TRANS_SEQ burst=AHB_BURST_INCR16 size=4B mastlock=0 resp=AHB_RESP_OKAY waits=0 | wdata=0x73727170
# UVM_INFO ../10_tb/env/scoreboard.sv(359) @ 1385000: uvm_test_top.env.scb [scoreboard] [SCB][AHB][PASS] AHB AHB_WRITE addr=0x1220 trans=AHB_TRANS_SEQ burst=AHB_BURST_INCR16 size=4B mastlock=0 resp=AHB_RESP_OKAY waits=0 | data=0x73727170 | total=46
# UVM_INFO ../10_tb/env/predictor.sv(169) @ 1385000: uvm_test_top.env.pred [predictor] [PRED][AHB] beat=10/16 | AHB AHB_WRITE addr=0x1224 trans=AHB_TRANS_SEQ burst=AHB_BURST_INCR16 size=4B mastlock=0 resp=AHB_RESP_OKAY waits=0 | wdata=0x77767574
# UVM_INFO ../10_tb/env/scoreboard.sv(359) @ 1385000: uvm_test_top.env.scb [scoreboard] [SCB][AHB][PASS] AHB AHB_WRITE addr=0x1224 trans=AHB_TRANS_SEQ burst=AHB_BURST_INCR16 size=4B mastlock=0 resp=AHB_RESP_OKAY waits=0 | data=0x77767574 | total=47
# UVM_INFO ../10_tb/env/predictor.sv(169) @ 1385000: uvm_test_top.env.pred [predictor] [PRED][AHB] beat=11/16 | AHB AHB_WRITE addr=0x1228 trans=AHB_TRANS_SEQ burst=AHB_BURST_INCR16 size=4B mastlock=0 resp=AHB_RESP_OKAY waits=0 | wdata=0x7b7a7978
# UVM_INFO ../10_tb/env/scoreboard.sv(359) @ 1385000: uvm_test_top.env.scb [scoreboard] [SCB][AHB][PASS] AHB AHB_WRITE addr=0x1228 trans=AHB_TRANS_SEQ burst=AHB_BURST_INCR16 size=4B mastlock=0 resp=AHB_RESP_OKAY waits=0 | data=0x7b7a7978 | total=48
# UVM_INFO ../10_tb/env/predictor.sv(169) @ 1385000: uvm_test_top.env.pred [predictor] [PRED][AHB] beat=12/16 | AHB AHB_WRITE addr=0x122c trans=AHB_TRANS_SEQ burst=AHB_BURST_INCR16 size=4B mastlock=0 resp=AHB_RESP_OKAY waits=0 | wdata=0x7f7e7d7c
# UVM_INFO ../10_tb/env/scoreboard.sv(359) @ 1385000: uvm_test_top.env.scb [scoreboard] [SCB][AHB][PASS] AHB AHB_WRITE addr=0x122c trans=AHB_TRANS_SEQ burst=AHB_BURST_INCR16 size=4B mastlock=0 resp=AHB_RESP_OKAY waits=0 | data=0x7f7e7d7c | total=49
# UVM_INFO ../10_tb/env/predictor.sv(169) @ 1385000: uvm_test_top.env.pred [predictor] [PRED][AHB] beat=13/16 | AHB AHB_WRITE addr=0x1230 trans=AHB_TRANS_SEQ burst=AHB_BURST_INCR16 size=4B mastlock=0 resp=AHB_RESP_OKAY waits=0 | wdata=0x83828180
# UVM_INFO ../10_tb/env/scoreboard.sv(359) @ 1385000: uvm_test_top.env.scb [scoreboard] [SCB][AHB][PASS] AHB AHB_WRITE addr=0x1230 trans=AHB_TRANS_SEQ burst=AHB_BURST_INCR16 size=4B mastlock=0 resp=AHB_RESP_OKAY waits=0 | data=0x83828180 | total=50
# UVM_INFO ../10_tb/env/predictor.sv(169) @ 1385000: uvm_test_top.env.pred [predictor] [PRED][AHB] beat=14/16 | AHB AHB_WRITE addr=0x1234 trans=AHB_TRANS_SEQ burst=AHB_BURST_INCR16 size=4B mastlock=0 resp=AHB_RESP_OKAY waits=0 | wdata=0x87868584
# UVM_INFO ../10_tb/env/scoreboard.sv(359) @ 1385000: uvm_test_top.env.scb [scoreboard] [SCB][AHB][PASS] AHB AHB_WRITE addr=0x1234 trans=AHB_TRANS_SEQ burst=AHB_BURST_INCR16 size=4B mastlock=0 resp=AHB_RESP_OKAY waits=0 | data=0x87868584 | total=51
# UVM_INFO ../10_tb/env/predictor.sv(169) @ 1385000: uvm_test_top.env.pred [predictor] [PRED][AHB] beat=15/16 | AHB AHB_WRITE addr=0x1238 trans=AHB_TRANS_SEQ burst=AHB_BURST_INCR16 size=4B mastlock=0 resp=AHB_RESP_OKAY waits=0 | wdata=0x8b8a8988
# UVM_INFO ../10_tb/env/scoreboard.sv(359) @ 1385000: uvm_test_top.env.scb [scoreboard] [SCB][AHB][PASS] AHB AHB_WRITE addr=0x1238 trans=AHB_TRANS_SEQ burst=AHB_BURST_INCR16 size=4B mastlock=0 resp=AHB_RESP_OKAY waits=0 | data=0x8b8a8988 | total=52
# UVM_INFO ../10_tb/env/predictor.sv(169) @ 1385000: uvm_test_top.env.pred [predictor] [PRED][AHB] beat=16/16 | AHB AHB_WRITE addr=0x123c trans=AHB_TRANS_SEQ burst=AHB_BURST_INCR16 size=4B mastlock=0 resp=AHB_RESP_OKAY waits=0 | wdata=0x8f8e8d8c
# UVM_INFO ../10_tb/ahb_slv/ahb_slv_driver.sv(201) @ 1395000: uvm_test_top.env.ahb_agent.drv [ahb_slv_driver] [DRV][AHB][RSP] AHB_WRITE addr=0x123c data=0x8f8e8d8c resp=AHB_RESP_OKAY ready_delay=0
# UVM_INFO ../10_tb/ahb_slv/ahb_slv_monitor.sv(119) @ 1395000: uvm_test_top.env.ahb_agent.mon [ahb_slv_monitor] [MON][AHB][TR] AHB AHB_WRITE addr=0x123c trans=AHB_TRANS_SEQ burst=AHB_BURST_INCR16 size=4B mastlock=0 resp=AHB_RESP_OKAY waits=0 | data=0x8f8e8d8c
# UVM_INFO ../10_tb/env/scoreboard.sv(359) @ 1395000: uvm_test_top.env.scb [scoreboard] [SCB][AHB][PASS] AHB AHB_WRITE addr=0x123c trans=AHB_TRANS_SEQ burst=AHB_BURST_INCR16 size=4B mastlock=0 resp=AHB_RESP_OKAY waits=0 | data=0x8f8e8d8c | total=53
# UVM_INFO ../10_tb/axi4_mst/axi4_mst_driver.sv(286) @ 1405000: uvm_test_top.env.axi_agent.drv [axi4_mst_driver] [DRV][AXI][B] id=0x6 resp=AXI4_RESP_OKAY
# UVM_INFO ../10_tb/axi4_mst/axi4_mst_monitor.sv(177) @ 1405000: uvm_test_top.env.axi_agent.mon [axi4_mst_monitor] [MON][AXI][RSP] WRITE id=0x6 resp=AXI4_RESP_OKAY
# UVM_INFO ../10_tb/env/scoreboard.sv(499) @ 1405000: uvm_test_top.env.scb [scoreboard] [SCB][AXI][PASS] AXI4 AXI4_WRITE id=0x6 addr=0x1200 burst=AXI4_BURST_INCR beats=16 size=4B lock=0 | bresp=AXI4_RESP_OKAY | total=5
# UVM_INFO ../10_tb/axi4_mst/axi4_mst_driver.sv(105) @ 1405000: uvm_test_top.env.axi_agent.drv [axi4_mst_driver] [DRV][AXI][REQ] AXI4 AXI4_READ id=0x3 addr=0x1200 burst=AXI4_BURST_INCR beats=5 size=4B lock=0 | outstanding=1
# UVM_INFO ../10_tb/axi4_mst/axi4_mst_driver.sv(261) @ 1435000: uvm_test_top.env.axi_agent.drv [axi4_mst_driver] [DRV][AXI][AR] id=0x3 addr=0x1200 burst=AXI4_BURST_INCR beats=5 size=4B
# UVM_INFO ../10_tb/axi4_mst/axi4_mst_monitor.sv(211) @ 1435000: uvm_test_top.env.axi_agent.mon [axi4_mst_monitor] [MON][AXI][REQ] AXI4 AXI4_READ id=0x3 addr=0x1200 burst=AXI4_BURST_INCR beats=5 size=4B lock=0
# UVM_INFO ../10_tb/env/predictor.sv(75) @ 1435000: uvm_test_top.env.pred [predictor] [PRED][AXI][IN] AXI4 AXI4_READ id=0x3 addr=0x1200 burst=AXI4_BURST_INCR beats=5 size=4B lock=0 | queued=1
# UVM_INFO ../10_tb/env/predictor.sv(138) @ 1435000: uvm_test_top.env.pred [predictor] [PRED][MAP] AXI4 AXI4_READ id=0x3 addr=0x1200 burst=AXI4_BURST_INCR beats=5 size=4B lock=0 -> AHB burst=AHB_BURST_INCR size=4B crosses_1kb=0
# UVM_INFO ../10_tb/env/predictor.sv(175) @ 1435000: uvm_test_top.env.pred [predictor] [PRED][AHB] beat=1/5 | AHB AHB_READ addr=0x1200 trans=AHB_TRANS_NONSEQ burst=AHB_BURST_INCR size=4B mastlock=0 resp=AHB_RESP_OKAY waits=0
# UVM_INFO ../10_tb/env/predictor.sv(175) @ 1435000: uvm_test_top.env.pred [predictor] [PRED][AHB] beat=2/5 | AHB AHB_READ addr=0x1204 trans=AHB_TRANS_SEQ burst=AHB_BURST_INCR size=4B mastlock=0 resp=AHB_RESP_OKAY waits=0
# UVM_INFO ../10_tb/env/predictor.sv(175) @ 1435000: uvm_test_top.env.pred [predictor] [PRED][AHB] beat=3/5 | AHB AHB_READ addr=0x1208 trans=AHB_TRANS_SEQ burst=AHB_BURST_INCR size=4B mastlock=0 resp=AHB_RESP_OKAY waits=0
# UVM_INFO ../10_tb/env/predictor.sv(175) @ 1435000: uvm_test_top.env.pred [predictor] [PRED][AHB] beat=4/5 | AHB AHB_READ addr=0x120c trans=AHB_TRANS_SEQ burst=AHB_BURST_INCR size=4B mastlock=0 resp=AHB_RESP_OKAY waits=0
# UVM_INFO ../10_tb/env/predictor.sv(175) @ 1435000: uvm_test_top.env.pred [predictor] [PRED][AHB] beat=5/5 | AHB AHB_READ addr=0x1210 trans=AHB_TRANS_SEQ burst=AHB_BURST_INCR size=4B mastlock=0 resp=AHB_RESP_OKAY waits=0
# UVM_INFO ../10_tb/ahb_slv/ahb_slv_driver.sv(87) @ 1445000: uvm_test_top.env.ahb_agent.drv [ahb_slv_driver] [DRV][AHB][REQ] AHB_READ addr=0x1200 trans=AHB_TRANS_NONSEQ burst=AHB_BURST_INCR size=4B
# UVM_INFO ../10_tb/ahb_slv/ahb_slv_driver.sv(201) @ 1455000: uvm_test_top.env.ahb_agent.drv [ahb_slv_driver] [DRV][AHB][RSP] AHB_READ addr=0x1200 data=0x53525150 resp=AHB_RESP_OKAY ready_delay=0
# UVM_INFO ../10_tb/ahb_slv/ahb_slv_monitor.sv(119) @ 1455000: uvm_test_top.env.ahb_agent.mon [ahb_slv_monitor] [MON][AHB][TR] AHB AHB_READ addr=0x1200 trans=AHB_TRANS_NONSEQ burst=AHB_BURST_INCR size=4B mastlock=0 resp=AHB_RESP_OKAY waits=0 | data=0x53525150
# UVM_INFO ../10_tb/env/scoreboard.sv(359) @ 1455000: uvm_test_top.env.scb [scoreboard] [SCB][AHB][PASS] AHB AHB_READ addr=0x1200 trans=AHB_TRANS_NONSEQ burst=AHB_BURST_INCR size=4B mastlock=0 resp=AHB_RESP_OKAY waits=0 | data=0x53525150 | total=54
# UVM_INFO ../10_tb/ahb_slv/ahb_slv_driver.sv(87) @ 1465000: uvm_test_top.env.ahb_agent.drv [ahb_slv_driver] [DRV][AHB][REQ] AHB_READ addr=0x1204 trans=AHB_TRANS_SEQ burst=AHB_BURST_INCR size=4B
# UVM_INFO ../10_tb/ahb_slv/ahb_slv_driver.sv(201) @ 1475000: uvm_test_top.env.ahb_agent.drv [ahb_slv_driver] [DRV][AHB][RSP] AHB_READ addr=0x1204 data=0x57565554 resp=AHB_RESP_OKAY ready_delay=0
# UVM_INFO ../10_tb/ahb_slv/ahb_slv_monitor.sv(119) @ 1475000: uvm_test_top.env.ahb_agent.mon [ahb_slv_monitor] [MON][AHB][TR] AHB AHB_READ addr=0x1204 trans=AHB_TRANS_SEQ burst=AHB_BURST_INCR size=4B mastlock=0 resp=AHB_RESP_OKAY waits=0 | data=0x57565554
# UVM_INFO ../10_tb/env/scoreboard.sv(359) @ 1475000: uvm_test_top.env.scb [scoreboard] [SCB][AHB][PASS] AHB AHB_READ addr=0x1204 trans=AHB_TRANS_SEQ burst=AHB_BURST_INCR size=4B mastlock=0 resp=AHB_RESP_OKAY waits=0 | data=0x57565554 | total=55
# UVM_INFO ../10_tb/axi4_mst/axi4_mst_driver.sv(326) @ 1475000: uvm_test_top.env.axi_agent.drv [axi4_mst_driver] [DRV][AXI][R] id=0x3 beat=1/5 data=0x53525150 resp=AXI4_RESP_OKAY last=0
# UVM_INFO ../10_tb/axi4_mst/axi4_mst_monitor.sv(256) @ 1475000: uvm_test_top.env.axi_agent.mon [axi4_mst_monitor] [MON][AXI][R] id=0x3 beat=1/5 data=0x53525150 resp=AXI4_RESP_OKAY last=0
# UVM_INFO ../10_tb/ahb_slv/ahb_slv_driver.sv(87) @ 1485000: uvm_test_top.env.ahb_agent.drv [ahb_slv_driver] [DRV][AHB][REQ] AHB_READ addr=0x1208 trans=AHB_TRANS_SEQ burst=AHB_BURST_INCR size=4B
# UVM_INFO ../10_tb/ahb_slv/ahb_slv_driver.sv(201) @ 1495000: uvm_test_top.env.ahb_agent.drv [ahb_slv_driver] [DRV][AHB][RSP] AHB_READ addr=0x1208 data=0x5b5a5958 resp=AHB_RESP_OKAY ready_delay=0
# UVM_INFO ../10_tb/ahb_slv/ahb_slv_monitor.sv(119) @ 1495000: uvm_test_top.env.ahb_agent.mon [ahb_slv_monitor] [MON][AHB][TR] AHB AHB_READ addr=0x1208 trans=AHB_TRANS_SEQ burst=AHB_BURST_INCR size=4B mastlock=0 resp=AHB_RESP_OKAY waits=0 | data=0x5b5a5958
# UVM_INFO ../10_tb/env/scoreboard.sv(359) @ 1495000: uvm_test_top.env.scb [scoreboard] [SCB][AHB][PASS] AHB AHB_READ addr=0x1208 trans=AHB_TRANS_SEQ burst=AHB_BURST_INCR size=4B mastlock=0 resp=AHB_RESP_OKAY waits=0 | data=0x5b5a5958 | total=56
# UVM_INFO ../10_tb/axi4_mst/axi4_mst_driver.sv(326) @ 1495000: uvm_test_top.env.axi_agent.drv [axi4_mst_driver] [DRV][AXI][R] id=0x3 beat=2/5 data=0x57565554 resp=AXI4_RESP_OKAY last=0
# UVM_INFO ../10_tb/axi4_mst/axi4_mst_monitor.sv(256) @ 1495000: uvm_test_top.env.axi_agent.mon [axi4_mst_monitor] [MON][AXI][R] id=0x3 beat=2/5 data=0x57565554 resp=AXI4_RESP_OKAY last=0
# UVM_INFO ../10_tb/ahb_slv/ahb_slv_driver.sv(87) @ 1505000: uvm_test_top.env.ahb_agent.drv [ahb_slv_driver] [DRV][AHB][REQ] AHB_READ addr=0x120c trans=AHB_TRANS_SEQ burst=AHB_BURST_INCR size=4B
# UVM_INFO ../10_tb/ahb_slv/ahb_slv_driver.sv(201) @ 1515000: uvm_test_top.env.ahb_agent.drv [ahb_slv_driver] [DRV][AHB][RSP] AHB_READ addr=0x120c data=0x5f5e5d5c resp=AHB_RESP_OKAY ready_delay=0
# UVM_INFO ../10_tb/ahb_slv/ahb_slv_monitor.sv(119) @ 1515000: uvm_test_top.env.ahb_agent.mon [ahb_slv_monitor] [MON][AHB][TR] AHB AHB_READ addr=0x120c trans=AHB_TRANS_SEQ burst=AHB_BURST_INCR size=4B mastlock=0 resp=AHB_RESP_OKAY waits=0 | data=0x5f5e5d5c
# UVM_INFO ../10_tb/env/scoreboard.sv(359) @ 1515000: uvm_test_top.env.scb [scoreboard] [SCB][AHB][PASS] AHB AHB_READ addr=0x120c trans=AHB_TRANS_SEQ burst=AHB_BURST_INCR size=4B mastlock=0 resp=AHB_RESP_OKAY waits=0 | data=0x5f5e5d5c | total=57
# UVM_INFO ../10_tb/axi4_mst/axi4_mst_driver.sv(326) @ 1515000: uvm_test_top.env.axi_agent.drv [axi4_mst_driver] [DRV][AXI][R] id=0x3 beat=3/5 data=0x5b5a5958 resp=AXI4_RESP_OKAY last=0
# UVM_INFO ../10_tb/axi4_mst/axi4_mst_monitor.sv(256) @ 1515000: uvm_test_top.env.axi_agent.mon [axi4_mst_monitor] [MON][AXI][R] id=0x3 beat=3/5 data=0x5b5a5958 resp=AXI4_RESP_OKAY last=0
# UVM_INFO ../10_tb/ahb_slv/ahb_slv_driver.sv(87) @ 1525000: uvm_test_top.env.ahb_agent.drv [ahb_slv_driver] [DRV][AHB][REQ] AHB_READ addr=0x1210 trans=AHB_TRANS_SEQ burst=AHB_BURST_INCR size=4B
# UVM_INFO ../10_tb/ahb_slv/ahb_slv_driver.sv(201) @ 1535000: uvm_test_top.env.ahb_agent.drv [ahb_slv_driver] [DRV][AHB][RSP] AHB_READ addr=0x1210 data=0x63626160 resp=AHB_RESP_OKAY ready_delay=0
# UVM_INFO ../10_tb/ahb_slv/ahb_slv_monitor.sv(119) @ 1535000: uvm_test_top.env.ahb_agent.mon [ahb_slv_monitor] [MON][AHB][TR] AHB AHB_READ addr=0x1210 trans=AHB_TRANS_SEQ burst=AHB_BURST_INCR size=4B mastlock=0 resp=AHB_RESP_OKAY waits=0 | data=0x63626160
# UVM_INFO ../10_tb/env/scoreboard.sv(359) @ 1535000: uvm_test_top.env.scb [scoreboard] [SCB][AHB][PASS] AHB AHB_READ addr=0x1210 trans=AHB_TRANS_SEQ burst=AHB_BURST_INCR size=4B mastlock=0 resp=AHB_RESP_OKAY waits=0 | data=0x63626160 | total=58
# UVM_INFO ../10_tb/axi4_mst/axi4_mst_driver.sv(326) @ 1535000: uvm_test_top.env.axi_agent.drv [axi4_mst_driver] [DRV][AXI][R] id=0x3 beat=4/5 data=0x5f5e5d5c resp=AXI4_RESP_OKAY last=0
# UVM_INFO ../10_tb/axi4_mst/axi4_mst_monitor.sv(256) @ 1535000: uvm_test_top.env.axi_agent.mon [axi4_mst_monitor] [MON][AXI][R] id=0x3 beat=4/5 data=0x5f5e5d5c resp=AXI4_RESP_OKAY last=0
# UVM_INFO ../10_tb/axi4_mst/axi4_mst_driver.sv(326) @ 1555000: uvm_test_top.env.axi_agent.drv [axi4_mst_driver] [DRV][AXI][R] id=0x3 beat=5/5 data=0x63626160 resp=AXI4_RESP_OKAY last=1
# UVM_INFO ../10_tb/axi4_mst/axi4_mst_monitor.sv(256) @ 1555000: uvm_test_top.env.axi_agent.mon [axi4_mst_monitor] [MON][AXI][R] id=0x3 beat=5/5 data=0x63626160 resp=AXI4_RESP_OKAY last=1
# UVM_INFO ../10_tb/axi4_mst/axi4_mst_monitor.sv(262) @ 1555000: uvm_test_top.env.axi_agent.mon [axi4_mst_monitor] [MON][AXI][RSP] READ id=0x3 beats=5
# UVM_INFO ../10_tb/env/scoreboard.sv(506) @ 1555000: uvm_test_top.env.scb [scoreboard] [SCB][AXI][PASS] AXI4 AXI4_READ id=0x3 addr=0x1200 burst=AXI4_BURST_INCR beats=5 size=4B lock=0 | read beats=5 | total=6
# UVM_INFO ../10_tb/seq/axi4_mst_seq/axi4_mst_unaligned_read_seq.sv(151) @ 1555000: uvm_test_top.env.axi_agent.sqr@@axi_seq [axi4_mst_unaligned_read_seq] [3] FIXED3_FULL_OFF0 ARADDR=0x1300 ARSIZE=4B beats=3 expected first HADDR=0x1300
# UVM_INFO ../10_tb/axi4_mst/axi4_mst_driver.sv(105) @ 1555000: uvm_test_top.env.axi_agent.drv [axi4_mst_driver] [DRV][AXI][REQ] AXI4 AXI4_WRITE id=0x4 addr=0x1300 burst=AXI4_BURST_INCR beats=16 size=4B lock=0 | outstanding=1
# UVM_INFO ../10_tb/axi4_mst/axi4_mst_driver.sv(178) @ 1595000: uvm_test_top.env.axi_agent.drv [axi4_mst_driver] [DRV][AXI][AW] id=0x4 addr=0x1300 burst=AXI4_BURST_INCR beats=16 size=4B
# UVM_INFO ../10_tb/axi4_mst/axi4_mst_driver.sv(204) @ 1595000: uvm_test_top.env.axi_agent.drv [axi4_mst_driver] [DRV][AXI][W] id=0x4 beat=1/16 data=0x63626160 strb=0xf last=0
# UVM_INFO ../10_tb/ahb_slv/ahb_slv_driver.sv(87) @ 1605000: uvm_test_top.env.ahb_agent.drv [ahb_slv_driver] [DRV][AHB][REQ] AHB_WRITE addr=0x1300 trans=AHB_TRANS_NONSEQ burst=AHB_BURST_INCR16 size=4B
# UVM_INFO ../10_tb/ahb_slv/ahb_slv_driver.sv(201) @ 1615000: uvm_test_top.env.ahb_agent.drv [ahb_slv_driver] [DRV][AHB][RSP] AHB_WRITE addr=0x1300 data=0x63626160 resp=AHB_RESP_OKAY ready_delay=0
# UVM_INFO ../10_tb/ahb_slv/ahb_slv_monitor.sv(119) @ 1615000: uvm_test_top.env.ahb_agent.mon [ahb_slv_monitor] [MON][AHB][TR] AHB AHB_WRITE addr=0x1300 trans=AHB_TRANS_NONSEQ burst=AHB_BURST_INCR16 size=4B mastlock=0 resp=AHB_RESP_OKAY waits=0 | data=0x63626160
# UVM_INFO ../10_tb/ahb_slv/ahb_slv_driver.sv(87) @ 1625000: uvm_test_top.env.ahb_agent.drv [ahb_slv_driver] [DRV][AHB][REQ] AHB_WRITE addr=0x1304 trans=AHB_TRANS_SEQ burst=AHB_BURST_INCR16 size=4B
# UVM_INFO ../10_tb/axi4_mst/axi4_mst_driver.sv(204) @ 1625000: uvm_test_top.env.axi_agent.drv [axi4_mst_driver] [DRV][AXI][W] id=0x4 beat=2/16 data=0x67666564 strb=0xf last=0
# UVM_INFO ../10_tb/ahb_slv/ahb_slv_driver.sv(201) @ 1635000: uvm_test_top.env.ahb_agent.drv [ahb_slv_driver] [DRV][AHB][RSP] AHB_WRITE addr=0x1304 data=0x67666564 resp=AHB_RESP_OKAY ready_delay=0
# UVM_INFO ../10_tb/ahb_slv/ahb_slv_monitor.sv(119) @ 1635000: uvm_test_top.env.ahb_agent.mon [ahb_slv_monitor] [MON][AHB][TR] AHB AHB_WRITE addr=0x1304 trans=AHB_TRANS_SEQ burst=AHB_BURST_INCR16 size=4B mastlock=0 resp=AHB_RESP_OKAY waits=0 | data=0x67666564
# UVM_INFO ../10_tb/ahb_slv/ahb_slv_driver.sv(87) @ 1645000: uvm_test_top.env.ahb_agent.drv [ahb_slv_driver] [DRV][AHB][REQ] AHB_WRITE addr=0x1308 trans=AHB_TRANS_SEQ burst=AHB_BURST_INCR16 size=4B
# UVM_INFO ../10_tb/axi4_mst/axi4_mst_driver.sv(204) @ 1645000: uvm_test_top.env.axi_agent.drv [axi4_mst_driver] [DRV][AXI][W] id=0x4 beat=3/16 data=0x6b6a6968 strb=0xf last=0
# UVM_INFO ../10_tb/ahb_slv/ahb_slv_driver.sv(201) @ 1655000: uvm_test_top.env.ahb_agent.drv [ahb_slv_driver] [DRV][AHB][RSP] AHB_WRITE addr=0x1308 data=0x6b6a6968 resp=AHB_RESP_OKAY ready_delay=0
# UVM_INFO ../10_tb/ahb_slv/ahb_slv_monitor.sv(119) @ 1655000: uvm_test_top.env.ahb_agent.mon [ahb_slv_monitor] [MON][AHB][TR] AHB AHB_WRITE addr=0x1308 trans=AHB_TRANS_SEQ burst=AHB_BURST_INCR16 size=4B mastlock=0 resp=AHB_RESP_OKAY waits=0 | data=0x6b6a6968
# UVM_INFO ../10_tb/ahb_slv/ahb_slv_driver.sv(87) @ 1665000: uvm_test_top.env.ahb_agent.drv [ahb_slv_driver] [DRV][AHB][REQ] AHB_WRITE addr=0x130c trans=AHB_TRANS_SEQ burst=AHB_BURST_INCR16 size=4B
# UVM_INFO ../10_tb/axi4_mst/axi4_mst_driver.sv(204) @ 1665000: uvm_test_top.env.axi_agent.drv [axi4_mst_driver] [DRV][AXI][W] id=0x4 beat=4/16 data=0x6f6e6d6c strb=0xf last=0
