# vsim -c -coverage -sv_seed 81341130 "+UVM_TESTNAME=bridge_random_stress_test" "+UVM_VERBOSITY=UVM_HIGH" -l report/logs/bridge_random_stress_test_tmo64_run_3_seed_81341130.log -wlf report/wlf/bridge_random_stress_test_tmo64_run_3_seed_81341130.wlf -do "coverage save -onexit report/coverage/bridge_random_stress_test_tmo64_run_3_seed_81341130.ucdb; run -all; quit -f" work.opt_bridge_tb_top_tmo64 
# Start time: 12:31:35 on Sep 29,2026
# //  Questa Sim-64
# //  Version 10.6b linux_x86_64 May 25 2017
# //
# //  Copyright 1991-2017 Mentor Graphics Corporation
# //  All Rights Reserved.
# //
# //  QuestaSim and its associated documentation contain trade
# //  secrets and commercial or financial information that are the property of
# //  Mentor Graphics Corporation and are privileged, confidential,
# //  and exempt from disclosure under the Freedom of Information Act,
# //  5 U.S.C. Section 552. Furthermore, this information
# //  is prohibited from disclosure under the Trade Secrets Act,
# //  18 U.S.C. Section 1905.
# //
# Loading sv_std.std
# Loading work.axi4_if(fast)
# Loading work.ahb_if(fast)
# Loading mtiUvm.uvm_pkg
# Loading work.bridge_vip_pkg(fast)
# Loading work.bridge_seq_pkg(fast)
# Loading work.bridge_test_pkg(fast)
# Loading work.bridge_tb_top(fast)
# Loading work.axi4_if(fast)
# Loading work.ahb_if(fast)
# Loading work.axi_ahblite_bridge(fast)
# Loading work.ahb_skid_buf(fast)
# Loading work.axi_slv_if(fast)
# Loading work.ahb_mstr_if(fast)
# Loading work.time_out(fast)
# Loading work.counter_f(fast)
# Loading work.axi4_sva(fast)
# Loading work.ahb_sva(fast)
# Loading mtiUvm.questa_uvm_pkg(fast)
# Loading /cadtools/mentor/Questa_10.6b/questasim/uvm-1.1d/linux_x86_64/uvm_dpi.so
# coverage save -onexit report/coverage/bridge_random_stress_test_tmo64_run_3_seed_81341130.ucdb
#  run -all
# ----------------------------------------------------------------
# UVM-1.1d
# (C) 2007-2013 Mentor Graphics Corporation
# (C) 2007-2013 Cadence Design Systems, Inc.
# (C) 2006-2013 Synopsys, Inc.
# (C) 2011-2013 Cypress Semiconductor Corp.
# ----------------------------------------------------------------
# 
#   ***********       IMPORTANT RELEASE NOTES         ************
# 
#   You are using a version of the UVM library that has been compiled
#   with `UVM_NO_DEPRECATED undefined.
#   See http://www.eda.org/svdb/view.php?id=3313 for more details.
# 
#   You are using a version of the UVM library that has been compiled
#   with `UVM_OBJECT_MUST_HAVE_CONSTRUCTOR undefined.
#   See http://www.eda.org/svdb/view.php?id=3770 for more details.
# 
#       (Specify +UVM_NO_RELNOTES to turn off this notice)
# 
# UVM_INFO verilog_src/questa_uvm_pkg-1.2/src/questa_uvm_pkg.sv(215) @ 0: reporter [Questa UVM] QUESTA_UVM-1.2.3
# UVM_INFO verilog_src/questa_uvm_pkg-1.2/src/questa_uvm_pkg.sv(217) @ 0: reporter [Questa UVM]  questa_uvm::init(+struct)
# UVM_INFO @ 0: reporter [RNTST] Running test bridge_random_stress_test...
# UVM_INFO @ 0: reporter [UVMTOP] UVM testbench topology:
# -------------------------------------------------------------------------
# Name                       Type                               Size  Value
# -------------------------------------------------------------------------
# uvm_test_top               bridge_random_stress_test          -     @490 
#   env                      vip_env                            -     @508 
#     ahb_agent              ahb_slv_agent                      -     @529 
#       ap                   uvm_analysis_port                  -     @667 
#       cov                  ahb_slv_coverage                   -     @693 
#         analysis_imp       uvm_analysis_imp                   -     @700 
#         trans_export       uvm_analysis_imp_ahb_trans         -     @841 
#       drv                  ahb_slv_driver                     -     @818 
#         rsp_port           uvm_analysis_port                  -     @833 
#         seq_item_port      uvm_seq_item_pull_port             -     @825 
#       mon                  ahb_slv_monitor                    -     @686 
#         ap                 uvm_analysis_port                  -     @850 
#         trans_ap           uvm_analysis_port                  -     @858 
#       sqr                  ahb_slv_sequencer                  -     @709 
#         rsp_export         uvm_analysis_export                -     @716 
#         seq_item_export    uvm_seq_item_pull_imp              -     @810 
#         arbitration_queue  array                              0     -    
#         lock_queue         array                              0     -    
#         num_last_reqs      integral                           32    'd1  
#         num_last_rsps      integral                           32    'd1  
#       trans_ap             uvm_analysis_port                  -     @675 
#     axi_agent              axi4_mst_agent                     -     @522 
#       ap                   uvm_analysis_port                  -     @881 
#       cov                  axi4_mst_coverage                  -     @899 
#         analysis_imp       uvm_analysis_imp                   -     @906 
#       drv                  axi4_mst_driver                    -     @1024
#         rsp_port           uvm_analysis_port                  -     @1039
#         seq_item_port      uvm_seq_item_pull_port             -     @1031
#       mon                  axi4_mst_monitor                   -     @892 
#         ap                 uvm_analysis_port                  -     @1056
#         req_ap             uvm_analysis_port                  -     @1048
#       req_ap               uvm_analysis_port                  -     @873 
#       sqr                  axi4_mst_sequencer                 -     @915 
#         rsp_export         uvm_analysis_export                -     @922 
#         seq_item_export    uvm_seq_item_pull_imp              -     @1016
#         arbitration_queue  array                              0     -    
#         lock_queue         array                              0     -    
#         num_last_reqs      integral                           32    'd1  
#         num_last_rsps      integral                           32    'd1  
#     cov                    e2e_cov                            -     @659 
#       actual_ahb_export    uvm_analysis_imp_e2e_actual_ahb    -     @1086
#       axi_req_export       uvm_analysis_imp_e2e_axi_req       -     @1070
#       axi_rsp_export       uvm_analysis_imp_e2e_axi_rsp       -     @1094
#       expected_ahb_export  uvm_analysis_imp_e2e_expected_ahb  -     @1078
#     pred                   predictor                          -     @645 
#       axi_request_export   uvm_analysis_imp_axi_request       -     @1102
#       expected_ahb_ap      uvm_analysis_port                  -     @1110
#       expected_axi_ap      uvm_analysis_port                  -     @1118
#     scb                    scoreboard                         -     @652 
#       actual_ahb_export    uvm_analysis_imp_actual_ahb        -     @1134
#       actual_axi_export    uvm_analysis_imp_actual_axi        -     @1150
#       expected_ahb_export  uvm_analysis_imp_expected_ahb      -     @1126
#       expected_axi_export  uvm_analysis_imp_expected_axi      -     @1142
#     vseqr                  virtual_sequencer                  -     @536 
#       rsp_export           uvm_analysis_export                -     @543 
#       seq_item_export      uvm_seq_item_pull_imp              -     @637 
#       arbitration_queue    array                              0     -    
#       lock_queue           array                              0     -    
#       num_last_reqs        integral                           32    'd1  
#       num_last_rsps        integral                           32    'd1  
# -------------------------------------------------------------------------
# 
# UVM_INFO verilog_src/questa_uvm_pkg-1.2/src/questa_uvm_pkg.sv(277) @ 0: reporter [Questa UVM] End Of Elaboration
# UVM_INFO ../10_tb/test/bridge_random_stress_test.sv(98) @ 0: uvm_test_top [bridge_random_stress_test] Built configuration: data=32 narrow=0 C_DPHASE_TIMEOUT=64
# UVM_INFO ../10_tb/bridge_tb_top.sv(47) @ 95000: reporter [BRIDGE_TB_TOP] Power-on reset released
# UVM_INFO ../10_tb/seq/axi4_mst_seq/axi4_mst_random_stress_seq.sv(181) @ 95000: uvm_test_top.env.axi_agent.sqr@@axi_seq [axi4_mst_random_stress_seq] Random stress: 64 requests, window 0x4000..0x7fff, error=12% max_wait=4 narrow=0 C_DPHASE_TIMEOUT=64
# UVM_INFO ../10_tb/axi4_mst/axi4_mst_driver.sv(105) @ 95000: uvm_test_top.env.axi_agent.drv [axi4_mst_driver] [DRV][AXI][REQ] AXI4 AXI4_READ id=0xa addr=0x6854 burst=AXI4_BURST_INCR beats=4 size=4B lock=0 | outstanding=1
# UVM_INFO ../10_tb/axi4_mst/axi4_mst_driver.sv(225) @ 125000: uvm_test_top.env.axi_agent.drv [axi4_mst_driver] [DRV][AXI][AR] id=0xa addr=0x6854 burst=AXI4_BURST_INCR beats=4 size=4B
# UVM_INFO ../10_tb/axi4_mst/axi4_mst_monitor.sv(211) @ 125000: uvm_test_top.env.axi_agent.mon [axi4_mst_monitor] [MON][AXI][REQ] AXI4 AXI4_READ id=0xa addr=0x6854 burst=AXI4_BURST_INCR beats=4 size=4B lock=0
# UVM_INFO ../10_tb/env/predictor.sv(75) @ 125000: uvm_test_top.env.pred [predictor] [PRED][AXI][IN] AXI4 AXI4_READ id=0xa addr=0x6854 burst=AXI4_BURST_INCR beats=4 size=4B lock=0 | queued=1
# UVM_INFO ../10_tb/env/predictor.sv(138) @ 125000: uvm_test_top.env.pred [predictor] [PRED][MAP] AXI4 AXI4_READ id=0xa addr=0x6854 burst=AXI4_BURST_INCR beats=4 size=4B lock=0 -> AHB burst=AHB_BURST_INCR4 size=4B crosses_1kb=0
# UVM_INFO ../10_tb/env/predictor.sv(175) @ 125000: uvm_test_top.env.pred [predictor] [PRED][AHB] beat=1/4 | AHB AHB_READ addr=0x6854 trans=AHB_TRANS_NONSEQ burst=AHB_BURST_INCR4 size=4B mastlock=0 resp=AHB_RESP_OKAY waits=0
# UVM_INFO ../10_tb/env/predictor.sv(175) @ 125000: uvm_test_top.env.pred [predictor] [PRED][AHB] beat=2/4 | AHB AHB_READ addr=0x6858 trans=AHB_TRANS_SEQ burst=AHB_BURST_INCR4 size=4B mastlock=0 resp=AHB_RESP_OKAY waits=0
# UVM_INFO ../10_tb/env/predictor.sv(175) @ 125000: uvm_test_top.env.pred [predictor] [PRED][AHB] beat=3/4 | AHB AHB_READ addr=0x685c trans=AHB_TRANS_SEQ burst=AHB_BURST_INCR4 size=4B mastlock=0 resp=AHB_RESP_OKAY waits=0
# UVM_INFO ../10_tb/env/predictor.sv(175) @ 125000: uvm_test_top.env.pred [predictor] [PRED][AHB] beat=4/4 | AHB AHB_READ addr=0x6860 trans=AHB_TRANS_SEQ burst=AHB_BURST_INCR4 size=4B mastlock=0 resp=AHB_RESP_OKAY waits=0
# UVM_INFO ../10_tb/ahb_slv/ahb_slv_driver.sv(87) @ 135000: uvm_test_top.env.ahb_agent.drv [ahb_slv_driver] [DRV][AHB][REQ] AHB_READ addr=0x6854 trans=AHB_TRANS_NONSEQ burst=AHB_BURST_INCR4 size=4B
# UVM_INFO ../10_tb/seq/ahb_slv_seq/ahb_slv_response_mapping_seq.sv(54) @ 135000: uvm_test_top.env.ahb_agent.sqr@@ahb_seq [ahb_slv_response_mapping_seq] [RSP][AHB] AHB_READ addr=0x6854 resp=AHB_RESP_OKAY waits=1
# UVM_INFO ../10_tb/ahb_slv/ahb_slv_driver.sv(201) @ 155000: uvm_test_top.env.ahb_agent.drv [ahb_slv_driver] [DRV][AHB][RSP] AHB_READ addr=0x6854 data=0xffff97ab resp=AHB_RESP_OKAY ready_delay=1
# UVM_INFO ../10_tb/ahb_slv/ahb_slv_monitor.sv(119) @ 155000: uvm_test_top.env.ahb_agent.mon [ahb_slv_monitor] [MON][AHB][TR] AHB AHB_READ addr=0x6854 trans=AHB_TRANS_NONSEQ burst=AHB_BURST_INCR4 size=4B mastlock=0 resp=AHB_RESP_OKAY waits=1 | data=0xffff97ab
# UVM_INFO ../10_tb/env/scoreboard.sv(359) @ 155000: uvm_test_top.env.scb [scoreboard] [SCB][AHB][PASS] AHB AHB_READ addr=0x6854 trans=AHB_TRANS_NONSEQ burst=AHB_BURST_INCR4 size=4B mastlock=0 resp=AHB_RESP_OKAY waits=1 | data=0xffff97ab | total=1
# UVM_INFO ../10_tb/ahb_slv/ahb_slv_driver.sv(87) @ 165000: uvm_test_top.env.ahb_agent.drv [ahb_slv_driver] [DRV][AHB][REQ] AHB_READ addr=0x6858 trans=AHB_TRANS_SEQ burst=AHB_BURST_INCR4 size=4B
# UVM_INFO ../10_tb/seq/ahb_slv_seq/ahb_slv_response_mapping_seq.sv(54) @ 165000: uvm_test_top.env.ahb_agent.sqr@@ahb_seq [ahb_slv_response_mapping_seq] [RSP][AHB] AHB_READ addr=0x6858 resp=AHB_RESP_OKAY waits=0
# UVM_INFO ../10_tb/ahb_slv/ahb_slv_driver.sv(201) @ 175000: uvm_test_top.env.ahb_agent.drv [ahb_slv_driver] [DRV][AHB][RSP] AHB_READ addr=0x6858 data=0xffff97a7 resp=AHB_RESP_OKAY ready_delay=0
# UVM_INFO ../10_tb/ahb_slv/ahb_slv_monitor.sv(119) @ 175000: uvm_test_top.env.ahb_agent.mon [ahb_slv_monitor] [MON][AHB][TR] AHB AHB_READ addr=0x6858 trans=AHB_TRANS_SEQ burst=AHB_BURST_INCR4 size=4B mastlock=0 resp=AHB_RESP_OKAY waits=0 | data=0xffff97a7
# UVM_INFO ../10_tb/env/scoreboard.sv(359) @ 175000: uvm_test_top.env.scb [scoreboard] [SCB][AHB][PASS] AHB AHB_READ addr=0x6858 trans=AHB_TRANS_SEQ burst=AHB_BURST_INCR4 size=4B mastlock=0 resp=AHB_RESP_OKAY waits=0 | data=0xffff97a7 | total=2
# UVM_INFO ../10_tb/ahb_slv/ahb_slv_driver.sv(87) @ 185000: uvm_test_top.env.ahb_agent.drv [ahb_slv_driver] [DRV][AHB][REQ] AHB_READ addr=0x685c trans=AHB_TRANS_SEQ burst=AHB_BURST_INCR4 size=4B
# UVM_INFO ../10_tb/seq/ahb_slv_seq/ahb_slv_response_mapping_seq.sv(54) @ 185000: uvm_test_top.env.ahb_agent.sqr@@ahb_seq [ahb_slv_response_mapping_seq] [RSP][AHB] AHB_READ addr=0x685c resp=AHB_RESP_OKAY waits=0
# UVM_INFO ../10_tb/ahb_slv/ahb_slv_driver.sv(201) @ 195000: uvm_test_top.env.ahb_agent.drv [ahb_slv_driver] [DRV][AHB][RSP] AHB_READ addr=0x685c data=0xffff97a3 resp=AHB_RESP_OKAY ready_delay=0
# UVM_INFO ../10_tb/ahb_slv/ahb_slv_monitor.sv(119) @ 195000: uvm_test_top.env.ahb_agent.mon [ahb_slv_monitor] [MON][AHB][TR] AHB AHB_READ addr=0x685c trans=AHB_TRANS_SEQ burst=AHB_BURST_INCR4 size=4B mastlock=0 resp=AHB_RESP_OKAY waits=0 | data=0xffff97a3
# UVM_INFO ../10_tb/env/scoreboard.sv(359) @ 195000: uvm_test_top.env.scb [scoreboard] [SCB][AHB][PASS] AHB AHB_READ addr=0x685c trans=AHB_TRANS_SEQ burst=AHB_BURST_INCR4 size=4B mastlock=0 resp=AHB_RESP_OKAY waits=0 | data=0xffff97a3 | total=3
# UVM_INFO ../10_tb/axi4_mst/axi4_mst_driver.sv(290) @ 195000: uvm_test_top.env.axi_agent.drv [axi4_mst_driver] [DRV][AXI][R] id=0xa beat=1/4 data=0xffff97ab resp=AXI4_RESP_OKAY last=0
# UVM_INFO ../10_tb/axi4_mst/axi4_mst_monitor.sv(256) @ 195000: uvm_test_top.env.axi_agent.mon [axi4_mst_monitor] [MON][AXI][R] id=0xa beat=1/4 data=0xffff97ab resp=AXI4_RESP_OKAY last=0
# UVM_INFO ../10_tb/ahb_slv/ahb_slv_driver.sv(87) @ 215000: uvm_test_top.env.ahb_agent.drv [ahb_slv_driver] [DRV][AHB][REQ] AHB_READ addr=0x6860 trans=AHB_TRANS_SEQ burst=AHB_BURST_INCR4 size=4B
# UVM_INFO ../10_tb/axi4_mst/axi4_mst_driver.sv(290) @ 215000: uvm_test_top.env.axi_agent.drv [axi4_mst_driver] [DRV][AXI][R] id=0xa beat=2/4 data=0xffff97a7 resp=AXI4_RESP_OKAY last=0
# UVM_INFO ../10_tb/axi4_mst/axi4_mst_monitor.sv(256) @ 215000: uvm_test_top.env.axi_agent.mon [axi4_mst_monitor] [MON][AXI][R] id=0xa beat=2/4 data=0xffff97a7 resp=AXI4_RESP_OKAY last=0
# UVM_INFO ../10_tb/seq/ahb_slv_seq/ahb_slv_response_mapping_seq.sv(54) @ 215000: uvm_test_top.env.ahb_agent.sqr@@ahb_seq [ahb_slv_response_mapping_seq] [RSP][AHB] AHB_READ addr=0x6860 resp=AHB_RESP_OKAY waits=4
# UVM_INFO ../10_tb/axi4_mst/axi4_mst_driver.sv(290) @ 255000: uvm_test_top.env.axi_agent.drv [axi4_mst_driver] [DRV][AXI][R] id=0xa beat=3/4 data=0xffff97a3 resp=AXI4_RESP_OKAY last=0
# UVM_INFO ../10_tb/axi4_mst/axi4_mst_monitor.sv(256) @ 255000: uvm_test_top.env.axi_agent.mon [axi4_mst_monitor] [MON][AXI][R] id=0xa beat=3/4 data=0xffff97a3 resp=AXI4_RESP_OKAY last=0
# UVM_INFO ../10_tb/ahb_slv/ahb_slv_driver.sv(201) @ 265000: uvm_test_top.env.ahb_agent.drv [ahb_slv_driver] [DRV][AHB][RSP] AHB_READ addr=0x6860 data=0xffff979f resp=AHB_RESP_OKAY ready_delay=4
# UVM_INFO ../10_tb/ahb_slv/ahb_slv_monitor.sv(119) @ 265000: uvm_test_top.env.ahb_agent.mon [ahb_slv_monitor] [MON][AHB][TR] AHB AHB_READ addr=0x6860 trans=AHB_TRANS_SEQ burst=AHB_BURST_INCR4 size=4B mastlock=0 resp=AHB_RESP_OKAY waits=4 | data=0xffff979f
# UVM_INFO ../10_tb/env/scoreboard.sv(359) @ 265000: uvm_test_top.env.scb [scoreboard] [SCB][AHB][PASS] AHB AHB_READ addr=0x6860 trans=AHB_TRANS_SEQ burst=AHB_BURST_INCR4 size=4B mastlock=0 resp=AHB_RESP_OKAY waits=4 | data=0xffff979f | total=4
# UVM_INFO ../10_tb/axi4_mst/axi4_mst_driver.sv(290) @ 295000: uvm_test_top.env.axi_agent.drv [axi4_mst_driver] [DRV][AXI][R] id=0xa beat=4/4 data=0xffff979f resp=AXI4_RESP_OKAY last=1
# UVM_INFO ../10_tb/axi4_mst/axi4_mst_monitor.sv(256) @ 295000: uvm_test_top.env.axi_agent.mon [axi4_mst_monitor] [MON][AXI][R] id=0xa beat=4/4 data=0xffff979f resp=AXI4_RESP_OKAY last=1
# UVM_INFO ../10_tb/axi4_mst/axi4_mst_monitor.sv(262) @ 295000: uvm_test_top.env.axi_agent.mon [axi4_mst_monitor] [MON][AXI][RSP] READ id=0xa beats=4
# UVM_INFO ../10_tb/env/scoreboard.sv(506) @ 295000: uvm_test_top.env.scb [scoreboard] [SCB][AXI][PASS] AXI4 AXI4_READ id=0xa addr=0x6854 burst=AXI4_BURST_INCR beats=4 size=4B lock=0 | read beats=4 | total=1
# UVM_INFO ../10_tb/axi4_mst/axi4_mst_driver.sv(105) @ 295000: uvm_test_top.env.axi_agent.drv [axi4_mst_driver] [DRV][AXI][REQ] AXI4 AXI4_WRITE id=0x8 addr=0x50b8 burst=AXI4_BURST_INCR beats=11 size=4B lock=0 | outstanding=1
# UVM_INFO ../10_tb/axi4_mst/axi4_mst_driver.sv(198) @ 335000: uvm_test_top.env.axi_agent.drv [axi4_mst_driver] [DRV][AXI][W] id=0x8 beat=1/11 data=0x302d2a27 strb=0xf last=0
# UVM_INFO ../10_tb/axi4_mst/axi4_mst_driver.sv(178) @ 335000: uvm_test_top.env.axi_agent.drv [axi4_mst_driver] [DRV][AXI][AW] id=0x8 addr=0x50b8 burst=AXI4_BURST_INCR beats=11 size=4B
# UVM_INFO ../10_tb/ahb_slv/ahb_slv_driver.sv(87) @ 345000: uvm_test_top.env.ahb_agent.drv [ahb_slv_driver] [DRV][AHB][REQ] AHB_WRITE addr=0x50b8 trans=AHB_TRANS_NONSEQ burst=AHB_BURST_INCR size=4B
# UVM_INFO ../10_tb/seq/ahb_slv_seq/ahb_slv_response_mapping_seq.sv(54) @ 345000: uvm_test_top.env.ahb_agent.sqr@@ahb_seq [ahb_slv_response_mapping_seq] [RSP][AHB] AHB_WRITE addr=0x50b8 resp=AHB_RESP_OKAY waits=0
# UVM_INFO ../10_tb/ahb_slv/ahb_slv_driver.sv(201) @ 355000: uvm_test_top.env.ahb_agent.drv [ahb_slv_driver] [DRV][AHB][RSP] AHB_WRITE addr=0x50b8 data=0x302d2a27 resp=AHB_RESP_OKAY ready_delay=0
# UVM_INFO ../10_tb/ahb_slv/ahb_slv_monitor.sv(119) @ 355000: uvm_test_top.env.ahb_agent.mon [ahb_slv_monitor] [MON][AHB][TR] AHB AHB_WRITE addr=0x50b8 trans=AHB_TRANS_NONSEQ burst=AHB_BURST_INCR size=4B mastlock=0 resp=AHB_RESP_OKAY waits=0 | data=0x302d2a27
# UVM_INFO ../10_tb/ahb_slv/ahb_slv_driver.sv(87) @ 365000: uvm_test_top.env.ahb_agent.drv [ahb_slv_driver] [DRV][AHB][REQ] AHB_WRITE addr=0x50bc trans=AHB_TRANS_SEQ burst=AHB_BURST_INCR size=4B
# UVM_INFO ../10_tb/axi4_mst/axi4_mst_driver.sv(198) @ 365000: uvm_test_top.env.axi_agent.drv [axi4_mst_driver] [DRV][AXI][W] id=0x8 beat=2/11 data=0x35322f2c strb=0xf last=0
# UVM_INFO ../10_tb/seq/ahb_slv_seq/ahb_slv_response_mapping_seq.sv(54) @ 365000: uvm_test_top.env.ahb_agent.sqr@@ahb_seq [ahb_slv_response_mapping_seq] [RSP][AHB] AHB_WRITE addr=0x50bc resp=AHB_RESP_OKAY waits=0
# UVM_INFO ../10_tb/ahb_slv/ahb_slv_driver.sv(201) @ 375000: uvm_test_top.env.ahb_agent.drv [ahb_slv_driver] [DRV][AHB][RSP] AHB_WRITE addr=0x50bc data=0x35322f2c resp=AHB_RESP_OKAY ready_delay=0
# UVM_INFO ../10_tb/ahb_slv/ahb_slv_monitor.sv(119) @ 375000: uvm_test_top.env.ahb_agent.mon [ahb_slv_monitor] [MON][AHB][TR] AHB AHB_WRITE addr=0x50bc trans=AHB_TRANS_SEQ burst=AHB_BURST_INCR size=4B mastlock=0 resp=AHB_RESP_OKAY waits=0 | data=0x35322f2c
# UVM_INFO ../10_tb/ahb_slv/ahb_slv_driver.sv(87) @ 385000: uvm_test_top.env.ahb_agent.drv [ahb_slv_driver] [DRV][AHB][REQ] AHB_WRITE addr=0x50c0 trans=AHB_TRANS_SEQ burst=AHB_BURST_INCR size=4B
# UVM_INFO ../10_tb/axi4_mst/axi4_mst_driver.sv(198) @ 385000: uvm_test_top.env.axi_agent.drv [axi4_mst_driver] [DRV][AXI][W] id=0x8 beat=3/11 data=0x3a373431 strb=0xf last=0
# UVM_INFO ../10_tb/seq/ahb_slv_seq/ahb_slv_response_mapping_seq.sv(54) @ 385000: uvm_test_top.env.ahb_agent.sqr@@ahb_seq [ahb_slv_response_mapping_seq] [RSP][AHB] AHB_WRITE addr=0x50c0 resp=AHB_RESP_OKAY waits=4
# UVM_INFO ../10_tb/ahb_slv/ahb_slv_driver.sv(201) @ 435000: uvm_test_top.env.ahb_agent.drv [ahb_slv_driver] [DRV][AHB][RSP] AHB_WRITE addr=0x50c0 data=0x3a373431 resp=AHB_RESP_OKAY ready_delay=4
# UVM_INFO ../10_tb/ahb_slv/ahb_slv_monitor.sv(119) @ 435000: uvm_test_top.env.ahb_agent.mon [ahb_slv_monitor] [MON][AHB][TR] AHB AHB_WRITE addr=0x50c0 trans=AHB_TRANS_SEQ burst=AHB_BURST_INCR size=4B mastlock=0 resp=AHB_RESP_OKAY waits=4 | data=0x3a373431
# UVM_INFO ../10_tb/ahb_slv/ahb_slv_driver.sv(87) @ 445000: uvm_test_top.env.ahb_agent.drv [ahb_slv_driver] [DRV][AHB][REQ] AHB_WRITE addr=0x50c4 trans=AHB_TRANS_SEQ burst=AHB_BURST_INCR size=4B
# UVM_INFO ../10_tb/axi4_mst/axi4_mst_driver.sv(198) @ 445000: uvm_test_top.env.axi_agent.drv [axi4_mst_driver] [DRV][AXI][W] id=0x8 beat=4/11 data=0x3f3c3936 strb=0xf last=0
# UVM_INFO ../10_tb/seq/ahb_slv_seq/ahb_slv_response_mapping_seq.sv(54) @ 445000: uvm_test_top.env.ahb_agent.sqr@@ahb_seq [ahb_slv_response_mapping_seq] [RSP][AHB] AHB_WRITE addr=0x50c4 resp=AHB_RESP_OKAY waits=4
# UVM_INFO ../10_tb/ahb_slv/ahb_slv_driver.sv(201) @ 495000: uvm_test_top.env.ahb_agent.drv [ahb_slv_driver] [DRV][AHB][RSP] AHB_WRITE addr=0x50c4 data=0x3f3c3936 resp=AHB_RESP_OKAY ready_delay=4
# UVM_INFO ../10_tb/ahb_slv/ahb_slv_monitor.sv(119) @ 495000: uvm_test_top.env.ahb_agent.mon [ahb_slv_monitor] [MON][AHB][TR] AHB AHB_WRITE addr=0x50c4 trans=AHB_TRANS_SEQ burst=AHB_BURST_INCR size=4B mastlock=0 resp=AHB_RESP_OKAY waits=4 | data=0x3f3c3936
# UVM_INFO ../10_tb/ahb_slv/ahb_slv_driver.sv(87) @ 505000: uvm_test_top.env.ahb_agent.drv [ahb_slv_driver] [DRV][AHB][REQ] AHB_WRITE addr=0x50c8 trans=AHB_TRANS_SEQ burst=AHB_BURST_INCR size=4B
# UVM_INFO ../10_tb/axi4_mst/axi4_mst_driver.sv(198) @ 505000: uvm_test_top.env.axi_agent.drv [axi4_mst_driver] [DRV][AXI][W] id=0x8 beat=5/11 data=0x44413e3b strb=0xf last=0
# UVM_INFO ../10_tb/seq/ahb_slv_seq/ahb_slv_response_mapping_seq.sv(54) @ 505000: uvm_test_top.env.ahb_agent.sqr@@ahb_seq [ahb_slv_response_mapping_seq] [RSP][AHB] AHB_WRITE addr=0x50c8 resp=AHB_RESP_OKAY waits=4
# UVM_INFO ../10_tb/ahb_slv/ahb_slv_driver.sv(201) @ 555000: uvm_test_top.env.ahb_agent.drv [ahb_slv_driver] [DRV][AHB][RSP] AHB_WRITE addr=0x50c8 data=0x44413e3b resp=AHB_RESP_OKAY ready_delay=4
# UVM_INFO ../10_tb/ahb_slv/ahb_slv_monitor.sv(119) @ 555000: uvm_test_top.env.ahb_agent.mon [ahb_slv_monitor] [MON][AHB][TR] AHB AHB_WRITE addr=0x50c8 trans=AHB_TRANS_SEQ burst=AHB_BURST_INCR size=4B mastlock=0 resp=AHB_RESP_OKAY waits=4 | data=0x44413e3b
# UVM_INFO ../10_tb/ahb_slv/ahb_slv_driver.sv(87) @ 565000: uvm_test_top.env.ahb_agent.drv [ahb_slv_driver] [DRV][AHB][REQ] AHB_WRITE addr=0x50cc trans=AHB_TRANS_SEQ burst=AHB_BURST_INCR size=4B
# UVM_INFO ../10_tb/axi4_mst/axi4_mst_driver.sv(198) @ 565000: uvm_test_top.env.axi_agent.drv [axi4_mst_driver] [DRV][AXI][W] id=0x8 beat=6/11 data=0x49464340 strb=0xf last=0
# UVM_INFO ../10_tb/seq/ahb_slv_seq/ahb_slv_response_mapping_seq.sv(54) @ 565000: uvm_test_top.env.ahb_agent.sqr@@ahb_seq [ahb_slv_response_mapping_seq] [RSP][AHB] AHB_WRITE addr=0x50cc resp=AHB_RESP_OKAY waits=0
# UVM_INFO ../10_tb/ahb_slv/ahb_slv_driver.sv(201) @ 575000: uvm_test_top.env.ahb_agent.drv [ahb_slv_driver] [DRV][AHB][RSP] AHB_WRITE addr=0x50cc data=0x49464340 resp=AHB_RESP_OKAY ready_delay=0
# UVM_INFO ../10_tb/ahb_slv/ahb_slv_monitor.sv(119) @ 575000: uvm_test_top.env.ahb_agent.mon [ahb_slv_monitor] [MON][AHB][TR] AHB AHB_WRITE addr=0x50cc trans=AHB_TRANS_SEQ burst=AHB_BURST_INCR size=4B mastlock=0 resp=AHB_RESP_OKAY waits=0 | data=0x49464340
# UVM_INFO ../10_tb/ahb_slv/ahb_slv_driver.sv(87) @ 585000: uvm_test_top.env.ahb_agent.drv [ahb_slv_driver] [DRV][AHB][REQ] AHB_WRITE addr=0x50d0 trans=AHB_TRANS_SEQ burst=AHB_BURST_INCR size=4B
# UVM_INFO ../10_tb/axi4_mst/axi4_mst_driver.sv(198) @ 585000: uvm_test_top.env.axi_agent.drv [axi4_mst_driver] [DRV][AXI][W] id=0x8 beat=7/11 data=0x4e4b4845 strb=0xf last=0
# UVM_INFO ../10_tb/seq/ahb_slv_seq/ahb_slv_response_mapping_seq.sv(54) @ 585000: uvm_test_top.env.ahb_agent.sqr@@ahb_seq [ahb_slv_response_mapping_seq] [RSP][AHB] AHB_WRITE addr=0x50d0 resp=AHB_RESP_OKAY waits=2
# UVM_INFO ../10_tb/ahb_slv/ahb_slv_driver.sv(201) @ 615000: uvm_test_top.env.ahb_agent.drv [ahb_slv_driver] [DRV][AHB][RSP] AHB_WRITE addr=0x50d0 data=0x4e4b4845 resp=AHB_RESP_OKAY ready_delay=2
# UVM_INFO ../10_tb/ahb_slv/ahb_slv_monitor.sv(119) @ 615000: uvm_test_top.env.ahb_agent.mon [ahb_slv_monitor] [MON][AHB][TR] AHB AHB_WRITE addr=0x50d0 trans=AHB_TRANS_SEQ burst=AHB_BURST_INCR size=4B mastlock=0 resp=AHB_RESP_OKAY waits=2 | data=0x4e4b4845
# UVM_INFO ../10_tb/ahb_slv/ahb_slv_driver.sv(87) @ 625000: uvm_test_top.env.ahb_agent.drv [ahb_slv_driver] [DRV][AHB][REQ] AHB_WRITE addr=0x50d4 trans=AHB_TRANS_SEQ burst=AHB_BURST_INCR size=4B
# UVM_INFO ../10_tb/axi4_mst/axi4_mst_driver.sv(198) @ 625000: uvm_test_top.env.axi_agent.drv [axi4_mst_driver] [DRV][AXI][W] id=0x8 beat=8/11 data=0x53504d4a strb=0xf last=0
# UVM_INFO ../10_tb/seq/ahb_slv_seq/ahb_slv_response_mapping_seq.sv(54) @ 625000: uvm_test_top.env.ahb_agent.sqr@@ahb_seq [ahb_slv_response_mapping_seq] [RSP][AHB] AHB_WRITE addr=0x50d4 resp=AHB_RESP_OKAY waits=0
# UVM_INFO ../10_tb/ahb_slv/ahb_slv_driver.sv(201) @ 635000: uvm_test_top.env.ahb_agent.drv [ahb_slv_driver] [DRV][AHB][RSP] AHB_WRITE addr=0x50d4 data=0x53504d4a resp=AHB_RESP_OKAY ready_delay=0
# UVM_INFO ../10_tb/ahb_slv/ahb_slv_monitor.sv(119) @ 635000: uvm_test_top.env.ahb_agent.mon [ahb_slv_monitor] [MON][AHB][TR] AHB AHB_WRITE addr=0x50d4 trans=AHB_TRANS_SEQ burst=AHB_BURST_INCR size=4B mastlock=0 resp=AHB_RESP_OKAY waits=0 | data=0x53504d4a
# UVM_INFO ../10_tb/ahb_slv/ahb_slv_driver.sv(87) @ 645000: uvm_test_top.env.ahb_agent.drv [ahb_slv_driver] [DRV][AHB][REQ] AHB_WRITE addr=0x50d8 trans=AHB_TRANS_SEQ burst=AHB_BURST_INCR size=4B
# UVM_INFO ../10_tb/axi4_mst/axi4_mst_driver.sv(198) @ 645000: uvm_test_top.env.axi_agent.drv [axi4_mst_driver] [DRV][AXI][W] id=0x8 beat=9/11 data=0x5855524f strb=0xf last=0
# UVM_INFO ../10_tb/seq/ahb_slv_seq/ahb_slv_response_mapping_seq.sv(54) @ 645000: uvm_test_top.env.ahb_agent.sqr@@ahb_seq [ahb_slv_response_mapping_seq] [RSP][AHB] AHB_WRITE addr=0x50d8 resp=AHB_RESP_OKAY waits=4
# UVM_INFO ../10_tb/ahb_slv/ahb_slv_driver.sv(201) @ 695000: uvm_test_top.env.ahb_agent.drv [ahb_slv_driver] [DRV][AHB][RSP] AHB_WRITE addr=0x50d8 data=0x5855524f resp=AHB_RESP_OKAY ready_delay=4
# UVM_INFO ../10_tb/ahb_slv/ahb_slv_monitor.sv(119) @ 695000: uvm_test_top.env.ahb_agent.mon [ahb_slv_monitor] [MON][AHB][TR] AHB AHB_WRITE addr=0x50d8 trans=AHB_TRANS_SEQ burst=AHB_BURST_INCR size=4B mastlock=0 resp=AHB_RESP_OKAY waits=4 | data=0x5855524f
# UVM_INFO ../10_tb/ahb_slv/ahb_slv_driver.sv(87) @ 705000: uvm_test_top.env.ahb_agent.drv [ahb_slv_driver] [DRV][AHB][REQ] AHB_WRITE addr=0x50dc trans=AHB_TRANS_SEQ burst=AHB_BURST_INCR size=4B
# UVM_INFO ../10_tb/axi4_mst/axi4_mst_driver.sv(198) @ 705000: uvm_test_top.env.axi_agent.drv [axi4_mst_driver] [DRV][AXI][W] id=0x8 beat=10/11 data=0x5d5a5754 strb=0xf last=0
# UVM_INFO ../10_tb/seq/ahb_slv_seq/ahb_slv_response_mapping_seq.sv(54) @ 705000: uvm_test_top.env.ahb_agent.sqr@@ahb_seq [ahb_slv_response_mapping_seq] [RSP][AHB] AHB_WRITE addr=0x50dc resp=AHB_RESP_OKAY waits=4
# UVM_INFO ../10_tb/ahb_slv/ahb_slv_driver.sv(201) @ 755000: uvm_test_top.env.ahb_agent.drv [ahb_slv_driver] [DRV][AHB][RSP] AHB_WRITE addr=0x50dc data=0x5d5a5754 resp=AHB_RESP_OKAY ready_delay=4
# UVM_INFO ../10_tb/ahb_slv/ahb_slv_monitor.sv(119) @ 755000: uvm_test_top.env.ahb_agent.mon [ahb_slv_monitor] [MON][AHB][TR] AHB AHB_WRITE addr=0x50dc trans=AHB_TRANS_SEQ burst=AHB_BURST_INCR size=4B mastlock=0 resp=AHB_RESP_OKAY waits=4 | data=0x5d5a5754
# UVM_INFO ../10_tb/ahb_slv/ahb_slv_driver.sv(87) @ 765000: uvm_test_top.env.ahb_agent.drv [ahb_slv_driver] [DRV][AHB][REQ] AHB_WRITE addr=0x50e0 trans=AHB_TRANS_SEQ burst=AHB_BURST_INCR size=4B
# UVM_INFO ../10_tb/axi4_mst/axi4_mst_driver.sv(198) @ 765000: uvm_test_top.env.axi_agent.drv [axi4_mst_driver] [DRV][AXI][W] id=0x8 beat=11/11 data=0x625f5c59 strb=0xf last=1
# UVM_INFO ../10_tb/seq/ahb_slv_seq/ahb_slv_response_mapping_seq.sv(54) @ 765000: uvm_test_top.env.ahb_agent.sqr@@ahb_seq [ahb_slv_response_mapping_seq] [RSP][AHB] AHB_WRITE addr=0x50e0 resp=AHB_RESP_OKAY waits=0
# UVM_INFO ../10_tb/axi4_mst/axi4_mst_monitor.sv(151) @ 765000: uvm_test_top.env.axi_agent.mon [axi4_mst_monitor] [MON][AXI][REQ] AXI4 AXI4_WRITE id=0x8 addr=0x50b8 burst=AXI4_BURST_INCR beats=11 size=4B lock=0
# UVM_INFO ../10_tb/env/predictor.sv(75) @ 765000: uvm_test_top.env.pred [predictor] [PRED][AXI][IN] AXI4 AXI4_WRITE id=0x8 addr=0x50b8 burst=AXI4_BURST_INCR beats=11 size=4B lock=0 | queued=1
# UVM_INFO ../10_tb/env/predictor.sv(138) @ 765000: uvm_test_top.env.pred [predictor] [PRED][MAP] AXI4 AXI4_WRITE id=0x8 addr=0x50b8 burst=AXI4_BURST_INCR beats=11 size=4B lock=0 -> AHB burst=AHB_BURST_INCR size=4B crosses_1kb=0
# UVM_INFO ../10_tb/env/predictor.sv(169) @ 765000: uvm_test_top.env.pred [predictor] [PRED][AHB] beat=1/11 | AHB AHB_WRITE addr=0x50b8 trans=AHB_TRANS_NONSEQ burst=AHB_BURST_INCR size=4B mastlock=0 resp=AHB_RESP_OKAY waits=0 | wdata=0x302d2a27
# UVM_INFO ../10_tb/env/scoreboard.sv(359) @ 765000: uvm_test_top.env.scb [scoreboard] [SCB][AHB][PASS] AHB AHB_WRITE addr=0x50b8 trans=AHB_TRANS_NONSEQ burst=AHB_BURST_INCR size=4B mastlock=0 resp=AHB_RESP_OKAY waits=0 | data=0x302d2a27 | total=5
# UVM_INFO ../10_tb/env/predictor.sv(169) @ 765000: uvm_test_top.env.pred [predictor] [PRED][AHB] beat=2/11 | AHB AHB_WRITE addr=0x50bc trans=AHB_TRANS_SEQ burst=AHB_BURST_INCR size=4B mastlock=0 resp=AHB_RESP_OKAY waits=0 | wdata=0x35322f2c
# UVM_INFO ../10_tb/env/scoreboard.sv(359) @ 765000: uvm_test_top.env.scb [scoreboard] [SCB][AHB][PASS] AHB AHB_WRITE addr=0x50bc trans=AHB_TRANS_SEQ burst=AHB_BURST_INCR size=4B mastlock=0 resp=AHB_RESP_OKAY waits=0 | data=0x35322f2c | total=6
# UVM_INFO ../10_tb/env/predictor.sv(169) @ 765000: uvm_test_top.env.pred [predictor] [PRED][AHB] beat=3/11 | AHB AHB_WRITE addr=0x50c0 trans=AHB_TRANS_SEQ burst=AHB_BURST_INCR size=4B mastlock=0 resp=AHB_RESP_OKAY waits=0 | wdata=0x3a373431
# UVM_INFO ../10_tb/env/scoreboard.sv(359) @ 765000: uvm_test_top.env.scb [scoreboard] [SCB][AHB][PASS] AHB AHB_WRITE addr=0x50c0 trans=AHB_TRANS_SEQ burst=AHB_BURST_INCR size=4B mastlock=0 resp=AHB_RESP_OKAY waits=4 | data=0x3a373431 | total=7
# UVM_INFO ../10_tb/env/predictor.sv(169) @ 765000: uvm_test_top.env.pred [predictor] [PRED][AHB] beat=4/11 | AHB AHB_WRITE addr=0x50c4 trans=AHB_TRANS_SEQ burst=AHB_BURST_INCR size=4B mastlock=0 resp=AHB_RESP_OKAY waits=0 | wdata=0x3f3c3936
# UVM_INFO ../10_tb/env/scoreboard.sv(359) @ 765000: uvm_test_top.env.scb [scoreboard] [SCB][AHB][PASS] AHB AHB_WRITE addr=0x50c4 trans=AHB_TRANS_SEQ burst=AHB_BURST_INCR size=4B mastlock=0 resp=AHB_RESP_OKAY waits=4 | data=0x3f3c3936 | total=8
# UVM_INFO ../10_tb/env/predictor.sv(169) @ 765000: uvm_test_top.env.pred [predictor] [PRED][AHB] beat=5/11 | AHB AHB_WRITE addr=0x50c8 trans=AHB_TRANS_SEQ burst=AHB_BURST_INCR size=4B mastlock=0 resp=AHB_RESP_OKAY waits=0 | wdata=0x44413e3b
# UVM_INFO ../10_tb/env/scoreboard.sv(359) @ 765000: uvm_test_top.env.scb [scoreboard] [SCB][AHB][PASS] AHB AHB_WRITE addr=0x50c8 trans=AHB_TRANS_SEQ burst=AHB_BURST_INCR size=4B mastlock=0 resp=AHB_RESP_OKAY waits=4 | data=0x44413e3b | total=9
# UVM_INFO ../10_tb/env/predictor.sv(169) @ 765000: uvm_test_top.env.pred [predictor] [PRED][AHB] beat=6/11 | AHB AHB_WRITE addr=0x50cc trans=AHB_TRANS_SEQ burst=AHB_BURST_INCR size=4B mastlock=0 resp=AHB_RESP_OKAY waits=0 | wdata=0x49464340
# UVM_INFO ../10_tb/env/scoreboard.sv(359) @ 765000: uvm_test_top.env.scb [scoreboard] [SCB][AHB][PASS] AHB AHB_WRITE addr=0x50cc trans=AHB_TRANS_SEQ burst=AHB_BURST_INCR size=4B mastlock=0 resp=AHB_RESP_OKAY waits=0 | data=0x49464340 | total=10
# UVM_INFO ../10_tb/env/predictor.sv(169) @ 765000: uvm_test_top.env.pred [predictor] [PRED][AHB] beat=7/11 | AHB AHB_WRITE addr=0x50d0 trans=AHB_TRANS_SEQ burst=AHB_BURST_INCR size=4B mastlock=0 resp=AHB_RESP_OKAY waits=0 | wdata=0x4e4b4845
# UVM_INFO ../10_tb/env/scoreboard.sv(359) @ 765000: uvm_test_top.env.scb [scoreboard] [SCB][AHB][PASS] AHB AHB_WRITE addr=0x50d0 trans=AHB_TRANS_SEQ burst=AHB_BURST_INCR size=4B mastlock=0 resp=AHB_RESP_OKAY waits=2 | data=0x4e4b4845 | total=11
# UVM_INFO ../10_tb/env/predictor.sv(169) @ 765000: uvm_test_top.env.pred [predictor] [PRED][AHB] beat=8/11 | AHB AHB_WRITE addr=0x50d4 trans=AHB_TRANS_SEQ burst=AHB_BURST_INCR size=4B mastlock=0 resp=AHB_RESP_OKAY waits=0 | wdata=0x53504d4a
# UVM_INFO ../10_tb/env/scoreboard.sv(359) @ 765000: uvm_test_top.env.scb [scoreboard] [SCB][AHB][PASS] AHB AHB_WRITE addr=0x50d4 trans=AHB_TRANS_SEQ burst=AHB_BURST_INCR size=4B mastlock=0 resp=AHB_RESP_OKAY waits=0 | data=0x53504d4a | total=12
# UVM_INFO ../10_tb/env/predictor.sv(169) @ 765000: uvm_test_top.env.pred [predictor] [PRED][AHB] beat=9/11 | AHB AHB_WRITE addr=0x50d8 trans=AHB_TRANS_SEQ burst=AHB_BURST_INCR size=4B mastlock=0 resp=AHB_RESP_OKAY waits=0 | wdata=0x5855524f
# UVM_INFO ../10_tb/env/scoreboard.sv(359) @ 765000: uvm_test_top.env.scb [scoreboard] [SCB][AHB][PASS] AHB AHB_WRITE addr=0x50d8 trans=AHB_TRANS_SEQ burst=AHB_BURST_INCR size=4B mastlock=0 resp=AHB_RESP_OKAY waits=4 | data=0x5855524f | total=13
# UVM_INFO ../10_tb/env/predictor.sv(169) @ 765000: uvm_test_top.env.pred [predictor] [PRED][AHB] beat=10/11 | AHB AHB_WRITE addr=0x50dc trans=AHB_TRANS_SEQ burst=AHB_BURST_INCR size=4B mastlock=0 resp=AHB_RESP_OKAY waits=0 | wdata=0x5d5a5754
# UVM_INFO ../10_tb/env/scoreboard.sv(359) @ 765000: uvm_test_top.env.scb [scoreboard] [SCB][AHB][PASS] AHB AHB_WRITE addr=0x50dc trans=AHB_TRANS_SEQ burst=AHB_BURST_INCR size=4B mastlock=0 resp=AHB_RESP_OKAY waits=4 | data=0x5d5a5754 | total=14
# UVM_INFO ../10_tb/env/predictor.sv(169) @ 765000: uvm_test_top.env.pred [predictor] [PRED][AHB] beat=11/11 | AHB AHB_WRITE addr=0x50e0 trans=AHB_TRANS_SEQ burst=AHB_BURST_INCR size=4B mastlock=0 resp=AHB_RESP_OKAY waits=0 | wdata=0x625f5c59
# UVM_INFO ../10_tb/ahb_slv/ahb_slv_driver.sv(201) @ 775000: uvm_test_top.env.ahb_agent.drv [ahb_slv_driver] [DRV][AHB][RSP] AHB_WRITE addr=0x50e0 data=0x625f5c59 resp=AHB_RESP_OKAY ready_delay=0
# UVM_INFO ../10_tb/ahb_slv/ahb_slv_monitor.sv(119) @ 775000: uvm_test_top.env.ahb_agent.mon [ahb_slv_monitor] [MON][AHB][TR] AHB AHB_WRITE addr=0x50e0 trans=AHB_TRANS_SEQ burst=AHB_BURST_INCR size=4B mastlock=0 resp=AHB_RESP_OKAY waits=0 | data=0x625f5c59
# UVM_INFO ../10_tb/env/scoreboard.sv(359) @ 775000: uvm_test_top.env.scb [scoreboard] [SCB][AHB][PASS] AHB AHB_WRITE addr=0x50e0 trans=AHB_TRANS_SEQ burst=AHB_BURST_INCR size=4B mastlock=0 resp=AHB_RESP_OKAY waits=0 | data=0x625f5c59 | total=15
# UVM_INFO ../10_tb/axi4_mst/axi4_mst_driver.sv(250) @ 795000: uvm_test_top.env.axi_agent.drv [axi4_mst_driver] [DRV][AXI][B] id=0x8 resp=AXI4_RESP_OKAY
# UVM_INFO ../10_tb/axi4_mst/axi4_mst_monitor.sv(177) @ 795000: uvm_test_top.env.axi_agent.mon [axi4_mst_monitor] [MON][AXI][RSP] WRITE id=0x8 resp=AXI4_RESP_OKAY
# UVM_INFO ../10_tb/env/scoreboard.sv(499) @ 795000: uvm_test_top.env.scb [scoreboard] [SCB][AXI][PASS] AXI4 AXI4_WRITE id=0x8 addr=0x50b8 burst=AXI4_BURST_INCR beats=11 size=4B lock=0 | bresp=AXI4_RESP_OKAY | total=2
# UVM_INFO ../10_tb/axi4_mst/axi4_mst_driver.sv(105) @ 795000: uvm_test_top.env.axi_agent.drv [axi4_mst_driver] [DRV][AXI][REQ] AXI4 AXI4_READ id=0x3 addr=0x4078 burst=AXI4_BURST_FIXED beats=4 size=4B lock=0 | outstanding=1
# UVM_INFO ../10_tb/axi4_mst/axi4_mst_driver.sv(225) @ 825000: uvm_test_top.env.axi_agent.drv [axi4_mst_driver] [DRV][AXI][AR] id=0x3 addr=0x4078 burst=AXI4_BURST_FIXED beats=4 size=4B
# UVM_INFO ../10_tb/axi4_mst/axi4_mst_monitor.sv(211) @ 825000: uvm_test_top.env.axi_agent.mon [axi4_mst_monitor] [MON][AXI][REQ] AXI4 AXI4_READ id=0x3 addr=0x4078 burst=AXI4_BURST_FIXED beats=4 size=4B lock=0
# UVM_INFO ../10_tb/env/predictor.sv(75) @ 825000: uvm_test_top.env.pred [predictor] [PRED][AXI][IN] AXI4 AXI4_READ id=0x3 addr=0x4078 burst=AXI4_BURST_FIXED beats=4 size=4B lock=0 | queued=1
# UVM_INFO ../10_tb/env/predictor.sv(138) @ 825000: uvm_test_top.env.pred [predictor] [PRED][MAP] AXI4 AXI4_READ id=0x3 addr=0x4078 burst=AXI4_BURST_FIXED beats=4 size=4B lock=0 -> AHB burst=AHB_BURST_SINGLE size=4B crosses_1kb=0
# UVM_INFO ../10_tb/env/predictor.sv(175) @ 825000: uvm_test_top.env.pred [predictor] [PRED][AHB] beat=1/4 | AHB AHB_READ addr=0x4078 trans=AHB_TRANS_NONSEQ burst=AHB_BURST_SINGLE size=4B mastlock=0 resp=AHB_RESP_OKAY waits=0
# UVM_INFO ../10_tb/env/predictor.sv(175) @ 825000: uvm_test_top.env.pred [predictor] [PRED][AHB] beat=2/4 | AHB AHB_READ addr=0x4078 trans=AHB_TRANS_NONSEQ burst=AHB_BURST_SINGLE size=4B mastlock=0 resp=AHB_RESP_OKAY waits=0
# UVM_INFO ../10_tb/env/predictor.sv(175) @ 825000: uvm_test_top.env.pred [predictor] [PRED][AHB] beat=3/4 | AHB AHB_READ addr=0x4078 trans=AHB_TRANS_NONSEQ burst=AHB_BURST_SINGLE size=4B mastlock=0 resp=AHB_RESP_OKAY waits=0
# UVM_INFO ../10_tb/env/predictor.sv(175) @ 825000: uvm_test_top.env.pred [predictor] [PRED][AHB] beat=4/4 | AHB AHB_READ addr=0x4078 trans=AHB_TRANS_NONSEQ burst=AHB_BURST_SINGLE size=4B mastlock=0 resp=AHB_RESP_OKAY waits=0
# UVM_INFO ../10_tb/ahb_slv/ahb_slv_driver.sv(87) @ 835000: uvm_test_top.env.ahb_agent.drv [ahb_slv_driver] [DRV][AHB][REQ] AHB_READ addr=0x4078 trans=AHB_TRANS_NONSEQ burst=AHB_BURST_SINGLE size=4B
# UVM_INFO ../10_tb/seq/ahb_slv_seq/ahb_slv_response_mapping_seq.sv(54) @ 835000: uvm_test_top.env.ahb_agent.sqr@@ahb_seq [ahb_slv_response_mapping_seq] [RSP][AHB] AHB_READ addr=0x4078 resp=AHB_RESP_OKAY waits=0
# UVM_INFO ../10_tb/ahb_slv/ahb_slv_driver.sv(201) @ 845000: uvm_test_top.env.ahb_agent.drv [ahb_slv_driver] [DRV][AHB][RSP] AHB_READ addr=0x4078 data=0xffffbf87 resp=AHB_RESP_OKAY ready_delay=0
# UVM_INFO ../10_tb/ahb_slv/ahb_slv_monitor.sv(119) @ 845000: uvm_test_top.env.ahb_agent.mon [ahb_slv_monitor] [MON][AHB][TR] AHB AHB_READ addr=0x4078 trans=AHB_TRANS_NONSEQ burst=AHB_BURST_SINGLE size=4B mastlock=0 resp=AHB_RESP_OKAY waits=0 | data=0xffffbf87
# UVM_INFO ../10_tb/env/scoreboard.sv(359) @ 845000: uvm_test_top.env.scb [scoreboard] [SCB][AHB][PASS] AHB AHB_READ addr=0x4078 trans=AHB_TRANS_NONSEQ burst=AHB_BURST_SINGLE size=4B mastlock=0 resp=AHB_RESP_OKAY waits=0 | data=0xffffbf87 | total=16
# UVM_INFO ../10_tb/ahb_slv/ahb_slv_driver.sv(87) @ 855000: uvm_test_top.env.ahb_agent.drv [ahb_slv_driver] [DRV][AHB][REQ] AHB_READ addr=0x4078 trans=AHB_TRANS_NONSEQ burst=AHB_BURST_SINGLE size=4B
# UVM_INFO ../10_tb/seq/ahb_slv_seq/ahb_slv_response_mapping_seq.sv(54) @ 855000: uvm_test_top.env.ahb_agent.sqr@@ahb_seq [ahb_slv_response_mapping_seq] [RSP][AHB] AHB_READ addr=0x4078 resp=AHB_RESP_OKAY waits=3
# UVM_INFO ../10_tb/axi4_mst/axi4_mst_driver.sv(290) @ 885000: uvm_test_top.env.axi_agent.drv [axi4_mst_driver] [DRV][AXI][R] id=0x3 beat=1/4 data=0xffffbf87 resp=AXI4_RESP_OKAY last=0
# UVM_INFO ../10_tb/axi4_mst/axi4_mst_monitor.sv(256) @ 885000: uvm_test_top.env.axi_agent.mon [axi4_mst_monitor] [MON][AXI][R] id=0x3 beat=1/4 data=0xffffbf87 resp=AXI4_RESP_OKAY last=0
# UVM_INFO ../10_tb/ahb_slv/ahb_slv_driver.sv(201) @ 895000: uvm_test_top.env.ahb_agent.drv [ahb_slv_driver] [DRV][AHB][RSP] AHB_READ addr=0x4078 data=0xffffbf87 resp=AHB_RESP_OKAY ready_delay=3
# UVM_INFO ../10_tb/ahb_slv/ahb_slv_monitor.sv(119) @ 895000: uvm_test_top.env.ahb_agent.mon [ahb_slv_monitor] [MON][AHB][TR] AHB AHB_READ addr=0x4078 trans=AHB_TRANS_NONSEQ burst=AHB_BURST_SINGLE size=4B mastlock=0 resp=AHB_RESP_OKAY waits=3 | data=0xffffbf87
# UVM_INFO ../10_tb/env/scoreboard.sv(359) @ 895000: uvm_test_top.env.scb [scoreboard] [SCB][AHB][PASS] AHB AHB_READ addr=0x4078 trans=AHB_TRANS_NONSEQ burst=AHB_BURST_SINGLE size=4B mastlock=0 resp=AHB_RESP_OKAY waits=3 | data=0xffffbf87 | total=17
# UVM_INFO ../10_tb/ahb_slv/ahb_slv_driver.sv(87) @ 905000: uvm_test_top.env.ahb_agent.drv [ahb_slv_driver] [DRV][AHB][REQ] AHB_READ addr=0x4078 trans=AHB_TRANS_NONSEQ burst=AHB_BURST_SINGLE size=4B
# UVM_INFO ../10_tb/seq/ahb_slv_seq/ahb_slv_response_mapping_seq.sv(54) @ 905000: uvm_test_top.env.ahb_agent.sqr@@ahb_seq [ahb_slv_response_mapping_seq] [RSP][AHB] AHB_READ addr=0x4078 resp=AHB_RESP_OKAY waits=0
# UVM_INFO ../10_tb/ahb_slv/ahb_slv_driver.sv(201) @ 915000: uvm_test_top.env.ahb_agent.drv [ahb_slv_driver] [DRV][AHB][RSP] AHB_READ addr=0x4078 data=0xffffbf87 resp=AHB_RESP_OKAY ready_delay=0
# UVM_INFO ../10_tb/ahb_slv/ahb_slv_monitor.sv(119) @ 915000: uvm_test_top.env.ahb_agent.mon [ahb_slv_monitor] [MON][AHB][TR] AHB AHB_READ addr=0x4078 trans=AHB_TRANS_NONSEQ burst=AHB_BURST_SINGLE size=4B mastlock=0 resp=AHB_RESP_OKAY waits=0 | data=0xffffbf87
# UVM_INFO ../10_tb/env/scoreboard.sv(359) @ 915000: uvm_test_top.env.scb [scoreboard] [SCB][AHB][PASS] AHB AHB_READ addr=0x4078 trans=AHB_TRANS_NONSEQ burst=AHB_BURST_SINGLE size=4B mastlock=0 resp=AHB_RESP_OKAY waits=0 | data=0xffffbf87 | total=18
# UVM_INFO ../10_tb/ahb_slv/ahb_slv_driver.sv(87) @ 925000: uvm_test_top.env.ahb_agent.drv [ahb_slv_driver] [DRV][AHB][REQ] AHB_READ addr=0x4078 trans=AHB_TRANS_NONSEQ burst=AHB_BURST_SINGLE size=4B
# UVM_INFO ../10_tb/seq/ahb_slv_seq/ahb_slv_response_mapping_seq.sv(54) @ 925000: uvm_test_top.env.ahb_agent.sqr@@ahb_seq [ahb_slv_response_mapping_seq] [RSP][AHB] AHB_READ addr=0x4078 resp=AHB_RESP_OKAY waits=0
# UVM_INFO ../10_tb/ahb_slv/ahb_slv_driver.sv(201) @ 935000: uvm_test_top.env.ahb_agent.drv [ahb_slv_driver] [DRV][AHB][RSP] AHB_READ addr=0x4078 data=0xffffbf87 resp=AHB_RESP_OKAY ready_delay=0
# UVM_INFO ../10_tb/ahb_slv/ahb_slv_monitor.sv(119) @ 935000: uvm_test_top.env.ahb_agent.mon [ahb_slv_monitor] [MON][AHB][TR] AHB AHB_READ addr=0x4078 trans=AHB_TRANS_NONSEQ burst=AHB_BURST_SINGLE size=4B mastlock=0 resp=AHB_RESP_OKAY waits=0 | data=0xffffbf87
# UVM_INFO ../10_tb/env/scoreboard.sv(359) @ 935000: uvm_test_top.env.scb [scoreboard] [SCB][AHB][PASS] AHB AHB_READ addr=0x4078 trans=AHB_TRANS_NONSEQ burst=AHB_BURST_SINGLE size=4B mastlock=0 resp=AHB_RESP_OKAY waits=0 | data=0xffffbf87 | total=19
# UVM_INFO ../10_tb/axi4_mst/axi4_mst_driver.sv(290) @ 945000: uvm_test_top.env.axi_agent.drv [axi4_mst_driver] [DRV][AXI][R] id=0x3 beat=2/4 data=0xffffbf87 resp=AXI4_RESP_OKAY last=0
# UVM_INFO ../10_tb/axi4_mst/axi4_mst_monitor.sv(256) @ 945000: uvm_test_top.env.axi_agent.mon [axi4_mst_monitor] [MON][AXI][R] id=0x3 beat=2/4 data=0xffffbf87 resp=AXI4_RESP_OKAY last=0
# UVM_INFO ../10_tb/axi4_mst/axi4_mst_driver.sv(290) @ 975000: uvm_test_top.env.axi_agent.drv [axi4_mst_driver] [DRV][AXI][R] id=0x3 beat=3/4 data=0xffffbf87 resp=AXI4_RESP_OKAY last=0
# UVM_INFO ../10_tb/axi4_mst/axi4_mst_monitor.sv(256) @ 975000: uvm_test_top.env.axi_agent.mon [axi4_mst_monitor] [MON][AXI][R] id=0x3 beat=3/4 data=0xffffbf87 resp=AXI4_RESP_OKAY last=0
# UVM_INFO ../10_tb/axi4_mst/axi4_mst_driver.sv(290) @ 1015000: uvm_test_top.env.axi_agent.drv [axi4_mst_driver] [DRV][AXI][R] id=0x3 beat=4/4 data=0xffffbf87 resp=AXI4_RESP_OKAY last=1
# UVM_INFO ../10_tb/axi4_mst/axi4_mst_monitor.sv(256) @ 1015000: uvm_test_top.env.axi_agent.mon [axi4_mst_monitor] [MON][AXI][R] id=0x3 beat=4/4 data=0xffffbf87 resp=AXI4_RESP_OKAY last=1
# UVM_INFO ../10_tb/axi4_mst/axi4_mst_monitor.sv(262) @ 1015000: uvm_test_top.env.axi_agent.mon [axi4_mst_monitor] [MON][AXI][RSP] READ id=0x3 beats=4
# UVM_INFO ../10_tb/env/scoreboard.sv(506) @ 1015000: uvm_test_top.env.scb [scoreboard] [SCB][AXI][PASS] AXI4 AXI4_READ id=0x3 addr=0x4078 burst=AXI4_BURST_FIXED beats=4 size=4B lock=0 | read beats=4 | total=3
# UVM_INFO ../10_tb/axi4_mst/axi4_mst_driver.sv(105) @ 1015000: uvm_test_top.env.axi_agent.drv [axi4_mst_driver] [DRV][AXI][REQ] AXI4 AXI4_WRITE id=0xa addr=0x5c8c burst=AXI4_BURST_FIXED beats=12 size=4B lock=0 | outstanding=1
# UVM_INFO ../10_tb/axi4_mst/axi4_mst_driver.sv(198) @ 1055000: uvm_test_top.env.axi_agent.drv [axi4_mst_driver] [DRV][AXI][W] id=0xa beat=1/12 data=0x3e3b3835 strb=0xf last=0
# UVM_INFO ../10_tb/axi4_mst/axi4_mst_driver.sv(178) @ 1055000: uvm_test_top.env.axi_agent.drv [axi4_mst_driver] [DRV][AXI][AW] id=0xa addr=0x5c8c burst=AXI4_BURST_FIXED beats=12 size=4B
# UVM_INFO ../10_tb/ahb_slv/ahb_slv_driver.sv(87) @ 1065000: uvm_test_top.env.ahb_agent.drv [ahb_slv_driver] [DRV][AHB][REQ] AHB_WRITE addr=0x5c8c trans=AHB_TRANS_NONSEQ burst=AHB_BURST_SINGLE size=4B
# UVM_INFO ../10_tb/seq/ahb_slv_seq/ahb_slv_response_mapping_seq.sv(54) @ 1065000: uvm_test_top.env.ahb_agent.sqr@@ahb_seq [ahb_slv_response_mapping_seq] [RSP][AHB] AHB_WRITE addr=0x5c8c resp=AHB_RESP_OKAY waits=0
# UVM_INFO ../10_tb/ahb_slv/ahb_slv_driver.sv(201) @ 1075000: uvm_test_top.env.ahb_agent.drv [ahb_slv_driver] [DRV][AHB][RSP] AHB_WRITE addr=0x5c8c data=0x3e3b3835 resp=AHB_RESP_OKAY ready_delay=0
# UVM_INFO ../10_tb/ahb_slv/ahb_slv_monitor.sv(119) @ 1075000: uvm_test_top.env.ahb_agent.mon [ahb_slv_monitor] [MON][AHB][TR] AHB AHB_WRITE addr=0x5c8c trans=AHB_TRANS_NONSEQ burst=AHB_BURST_SINGLE size=4B mastlock=0 resp=AHB_RESP_OKAY waits=0 | data=0x3e3b3835
# UVM_INFO ../10_tb/ahb_slv/ahb_slv_driver.sv(87) @ 1085000: uvm_test_top.env.ahb_agent.drv [ahb_slv_driver] [DRV][AHB][REQ] AHB_WRITE addr=0x5c8c trans=AHB_TRANS_NONSEQ burst=AHB_BURST_SINGLE size=4B
# UVM_INFO ../10_tb/axi4_mst/axi4_mst_driver.sv(198) @ 1085000: uvm_test_top.env.axi_agent.drv [axi4_mst_driver] [DRV][AXI][W] id=0xa beat=2/12 data=0x43403d3a strb=0xf last=0
# UVM_INFO ../10_tb/seq/ahb_slv_seq/ahb_slv_response_mapping_seq.sv(54) @ 1085000: uvm_test_top.env.ahb_agent.sqr@@ahb_seq [ahb_slv_response_mapping_seq] [RSP][AHB] AHB_WRITE addr=0x5c8c resp=AHB_RESP_ERROR waits=0
# UVM_INFO ../10_tb/ahb_slv/ahb_slv_driver.sv(201) @ 1105000: uvm_test_top.env.ahb_agent.drv [ahb_slv_driver] [DRV][AHB][RSP] AHB_WRITE addr=0x5c8c data=0x43403d3a resp=AHB_RESP_ERROR ready_delay=0
# UVM_INFO ../10_tb/ahb_slv/ahb_slv_monitor.sv(119) @ 1105000: uvm_test_top.env.ahb_agent.mon [ahb_slv_monitor] [MON][AHB][TR] AHB AHB_WRITE addr=0x5c8c trans=AHB_TRANS_NONSEQ burst=AHB_BURST_SINGLE size=4B mastlock=0 resp=AHB_RESP_ERROR waits=1 | data=0x43403d3a
# UVM_INFO ../10_tb/ahb_slv/ahb_slv_driver.sv(87) @ 1115000: uvm_test_top.env.ahb_agent.drv [ahb_slv_driver] [DRV][AHB][REQ] AHB_WRITE addr=0x5c8c trans=AHB_TRANS_NONSEQ burst=AHB_BURST_SINGLE size=4B
# UVM_INFO ../10_tb/axi4_mst/axi4_mst_driver.sv(198) @ 1115000: uvm_test_top.env.axi_agent.drv [axi4_mst_driver] [DRV][AXI][W] id=0xa beat=3/12 data=0x4845423f strb=0xf last=0
# UVM_INFO ../10_tb/seq/ahb_slv_seq/ahb_slv_response_mapping_seq.sv(54) @ 1115000: uvm_test_top.env.ahb_agent.sqr@@ahb_seq [ahb_slv_response_mapping_seq] [RSP][AHB] AHB_WRITE addr=0x5c8c resp=AHB_RESP_OKAY waits=0
# UVM_INFO ../10_tb/ahb_slv/ahb_slv_driver.sv(201) @ 1125000: uvm_test_top.env.ahb_agent.drv [ahb_slv_driver] [DRV][AHB][RSP] AHB_WRITE addr=0x5c8c data=0x4845423f resp=AHB_RESP_OKAY ready_delay=0
# UVM_INFO ../10_tb/ahb_slv/ahb_slv_monitor.sv(119) @ 1125000: uvm_test_top.env.ahb_agent.mon [ahb_slv_monitor] [MON][AHB][TR] AHB AHB_WRITE addr=0x5c8c trans=AHB_TRANS_NONSEQ burst=AHB_BURST_SINGLE size=4B mastlock=0 resp=AHB_RESP_OKAY waits=0 | data=0x4845423f
# UVM_INFO ../10_tb/ahb_slv/ahb_slv_driver.sv(87) @ 1135000: uvm_test_top.env.ahb_agent.drv [ahb_slv_driver] [DRV][AHB][REQ] AHB_WRITE addr=0x5c8c trans=AHB_TRANS_NONSEQ burst=AHB_BURST_SINGLE size=4B
# UVM_INFO ../10_tb/axi4_mst/axi4_mst_driver.sv(198) @ 1135000: uvm_test_top.env.axi_agent.drv [axi4_mst_driver] [DRV][AXI][W] id=0xa beat=4/12 data=0x4d4a4744 strb=0xf last=0
# UVM_INFO ../10_tb/seq/ahb_slv_seq/ahb_slv_response_mapping_seq.sv(54) @ 1135000: uvm_test_top.env.ahb_agent.sqr@@ahb_seq [ahb_slv_response_mapping_seq] [RSP][AHB] AHB_WRITE addr=0x5c8c resp=AHB_RESP_OKAY waits=0
# UVM_INFO ../10_tb/ahb_slv/ahb_slv_driver.sv(201) @ 1145000: uvm_test_top.env.ahb_agent.drv [ahb_slv_driver] [DRV][AHB][RSP] AHB_WRITE addr=0x5c8c data=0x4d4a4744 resp=AHB_RESP_OKAY ready_delay=0
# UVM_INFO ../10_tb/ahb_slv/ahb_slv_monitor.sv(119) @ 1145000: uvm_test_top.env.ahb_agent.mon [ahb_slv_monitor] [MON][AHB][TR] AHB AHB_WRITE addr=0x5c8c trans=AHB_TRANS_NONSEQ burst=AHB_BURST_SINGLE size=4B mastlock=0 resp=AHB_RESP_OKAY waits=0 | data=0x4d4a4744
# UVM_INFO ../10_tb/ahb_slv/ahb_slv_driver.sv(87) @ 1155000: uvm_test_top.env.ahb_agent.drv [ahb_slv_driver] [DRV][AHB][REQ] AHB_WRITE addr=0x5c8c trans=AHB_TRANS_NONSEQ burst=AHB_BURST_SINGLE size=4B
# UVM_INFO ../10_tb/axi4_mst/axi4_mst_driver.sv(198) @ 1155000: uvm_test_top.env.axi_agent.drv [axi4_mst_driver] [DRV][AXI][W] id=0xa beat=5/12 data=0x524f4c49 strb=0xf last=0
# UVM_INFO ../10_tb/seq/ahb_slv_seq/ahb_slv_response_mapping_seq.sv(54) @ 1155000: uvm_test_top.env.ahb_agent.sqr@@ahb_seq [ahb_slv_response_mapping_seq] [RSP][AHB] AHB_WRITE addr=0x5c8c resp=AHB_RESP_OKAY waits=1
# UVM_INFO ../10_tb/ahb_slv/ahb_slv_driver.sv(201) @ 1175000: uvm_test_top.env.ahb_agent.drv [ahb_slv_driver] [DRV][AHB][RSP] AHB_WRITE addr=0x5c8c data=0x524f4c49 resp=AHB_RESP_OKAY ready_delay=1
# UVM_INFO ../10_tb/ahb_slv/ahb_slv_monitor.sv(119) @ 1175000: uvm_test_top.env.ahb_agent.mon [ahb_slv_monitor] [MON][AHB][TR] AHB AHB_WRITE addr=0x5c8c trans=AHB_TRANS_NONSEQ burst=AHB_BURST_SINGLE size=4B mastlock=0 resp=AHB_RESP_OKAY waits=1 | data=0x524f4c49
# UVM_INFO ../10_tb/ahb_slv/ahb_slv_driver.sv(87) @ 1185000: uvm_test_top.env.ahb_agent.drv [ahb_slv_driver] [DRV][AHB][REQ] AHB_WRITE addr=0x5c8c trans=AHB_TRANS_NONSEQ burst=AHB_BURST_SINGLE size=4B
# UVM_INFO ../10_tb/axi4_mst/axi4_mst_driver.sv(198) @ 1185000: uvm_test_top.env.axi_agent.drv [axi4_mst_driver] [DRV][AXI][W] id=0xa beat=6/12 data=0x5754514e strb=0xf last=0
# UVM_INFO ../10_tb/seq/ahb_slv_seq/ahb_slv_response_mapping_seq.sv(54) @ 1185000: uvm_test_top.env.ahb_agent.sqr@@ahb_seq [ahb_slv_response_mapping_seq] [RSP][AHB] AHB_WRITE addr=0x5c8c resp=AHB_RESP_OKAY waits=0
# UVM_INFO ../10_tb/ahb_slv/ahb_slv_driver.sv(201) @ 1195000: uvm_test_top.env.ahb_agent.drv [ahb_slv_driver] [DRV][AHB][RSP] AHB_WRITE addr=0x5c8c data=0x5754514e resp=AHB_RESP_OKAY ready_delay=0
# UVM_INFO ../10_tb/ahb_slv/ahb_slv_monitor.sv(119) @ 1195000: uvm_test_top.env.ahb_agent.mon [ahb_slv_monitor] [MON][AHB][TR] AHB AHB_WRITE addr=0x5c8c trans=AHB_TRANS_NONSEQ burst=AHB_BURST_SINGLE size=4B mastlock=0 resp=AHB_RESP_OKAY waits=0 | data=0x5754514e
# UVM_INFO ../10_tb/ahb_slv/ahb_slv_driver.sv(87) @ 1205000: uvm_test_top.env.ahb_agent.drv [ahb_slv_driver] [DRV][AHB][REQ] AHB_WRITE addr=0x5c8c trans=AHB_TRANS_NONSEQ burst=AHB_BURST_SINGLE size=4B
# UVM_INFO ../10_tb/axi4_mst/axi4_mst_driver.sv(198) @ 1205000: uvm_test_top.env.axi_agent.drv [axi4_mst_driver] [DRV][AXI][W] id=0xa beat=7/12 data=0x5c595653 strb=0xf last=0
# UVM_INFO ../10_tb/seq/ahb_slv_seq/ahb_slv_response_mapping_seq.sv(54) @ 1205000: uvm_test_top.env.ahb_agent.sqr@@ahb_seq [ahb_slv_response_mapping_seq] [RSP][AHB] AHB_WRITE addr=0x5c8c resp=AHB_RESP_OKAY waits=1
# UVM_INFO ../10_tb/ahb_slv/ahb_slv_driver.sv(201) @ 1225000: uvm_test_top.env.ahb_agent.drv [ahb_slv_driver] [DRV][AHB][RSP] AHB_WRITE addr=0x5c8c data=0x5c595653 resp=AHB_RESP_OKAY ready_delay=1
# UVM_INFO ../10_tb/ahb_slv/ahb_slv_monitor.sv(119) @ 1225000: uvm_test_top.env.ahb_agent.mon [ahb_slv_monitor] [MON][AHB][TR] AHB AHB_WRITE addr=0x5c8c trans=AHB_TRANS_NONSEQ burst=AHB_BURST_SINGLE size=4B mastlock=0 resp=AHB_RESP_OKAY waits=1 | data=0x5c595653
# UVM_INFO ../10_tb/ahb_slv/ahb_slv_driver.sv(87) @ 1235000: uvm_test_top.env.ahb_agent.drv [ahb_slv_driver] [DRV][AHB][REQ] AHB_WRITE addr=0x5c8c trans=AHB_TRANS_NONSEQ burst=AHB_BURST_SINGLE size=4B
# UVM_INFO ../10_tb/axi4_mst/axi4_mst_driver.sv(198) @ 1235000: uvm_test_top.env.axi_agent.drv [axi4_mst_driver] [DRV][AXI][W] id=0xa beat=8/12 data=0x615e5b58 strb=0xf last=0
# UVM_INFO ../10_tb/seq/ahb_slv_seq/ahb_slv_response_mapping_seq.sv(54) @ 1235000: uvm_test_top.env.ahb_agent.sqr@@ahb_seq [ahb_slv_response_mapping_seq] [RSP][AHB] AHB_WRITE addr=0x5c8c resp=AHB_RESP_OKAY waits=1
# UVM_INFO ../10_tb/ahb_slv/ahb_slv_driver.sv(201) @ 1255000: uvm_test_top.env.ahb_agent.drv [ahb_slv_driver] [DRV][AHB][RSP] AHB_WRITE addr=0x5c8c data=0x615e5b58 resp=AHB_RESP_OKAY ready_delay=1
# UVM_INFO ../10_tb/ahb_slv/ahb_slv_monitor.sv(119) @ 1255000: uvm_test_top.env.ahb_agent.mon [ahb_slv_monitor] [MON][AHB][TR] AHB AHB_WRITE addr=0x5c8c trans=AHB_TRANS_NONSEQ burst=AHB_BURST_SINGLE size=4B mastlock=0 resp=AHB_RESP_OKAY waits=1 | data=0x615e5b58
# UVM_INFO ../10_tb/ahb_slv/ahb_slv_driver.sv(87) @ 1265000: uvm_test_top.env.ahb_agent.drv [ahb_slv_driver] [DRV][AHB][REQ] AHB_WRITE addr=0x5c8c trans=AHB_TRANS_NONSEQ burst=AHB_BURST_SINGLE size=4B
# UVM_INFO ../10_tb/axi4_mst/axi4_mst_driver.sv(198) @ 1265000: uvm_test_top.env.axi_agent.drv [axi4_mst_driver] [DRV][AXI][W] id=0xa beat=9/12 data=0x6663605d strb=0xf last=0
# UVM_INFO ../10_tb/seq/ahb_slv_seq/ahb_slv_response_mapping_seq.sv(54) @ 1265000: uvm_test_top.env.ahb_agent.sqr@@ahb_seq [ahb_slv_response_mapping_seq] [RSP][AHB] AHB_WRITE addr=0x5c8c resp=AHB_RESP_OKAY waits=0
# UVM_INFO ../10_tb/ahb_slv/ahb_slv_driver.sv(201) @ 1275000: uvm_test_top.env.ahb_agent.drv [ahb_slv_driver] [DRV][AHB][RSP] AHB_WRITE addr=0x5c8c data=0x6663605d resp=AHB_RESP_OKAY ready_delay=0
# UVM_INFO ../10_tb/ahb_slv/ahb_slv_monitor.sv(119) @ 1275000: uvm_test_top.env.ahb_agent.mon [ahb_slv_monitor] [MON][AHB][TR] AHB AHB_WRITE addr=0x5c8c trans=AHB_TRANS_NONSEQ burst=AHB_BURST_SINGLE size=4B mastlock=0 resp=AHB_RESP_OKAY waits=0 | data=0x6663605d
# UVM_INFO ../10_tb/ahb_slv/ahb_slv_driver.sv(87) @ 1285000: uvm_test_top.env.ahb_agent.drv [ahb_slv_driver] [DRV][AHB][REQ] AHB_WRITE addr=0x5c8c trans=AHB_TRANS_NONSEQ burst=AHB_BURST_SINGLE size=4B
# UVM_INFO ../10_tb/axi4_mst/axi4_mst_driver.sv(198) @ 1285000: uvm_test_top.env.axi_agent.drv [axi4_mst_driver] [DRV][AXI][W] id=0xa beat=10/12 data=0x6b686562 strb=0xf last=0
# UVM_INFO ../10_tb/seq/ahb_slv_seq/ahb_slv_response_mapping_seq.sv(54) @ 1285000: uvm_test_top.env.ahb_agent.sqr@@ahb_seq [ahb_slv_response_mapping_seq] [RSP][AHB] AHB_WRITE addr=0x5c8c resp=AHB_RESP_ERROR waits=3
# UVM_INFO ../10_tb/ahb_slv/ahb_slv_driver.sv(201) @ 1335000: uvm_test_top.env.ahb_agent.drv [ahb_slv_driver] [DRV][AHB][RSP] AHB_WRITE addr=0x5c8c data=0x6b686562 resp=AHB_RESP_ERROR ready_delay=3
# UVM_INFO ../10_tb/ahb_slv/ahb_slv_monitor.sv(119) @ 1335000: uvm_test_top.env.ahb_agent.mon [ahb_slv_monitor] [MON][AHB][TR] AHB AHB_WRITE addr=0x5c8c trans=AHB_TRANS_NONSEQ burst=AHB_BURST_SINGLE size=4B mastlock=0 resp=AHB_RESP_ERROR waits=4 | data=0x6b686562
# UVM_INFO ../10_tb/ahb_slv/ahb_slv_driver.sv(87) @ 1345000: uvm_test_top.env.ahb_agent.drv [ahb_slv_driver] [DRV][AHB][REQ] AHB_WRITE addr=0x5c8c trans=AHB_TRANS_NONSEQ burst=AHB_BURST_SINGLE size=4B
# UVM_INFO ../10_tb/axi4_mst/axi4_mst_driver.sv(198) @ 1345000: uvm_test_top.env.axi_agent.drv [axi4_mst_driver] [DRV][AXI][W] id=0xa beat=11/12 data=0x706d6a67 strb=0xf last=0
# UVM_INFO ../10_tb/seq/ahb_slv_seq/ahb_slv_response_mapping_seq.sv(54) @ 1345000: uvm_test_top.env.ahb_agent.sqr@@ahb_seq [ahb_slv_response_mapping_seq] [RSP][AHB] AHB_WRITE addr=0x5c8c resp=AHB_RESP_OKAY waits=0
# UVM_INFO ../10_tb/ahb_slv/ahb_slv_driver.sv(201) @ 1355000: uvm_test_top.env.ahb_agent.drv [ahb_slv_driver] [DRV][AHB][RSP] AHB_WRITE addr=0x5c8c data=0x706d6a67 resp=AHB_RESP_OKAY ready_delay=0
# UVM_INFO ../10_tb/ahb_slv/ahb_slv_monitor.sv(119) @ 1355000: uvm_test_top.env.ahb_agent.mon [ahb_slv_monitor] [MON][AHB][TR] AHB AHB_WRITE addr=0x5c8c trans=AHB_TRANS_NONSEQ burst=AHB_BURST_SINGLE size=4B mastlock=0 resp=AHB_RESP_OKAY waits=0 | data=0x706d6a67
# UVM_INFO ../10_tb/ahb_slv/ahb_slv_driver.sv(87) @ 1365000: uvm_test_top.env.ahb_agent.drv [ahb_slv_driver] [DRV][AHB][REQ] AHB_WRITE addr=0x5c8c trans=AHB_TRANS_NONSEQ burst=AHB_BURST_SINGLE size=4B
# UVM_INFO ../10_tb/axi4_mst/axi4_mst_driver.sv(198) @ 1365000: uvm_test_top.env.axi_agent.drv [axi4_mst_driver] [DRV][AXI][W] id=0xa beat=12/12 data=0x75726f6c strb=0xf last=1
# UVM_INFO ../10_tb/seq/ahb_slv_seq/ahb_slv_response_mapping_seq.sv(54) @ 1365000: uvm_test_top.env.ahb_agent.sqr@@ahb_seq [ahb_slv_response_mapping_seq] [RSP][AHB] AHB_WRITE addr=0x5c8c resp=AHB_RESP_OKAY waits=3
# UVM_INFO ../10_tb/axi4_mst/axi4_mst_monitor.sv(151) @ 1365000: uvm_test_top.env.axi_agent.mon [axi4_mst_monitor] [MON][AXI][REQ] AXI4 AXI4_WRITE id=0xa addr=0x5c8c burst=AXI4_BURST_FIXED beats=12 size=4B lock=0
# UVM_INFO ../10_tb/env/predictor.sv(75) @ 1365000: uvm_test_top.env.pred [predictor] [PRED][AXI][IN] AXI4 AXI4_WRITE id=0xa addr=0x5c8c burst=AXI4_BURST_FIXED beats=12 size=4B lock=0 | queued=1
# UVM_INFO ../10_tb/env/predictor.sv(138) @ 1365000: uvm_test_top.env.pred [predictor] [PRED][MAP] AXI4 AXI4_WRITE id=0xa addr=0x5c8c burst=AXI4_BURST_FIXED beats=12 size=4B lock=0 -> AHB burst=AHB_BURST_SINGLE size=4B crosses_1kb=0
# UVM_INFO ../10_tb/env/predictor.sv(169) @ 1365000: uvm_test_top.env.pred [predictor] [PRED][AHB] beat=1/12 | AHB AHB_WRITE addr=0x5c8c trans=AHB_TRANS_NONSEQ burst=AHB_BURST_SINGLE size=4B mastlock=0 resp=AHB_RESP_OKAY waits=0 | wdata=0x3e3b3835
# UVM_INFO ../10_tb/env/scoreboard.sv(359) @ 1365000: uvm_test_top.env.scb [scoreboard] [SCB][AHB][PASS] AHB AHB_WRITE addr=0x5c8c trans=AHB_TRANS_NONSEQ burst=AHB_BURST_SINGLE size=4B mastlock=0 resp=AHB_RESP_OKAY waits=0 | data=0x3e3b3835 | total=20
# UVM_INFO ../10_tb/env/predictor.sv(169) @ 1365000: uvm_test_top.env.pred [predictor] [PRED][AHB] beat=2/12 | AHB AHB_WRITE addr=0x5c8c trans=AHB_TRANS_NONSEQ burst=AHB_BURST_SINGLE size=4B mastlock=0 resp=AHB_RESP_OKAY waits=0 | wdata=0x43403d3a
# UVM_INFO ../10_tb/env/scoreboard.sv(359) @ 1365000: uvm_test_top.env.scb [scoreboard] [SCB][AHB][PASS] AHB AHB_WRITE addr=0x5c8c trans=AHB_TRANS_NONSEQ burst=AHB_BURST_SINGLE size=4B mastlock=0 resp=AHB_RESP_ERROR waits=1 | data=0x43403d3a | total=21
# UVM_INFO ../10_tb/env/predictor.sv(169) @ 1365000: uvm_test_top.env.pred [predictor] [PRED][AHB] beat=3/12 | AHB AHB_WRITE addr=0x5c8c trans=AHB_TRANS_NONSEQ burst=AHB_BURST_SINGLE size=4B mastlock=0 resp=AHB_RESP_OKAY waits=0 | wdata=0x4845423f
# UVM_INFO ../10_tb/env/scoreboard.sv(359) @ 1365000: uvm_test_top.env.scb [scoreboard] [SCB][AHB][PASS] AHB AHB_WRITE addr=0x5c8c trans=AHB_TRANS_NONSEQ burst=AHB_BURST_SINGLE size=4B mastlock=0 resp=AHB_RESP_OKAY waits=0 | data=0x4845423f | total=22
# UVM_INFO ../10_tb/env/predictor.sv(169) @ 1365000: uvm_test_top.env.pred [predictor] [PRED][AHB] beat=4/12 | AHB AHB_WRITE addr=0x5c8c trans=AHB_TRANS_NONSEQ burst=AHB_BURST_SINGLE size=4B mastlock=0 resp=AHB_RESP_OKAY waits=0 | wdata=0x4d4a4744
# UVM_INFO ../10_tb/env/scoreboard.sv(359) @ 1365000: uvm_test_top.env.scb [scoreboard] [SCB][AHB][PASS] AHB AHB_WRITE addr=0x5c8c trans=AHB_TRANS_NONSEQ burst=AHB_BURST_SINGLE size=4B mastlock=0 resp=AHB_RESP_OKAY waits=0 | data=0x4d4a4744 | total=23
# UVM_INFO ../10_tb/env/predictor.sv(169) @ 1365000: uvm_test_top.env.pred [predictor] [PRED][AHB] beat=5/12 | AHB AHB_WRITE addr=0x5c8c trans=AHB_TRANS_NONSEQ burst=AHB_BURST_SINGLE size=4B mastlock=0 resp=AHB_RESP_OKAY waits=0 | wdata=0x524f4c49
# UVM_INFO ../10_tb/env/scoreboard.sv(359) @ 1365000: uvm_test_top.env.scb [scoreboard] [SCB][AHB][PASS] AHB AHB_WRITE addr=0x5c8c trans=AHB_TRANS_NONSEQ burst=AHB_BURST_SINGLE size=4B mastlock=0 resp=AHB_RESP_OKAY waits=1 | data=0x524f4c49 | total=24
# UVM_INFO ../10_tb/env/predictor.sv(169) @ 1365000: uvm_test_top.env.pred [predictor] [PRED][AHB] beat=6/12 | AHB AHB_WRITE addr=0x5c8c trans=AHB_TRANS_NONSEQ burst=AHB_BURST_SINGLE size=4B mastlock=0 resp=AHB_RESP_OKAY waits=0 | wdata=0x5754514e
# UVM_INFO ../10_tb/env/scoreboard.sv(359) @ 1365000: uvm_test_top.env.scb [scoreboard] [SCB][AHB][PASS] AHB AHB_WRITE addr=0x5c8c trans=AHB_TRANS_NONSEQ burst=AHB_BURST_SINGLE size=4B mastlock=0 resp=AHB_RESP_OKAY waits=0 | data=0x5754514e | total=25
# UVM_INFO ../10_tb/env/predictor.sv(169) @ 1365000: uvm_test_top.env.pred [predictor] [PRED][AHB] beat=7/12 | AHB AHB_WRITE addr=0x5c8c trans=AHB_TRANS_NONSEQ burst=AHB_BURST_SINGLE size=4B mastlock=0 resp=AHB_RESP_OKAY waits=0 | wdata=0x5c595653
# UVM_INFO ../10_tb/env/scoreboard.sv(359) @ 1365000: uvm_test_top.env.scb [scoreboard] [SCB][AHB][PASS] AHB AHB_WRITE addr=0x5c8c trans=AHB_TRANS_NONSEQ burst=AHB_BURST_SINGLE size=4B mastlock=0 resp=AHB_RESP_OKAY waits=1 | data=0x5c595653 | total=26
# UVM_INFO ../10_tb/env/predictor.sv(169) @ 1365000: uvm_test_top.env.pred [predictor] [PRED][AHB] beat=8/12 | AHB AHB_WRITE addr=0x5c8c trans=AHB_TRANS_NONSEQ burst=AHB_BURST_SINGLE size=4B mastlock=0 resp=AHB_RESP_OKAY waits=0 | wdata=0x615e5b58
# UVM_INFO ../10_tb/env/scoreboard.sv(359) @ 1365000: uvm_test_top.env.scb [scoreboard] [SCB][AHB][PASS] AHB AHB_WRITE addr=0x5c8c trans=AHB_TRANS_NONSEQ burst=AHB_BURST_SINGLE size=4B mastlock=0 resp=AHB_RESP_OKAY waits=1 | data=0x615e5b58 | total=27
# UVM_INFO ../10_tb/env/predictor.sv(169) @ 1365000: uvm_test_top.env.pred [predictor] [PRED][AHB] beat=9/12 | AHB AHB_WRITE addr=0x5c8c trans=AHB_TRANS_NONSEQ burst=AHB_BURST_SINGLE size=4B mastlock=0 resp=AHB_RESP_OKAY waits=0 | wdata=0x6663605d
# UVM_INFO ../10_tb/env/scoreboard.sv(359) @ 1365000: uvm_test_top.env.scb [scoreboard] [SCB][AHB][PASS] AHB AHB_WRITE addr=0x5c8c trans=AHB_TRANS_NONSEQ burst=AHB_BURST_SINGLE size=4B mastlock=0 resp=AHB_RESP_OKAY waits=0 | data=0x6663605d | total=28
# UVM_INFO ../10_tb/env/predictor.sv(169) @ 1365000: uvm_test_top.env.pred [predictor] [PRED][AHB] beat=10/12 | AHB AHB_WRITE addr=0x5c8c trans=AHB_TRANS_NONSEQ burst=AHB_BURST_SINGLE size=4B mastlock=0 resp=AHB_RESP_OKAY waits=0 | wdata=0x6b686562
# UVM_INFO ../10_tb/env/scoreboard.sv(359) @ 1365000: uvm_test_top.env.scb [scoreboard] [SCB][AHB][PASS] AHB AHB_WRITE addr=0x5c8c trans=AHB_TRANS_NONSEQ burst=AHB_BURST_SINGLE size=4B mastlock=0 resp=AHB_RESP_ERROR waits=4 | data=0x6b686562 | total=29
# UVM_INFO ../10_tb/env/predictor.sv(169) @ 1365000: uvm_test_top.env.pred [predictor] [PRED][AHB] beat=11/12 | AHB AHB_WRITE addr=0x5c8c trans=AHB_TRANS_NONSEQ burst=AHB_BURST_SINGLE size=4B mastlock=0 resp=AHB_RESP_OKAY waits=0 | wdata=0x706d6a67
# UVM_INFO ../10_tb/env/scoreboard.sv(359) @ 1365000: uvm_test_top.env.scb [scoreboard] [SCB][AHB][PASS] AHB AHB_WRITE addr=0x5c8c trans=AHB_TRANS_NONSEQ burst=AHB_BURST_SINGLE size=4B mastlock=0 resp=AHB_RESP_OKAY waits=0 | data=0x706d6a67 | total=30
# UVM_INFO ../10_tb/env/predictor.sv(169) @ 1365000: uvm_test_top.env.pred [predictor] [PRED][AHB] beat=12/12 | AHB AHB_WRITE addr=0x5c8c trans=AHB_TRANS_NONSEQ burst=AHB_BURST_SINGLE size=4B mastlock=0 resp=AHB_RESP_OKAY waits=0 | wdata=0x75726f6c
# UVM_INFO ../10_tb/ahb_slv/ahb_slv_driver.sv(201) @ 1405000: uvm_test_top.env.ahb_agent.drv [ahb_slv_driver] [DRV][AHB][RSP] AHB_WRITE addr=0x5c8c data=0x75726f6c resp=AHB_RESP_OKAY ready_delay=3
# UVM_INFO ../10_tb/ahb_slv/ahb_slv_monitor.sv(119) @ 1405000: uvm_test_top.env.ahb_agent.mon [ahb_slv_monitor] [MON][AHB][TR] AHB AHB_WRITE addr=0x5c8c trans=AHB_TRANS_NONSEQ burst=AHB_BURST_SINGLE size=4B mastlock=0 resp=AHB_RESP_OKAY waits=3 | data=0x75726f6c
# UVM_INFO ../10_tb/env/scoreboard.sv(359) @ 1405000: uvm_test_top.env.scb [scoreboard] [SCB][AHB][PASS] AHB AHB_WRITE addr=0x5c8c trans=AHB_TRANS_NONSEQ burst=AHB_BURST_SINGLE size=4B mastlock=0 resp=AHB_RESP_OKAY waits=3 | data=0x75726f6c | total=31
# UVM_INFO ../10_tb/axi4_mst/axi4_mst_driver.sv(250) @ 1445000: uvm_test_top.env.axi_agent.drv [axi4_mst_driver] [DRV][AXI][B] id=0xa resp=AXI4_RESP_SLVERR
# UVM_INFO ../10_tb/axi4_mst/axi4_mst_monitor.sv(177) @ 1445000: uvm_test_top.env.axi_agent.mon [axi4_mst_monitor] [MON][AXI][RSP] WRITE id=0xa resp=AXI4_RESP_SLVERR
# UVM_INFO ../10_tb/env/scoreboard.sv(499) @ 1445000: uvm_test_top.env.scb [scoreboard] [SCB][AXI][PASS] AXI4 AXI4_WRITE id=0xa addr=0x5c8c burst=AXI4_BURST_FIXED beats=12 size=4B lock=0 | bresp=AXI4_RESP_SLVERR | total=4
# UVM_INFO ../10_tb/axi4_mst/axi4_mst_driver.sv(105) @ 1445000: uvm_test_top.env.axi_agent.drv [axi4_mst_driver] [DRV][AXI][REQ] AXI4 AXI4_READ id=0xb addr=0x70d4 burst=AXI4_BURST_WRAP beats=8 size=4B lock=0 | outstanding=1
# UVM_INFO ../10_tb/axi4_mst/axi4_mst_driver.sv(225) @ 1475000: uvm_test_top.env.axi_agent.drv [axi4_mst_driver] [DRV][AXI][AR] id=0xb addr=0x70d4 burst=AXI4_BURST_WRAP beats=8 size=4B
# UVM_INFO ../10_tb/axi4_mst/axi4_mst_monitor.sv(211) @ 1475000: uvm_test_top.env.axi_agent.mon [axi4_mst_monitor] [MON][AXI][REQ] AXI4 AXI4_READ id=0xb addr=0x70d4 burst=AXI4_BURST_WRAP beats=8 size=4B lock=0
# UVM_INFO ../10_tb/env/predictor.sv(75) @ 1475000: uvm_test_top.env.pred [predictor] [PRED][AXI][IN] AXI4 AXI4_READ id=0xb addr=0x70d4 burst=AXI4_BURST_WRAP beats=8 size=4B lock=0 | queued=1
# UVM_INFO ../10_tb/env/predictor.sv(138) @ 1475000: uvm_test_top.env.pred [predictor] [PRED][MAP] AXI4 AXI4_READ id=0xb addr=0x70d4 burst=AXI4_BURST_WRAP beats=8 size=4B lock=0 -> AHB burst=AHB_BURST_WRAP8 size=4B crosses_1kb=0
# UVM_INFO ../10_tb/env/predictor.sv(175) @ 1475000: uvm_test_top.env.pred [predictor] [PRED][AHB] beat=1/8 | AHB AHB_READ addr=0x70d4 trans=AHB_TRANS_NONSEQ burst=AHB_BURST_WRAP8 size=4B mastlock=0 resp=AHB_RESP_OKAY waits=0
# UVM_INFO ../10_tb/env/predictor.sv(175) @ 1475000: uvm_test_top.env.pred [predictor] [PRED][AHB] beat=2/8 | AHB AHB_READ addr=0x70d8 trans=AHB_TRANS_SEQ burst=AHB_BURST_WRAP8 size=4B mastlock=0 resp=AHB_RESP_OKAY waits=0
# UVM_INFO ../10_tb/env/predictor.sv(175) @ 1475000: uvm_test_top.env.pred [predictor] [PRED][AHB] beat=3/8 | AHB AHB_READ addr=0x70dc trans=AHB_TRANS_SEQ burst=AHB_BURST_WRAP8 size=4B mastlock=0 resp=AHB_RESP_OKAY waits=0
# UVM_INFO ../10_tb/env/predictor.sv(175) @ 1475000: uvm_test_top.env.pred [predictor] [PRED][AHB] beat=4/8 | AHB AHB_READ addr=0x70c0 trans=AHB_TRANS_SEQ burst=AHB_BURST_WRAP8 size=4B mastlock=0 resp=AHB_RESP_OKAY waits=0
# UVM_INFO ../10_tb/env/predictor.sv(175) @ 1475000: uvm_test_top.env.pred [predictor] [PRED][AHB] beat=5/8 | AHB AHB_READ addr=0x70c4 trans=AHB_TRANS_SEQ burst=AHB_BURST_WRAP8 size=4B mastlock=0 resp=AHB_RESP_OKAY waits=0
# UVM_INFO ../10_tb/env/predictor.sv(175) @ 1475000: uvm_test_top.env.pred [predictor] [PRED][AHB] beat=6/8 | AHB AHB_READ addr=0x70c8 trans=AHB_TRANS_SEQ burst=AHB_BURST_WRAP8 size=4B mastlock=0 resp=AHB_RESP_OKAY waits=0
# UVM_INFO ../10_tb/env/predictor.sv(175) @ 1475000: uvm_test_top.env.pred [predictor] [PRED][AHB] beat=7/8 | AHB AHB_READ addr=0x70cc trans=AHB_TRANS_SEQ burst=AHB_BURST_WRAP8 size=4B mastlock=0 resp=AHB_RESP_OKAY waits=0
# UVM_INFO ../10_tb/env/predictor.sv(175) @ 1475000: uvm_test_top.env.pred [predictor] [PRED][AHB] beat=8/8 | AHB AHB_READ addr=0x70d0 trans=AHB_TRANS_SEQ burst=AHB_BURST_WRAP8 size=4B mastlock=0 resp=AHB_RESP_OKAY waits=0
# UVM_INFO ../10_tb/ahb_slv/ahb_slv_driver.sv(87) @ 1485000: uvm_test_top.env.ahb_agent.drv [ahb_slv_driver] [DRV][AHB][REQ] AHB_READ addr=0x70d4 trans=AHB_TRANS_NONSEQ burst=AHB_BURST_WRAP8 size=4B
# UVM_INFO ../10_tb/seq/ahb_slv_seq/ahb_slv_response_mapping_seq.sv(54) @ 1485000: uvm_test_top.env.ahb_agent.sqr@@ahb_seq [ahb_slv_response_mapping_seq] [RSP][AHB] AHB_READ addr=0x70d4 resp=AHB_RESP_ERROR waits=1
# UVM_INFO ../10_tb/ahb_slv/ahb_slv_driver.sv(201) @ 1515000: uvm_test_top.env.ahb_agent.drv [ahb_slv_driver] [DRV][AHB][RSP] AHB_READ addr=0x70d4 data=0xffff8f2b resp=AHB_RESP_ERROR ready_delay=1
# UVM_INFO ../10_tb/ahb_slv/ahb_slv_monitor.sv(119) @ 1515000: uvm_test_top.env.ahb_agent.mon [ahb_slv_monitor] [MON][AHB][TR] AHB AHB_READ addr=0x70d4 trans=AHB_TRANS_NONSEQ burst=AHB_BURST_WRAP8 size=4B mastlock=0 resp=AHB_RESP_ERROR waits=2 | data=0xffff8f2b
# UVM_INFO ../10_tb/env/scoreboard.sv(359) @ 1515000: uvm_test_top.env.scb [scoreboard] [SCB][AHB][PASS] AHB AHB_READ addr=0x70d4 trans=AHB_TRANS_NONSEQ burst=AHB_BURST_WRAP8 size=4B mastlock=0 resp=AHB_RESP_ERROR waits=2 | data=0xffff8f2b | total=32
# UVM_INFO ../10_tb/ahb_slv/ahb_slv_driver.sv(87) @ 1525000: uvm_test_top.env.ahb_agent.drv [ahb_slv_driver] [DRV][AHB][REQ] AHB_READ addr=0x70d8 trans=AHB_TRANS_SEQ burst=AHB_BURST_WRAP8 size=4B
# UVM_INFO ../10_tb/seq/ahb_slv_seq/ahb_slv_response_mapping_seq.sv(54) @ 1525000: uvm_test_top.env.ahb_agent.sqr@@ahb_seq [ahb_slv_response_mapping_seq] [RSP][AHB] AHB_READ addr=0x70d8 resp=AHB_RESP_OKAY waits=0
# UVM_INFO ../10_tb/ahb_slv/ahb_slv_driver.sv(201) @ 1535000: uvm_test_top.env.ahb_agent.drv [ahb_slv_driver] [DRV][AHB][RSP] AHB_READ addr=0x70d8 data=0xffff8f27 resp=AHB_RESP_OKAY ready_delay=0
# UVM_INFO ../10_tb/ahb_slv/ahb_slv_monitor.sv(119) @ 1535000: uvm_test_top.env.ahb_agent.mon [ahb_slv_monitor] [MON][AHB][TR] AHB AHB_READ addr=0x70d8 trans=AHB_TRANS_SEQ burst=AHB_BURST_WRAP8 size=4B mastlock=0 resp=AHB_RESP_OKAY waits=0 | data=0xffff8f27
# UVM_INFO ../10_tb/env/scoreboard.sv(359) @ 1535000: uvm_test_top.env.scb [scoreboard] [SCB][AHB][PASS] AHB AHB_READ addr=0x70d8 trans=AHB_TRANS_SEQ burst=AHB_BURST_WRAP8 size=4B mastlock=0 resp=AHB_RESP_OKAY waits=0 | data=0xffff8f27 | total=33
# UVM_INFO ../10_tb/ahb_slv/ahb_slv_driver.sv(87) @ 1545000: uvm_test_top.env.ahb_agent.drv [ahb_slv_driver] [DRV][AHB][REQ] AHB_READ addr=0x70dc trans=AHB_TRANS_SEQ burst=AHB_BURST_WRAP8 size=4B
# UVM_INFO ../10_tb/seq/ahb_slv_seq/ahb_slv_response_mapping_seq.sv(54) @ 1545000: uvm_test_top.env.ahb_agent.sqr@@ahb_seq [ahb_slv_response_mapping_seq] [RSP][AHB] AHB_READ addr=0x70dc resp=AHB_RESP_OKAY waits=2
# UVM_INFO ../10_tb/axi4_mst/axi4_mst_driver.sv(290) @ 1555000: uvm_test_top.env.axi_agent.drv [axi4_mst_driver] [DRV][AXI][R] id=0xb beat=1/8 data=0xffff8f2b resp=AXI4_RESP_SLVERR last=0
# UVM_INFO ../10_tb/axi4_mst/axi4_mst_monitor.sv(256) @ 1555000: uvm_test_top.env.axi_agent.mon [axi4_mst_monitor] [MON][AXI][R] id=0xb beat=1/8 data=0xffff8f2b resp=AXI4_RESP_SLVERR last=0
# UVM_INFO ../10_tb/ahb_slv/ahb_slv_driver.sv(201) @ 1575000: uvm_test_top.env.ahb_agent.drv [ahb_slv_driver] [DRV][AHB][RSP] AHB_READ addr=0x70dc data=0xffff8f23 resp=AHB_RESP_OKAY ready_delay=2
# UVM_INFO ../10_tb/ahb_slv/ahb_slv_monitor.sv(119) @ 1575000: uvm_test_top.env.ahb_agent.mon [ahb_slv_monitor] [MON][AHB][TR] AHB AHB_READ addr=0x70dc trans=AHB_TRANS_SEQ burst=AHB_BURST_WRAP8 size=4B mastlock=0 resp=AHB_RESP_OKAY waits=2 | data=0xffff8f23
# UVM_INFO ../10_tb/env/scoreboard.sv(359) @ 1575000: uvm_test_top.env.scb [scoreboard] [SCB][AHB][PASS] AHB AHB_READ addr=0x70dc trans=AHB_TRANS_SEQ burst=AHB_BURST_WRAP8 size=4B mastlock=0 resp=AHB_RESP_OKAY waits=2 | data=0xffff8f23 | total=34
# UVM_INFO ../10_tb/axi4_mst/axi4_mst_driver.sv(290) @ 1575000: uvm_test_top.env.axi_agent.drv [axi4_mst_driver] [DRV][AXI][R] id=0xb beat=2/8 data=0xffff8f27 resp=AXI4_RESP_OKAY last=0
# UVM_INFO ../10_tb/axi4_mst/axi4_mst_monitor.sv(256) @ 1575000: uvm_test_top.env.axi_agent.mon [axi4_mst_monitor] [MON][AXI][R] id=0xb beat=2/8 data=0xffff8f27 resp=AXI4_RESP_OKAY last=0
# UVM_INFO ../10_tb/ahb_slv/ahb_slv_driver.sv(87) @ 1585000: uvm_test_top.env.ahb_agent.drv [ahb_slv_driver] [DRV][AHB][REQ] AHB_READ addr=0x70c0 trans=AHB_TRANS_SEQ burst=AHB_BURST_WRAP8 size=4B
# UVM_INFO ../10_tb/seq/ahb_slv_seq/ahb_slv_response_mapping_seq.sv(54) @ 1585000: uvm_test_top.env.ahb_agent.sqr@@ahb_seq [ahb_slv_response_mapping_seq] [RSP][AHB] AHB_READ addr=0x70c0 resp=AHB_RESP_OKAY waits=0
# UVM_INFO ../10_tb/ahb_slv/ahb_slv_driver.sv(201) @ 1595000: uvm_test_top.env.ahb_agent.drv [ahb_slv_driver] [DRV][AHB][RSP] AHB_READ addr=0x70c0 data=0xffff8f3f resp=AHB_RESP_OKAY ready_delay=0
# UVM_INFO ../10_tb/ahb_slv/ahb_slv_monitor.sv(119) @ 1595000: uvm_test_top.env.ahb_agent.mon [ahb_slv_monitor] [MON][AHB][TR] AHB AHB_READ addr=0x70c0 trans=AHB_TRANS_SEQ burst=AHB_BURST_WRAP8 size=4B mastlock=0 resp=AHB_RESP_OKAY waits=0 | data=0xffff8f3f
# UVM_INFO ../10_tb/env/scoreboard.sv(359) @ 1595000: uvm_test_top.env.scb [scoreboard] [SCB][AHB][PASS] AHB AHB_READ addr=0x70c0 trans=AHB_TRANS_SEQ burst=AHB_BURST_WRAP8 size=4B mastlock=0 resp=AHB_RESP_OKAY waits=0 | data=0xffff8f3f | total=35
# UVM_INFO ../10_tb/ahb_slv/ahb_slv_driver.sv(87) @ 1605000: uvm_test_top.env.ahb_agent.drv [ahb_slv_driver] [DRV][AHB][REQ] AHB_READ addr=0x70c4 trans=AHB_TRANS_SEQ burst=AHB_BURST_WRAP8 size=4B
# UVM_INFO ../10_tb/axi4_mst/axi4_mst_driver.sv(290) @ 1605000: uvm_test_top.env.axi_agent.drv [axi4_mst_driver] [DRV][AXI][R] id=0xb beat=3/8 data=0xffff8f23 resp=AXI4_RESP_OKAY last=0
# UVM_INFO ../10_tb/axi4_mst/axi4_mst_monitor.sv(256) @ 1605000: uvm_test_top.env.axi_agent.mon [axi4_mst_monitor] [MON][AXI][R] id=0xb beat=3/8 data=0xffff8f23 resp=AXI4_RESP_OKAY last=0
# UVM_INFO ../10_tb/seq/ahb_slv_seq/ahb_slv_response_mapping_seq.sv(54) @ 1605000: uvm_test_top.env.ahb_agent.sqr@@ahb_seq [ahb_slv_response_mapping_seq] [RSP][AHB] AHB_READ addr=0x70c4 resp=AHB_RESP_OKAY waits=1
# UVM_INFO ../10_tb/ahb_slv/ahb_slv_driver.sv(201) @ 1625000: uvm_test_top.env.ahb_agent.drv [ahb_slv_driver] [DRV][AHB][RSP] AHB_READ addr=0x70c4 data=0xffff8f3b resp=AHB_RESP_OKAY ready_delay=1
# UVM_INFO ../10_tb/ahb_slv/ahb_slv_monitor.sv(119) @ 1625000: uvm_test_top.env.ahb_agent.mon [ahb_slv_monitor] [MON][AHB][TR] AHB AHB_READ addr=0x70c4 trans=AHB_TRANS_SEQ burst=AHB_BURST_WRAP8 size=4B mastlock=0 resp=AHB_RESP_OKAY waits=1 | data=0xffff8f3b
# UVM_INFO ../10_tb/env/scoreboard.sv(359) @ 1625000: uvm_test_top.env.scb [scoreboard] [SCB][AHB][PASS] AHB AHB_READ addr=0x70c4 trans=AHB_TRANS_SEQ burst=AHB_BURST_WRAP8 size=4B mastlock=0 resp=AHB_RESP_OKAY waits=1 | data=0xffff8f3b | total=36
# UVM_INFO ../10_tb/ahb_slv/ahb_slv_driver.sv(87) @ 1635000: uvm_test_top.env.ahb_agent.drv [ahb_slv_driver] [DRV][AHB][REQ] AHB_READ addr=0x70c8 trans=AHB_TRANS_SEQ burst=AHB_BURST_WRAP8 size=4B
# UVM_INFO ../10_tb/axi4_mst/axi4_mst_driver.sv(290) @ 1635000: uvm_test_top.env.axi_agent.drv [axi4_mst_driver] [DRV][AXI][R] id=0xb beat=4/8 data=0xffff8f3f resp=AXI4_RESP_OKAY last=0
# UVM_INFO ../10_tb/axi4_mst/axi4_mst_monitor.sv(256) @ 1635000: uvm_test_top.env.axi_agent.mon [axi4_mst_monitor] [MON][AXI][R] id=0xb beat=4/8 data=0xffff8f3f resp=AXI4_RESP_OKAY last=0
# UVM_INFO ../10_tb/seq/ahb_slv_seq/ahb_slv_response_mapping_seq.sv(54) @ 1635000: uvm_test_top.env.ahb_agent.sqr@@ahb_seq [ahb_slv_response_mapping_seq] [RSP][AHB] AHB_READ addr=0x70c8 resp=AHB_RESP_OKAY waits=0
# UVM_INFO ../10_tb/ahb_slv/ahb_slv_driver.sv(201) @ 1645000: uvm_test_top.env.ahb_agent.drv [ahb_slv_driver] [DRV][AHB][RSP] AHB_READ addr=0x70c8 data=0xffff8f37 resp=AHB_RESP_OKAY ready_delay=0
# UVM_INFO ../10_tb/ahb_slv/ahb_slv_monitor.sv(119) @ 1645000: uvm_test_top.env.ahb_agent.mon [ahb_slv_monitor] [MON][AHB][TR] AHB AHB_READ addr=0x70c8 trans=AHB_TRANS_SEQ burst=AHB_BURST_WRAP8 size=4B mastlock=0 resp=AHB_RESP_OKAY waits=0 | data=0xffff8f37
# UVM_INFO ../10_tb/env/scoreboard.sv(359) @ 1645000: uvm_test_top.env.scb [scoreboard] [SCB][AHB][PASS] AHB AHB_READ addr=0x70c8 trans=AHB_TRANS_SEQ burst=AHB_BURST_WRAP8 size=4B mastlock=0 resp=AHB_RESP_OKAY waits=0 | data=0xffff8f37 | total=37
# UVM_INFO ../10_tb/ahb_slv/ahb_slv_driver.sv(87) @ 1655000: uvm_test_top.env.ahb_agent.drv [ahb_slv_driver] [DRV][AHB][REQ] AHB_READ addr=0x70cc trans=AHB_TRANS_SEQ burst=AHB_BURST_WRAP8 size=4B
# UVM_INFO ../10_tb/seq/ahb_slv_seq/ahb_slv_response_mapping_seq.sv(54) @ 1655000: uvm_test_top.env.ahb_agent.sqr@@ahb_seq [ahb_slv_response_mapping_seq] [RSP][AHB] AHB_READ addr=0x70cc resp=AHB_RESP_ERROR waits=0
# UVM_INFO ../10_tb/ahb_slv/ahb_slv_driver.sv(201) @ 1675000: uvm_test_top.env.ahb_agent.drv [ahb_slv_driver] [DRV][AHB][RSP] AHB_READ addr=0x70cc data=0xffff8f33 resp=AHB_RESP_ERROR ready_delay=0
# UVM_INFO ../10_tb/ahb_slv/ahb_slv_monitor.sv(119) @ 1675000: uvm_test_top.env.ahb_agent.mon [ahb_slv_monitor] [MON][AHB][TR] AHB AHB_READ addr=0x70cc trans=AHB_TRANS_SEQ burst=AHB_BURST_WRAP8 size=4B mastlock=0 resp=AHB_RESP_ERROR waits=1 | data=0xffff8f33
# UVM_INFO ../10_tb/env/scoreboard.sv(359) @ 1675000: uvm_test_top.env.scb [scoreboard] [SCB][AHB][PASS] AHB AHB_READ addr=0x70cc trans=AHB_TRANS_SEQ burst=AHB_BURST_WRAP8 size=4B mastlock=0 resp=AHB_RESP_ERROR waits=1 | data=0xffff8f33 | total=38
# UVM_INFO ../10_tb/axi4_mst/axi4_mst_driver.sv(290) @ 1675000: uvm_test_top.env.axi_agent.drv [axi4_mst_driver] [DRV][AXI][R] id=0xb beat=5/8 data=0xffff8f3b resp=AXI4_RESP_OKAY last=0
# UVM_INFO ../10_tb/axi4_mst/axi4_mst_monitor.sv(256) @ 1675000: uvm_test_top.env.axi_agent.mon [axi4_mst_monitor] [MON][AXI][R] id=0xb beat=5/8 data=0xffff8f3b resp=AXI4_RESP_OKAY last=0
# UVM_INFO ../10_tb/ahb_slv/ahb_slv_driver.sv(87) @ 1695000: uvm_test_top.env.ahb_agent.drv [ahb_slv_driver] [DRV][AHB][REQ] AHB_READ addr=0x70d0 trans=AHB_TRANS_SEQ burst=AHB_BURST_WRAP8 size=4B
# UVM_INFO ../10_tb/axi4_mst/axi4_mst_driver.sv(290) @ 1695000: uvm_test_top.env.axi_agent.drv [axi4_mst_driver] [DRV][AXI][R] id=0xb beat=6/8 data=0xffff8f37 resp=AXI4_RESP_OKAY last=0
# UVM_INFO ../10_tb/axi4_mst/axi4_mst_monitor.sv(256) @ 1695000: uvm_test_top.env.axi_agent.mon [axi4_mst_monitor] [MON][AXI][R] id=0xb beat=6/8 data=0xffff8f37 resp=AXI4_RESP_OKAY last=0
# UVM_INFO ../10_tb/seq/ahb_slv_seq/ahb_slv_response_mapping_seq.sv(54) @ 1695000: uvm_test_top.env.ahb_agent.sqr@@ahb_seq [ahb_slv_response_mapping_seq] [RSP][AHB] AHB_READ addr=0x70d0 resp=AHB_RESP_OKAY waits=0
# UVM_INFO ../10_tb/ahb_slv/ahb_slv_driver.sv(201) @ 1705000: uvm_test_top.env.ahb_agent.drv [ahb_slv_driver] [DRV][AHB][RSP] AHB_READ addr=0x70d0 data=0xffff8f2f resp=AHB_RESP_OKAY ready_delay=0
# UVM_INFO ../10_tb/ahb_slv/ahb_slv_monitor.sv(119) @ 1705000: uvm_test_top.env.ahb_agent.mon [ahb_slv_monitor] [MON][AHB][TR] AHB AHB_READ addr=0x70d0 trans=AHB_TRANS_SEQ burst=AHB_BURST_WRAP8 size=4B mastlock=0 resp=AHB_RESP_OKAY waits=0 | data=0xffff8f2f
# UVM_INFO ../10_tb/env/scoreboard.sv(359) @ 1705000: uvm_test_top.env.scb [scoreboard] [SCB][AHB][PASS] AHB AHB_READ addr=0x70d0 trans=AHB_TRANS_SEQ burst=AHB_BURST_WRAP8 size=4B mastlock=0 resp=AHB_RESP_OKAY waits=0 | data=0xffff8f2f | total=39
# UVM_INFO ../10_tb/axi4_mst/axi4_mst_driver.sv(290) @ 1735000: uvm_test_top.env.axi_agent.drv [axi4_mst_driver] [DRV][AXI][R] id=0xb beat=7/8 data=0xffff8f33 resp=AXI4_RESP_SLVERR last=0
# UVM_INFO ../10_tb/axi4_mst/axi4_mst_monitor.sv(256) @ 1735000: uvm_test_top.env.axi_agent.mon [axi4_mst_monitor] [MON][AXI][R] id=0xb beat=7/8 data=0xffff8f33 resp=AXI4_RESP_SLVERR last=0
# UVM_INFO ../10_tb/axi4_mst/axi4_mst_driver.sv(290) @ 1775000: uvm_test_top.env.axi_agent.drv [axi4_mst_driver] [DRV][AXI][R] id=0xb beat=8/8 data=0xffff8f2f resp=AXI4_RESP_OKAY last=1
# UVM_INFO ../10_tb/axi4_mst/axi4_mst_monitor.sv(256) @ 1775000: uvm_test_top.env.axi_agent.mon [axi4_mst_monitor] [MON][AXI][R] id=0xb beat=8/8 data=0xffff8f2f resp=AXI4_RESP_OKAY last=1
# UVM_INFO ../10_tb/axi4_mst/axi4_mst_monitor.sv(262) @ 1775000: uvm_test_top.env.axi_agent.mon [axi4_mst_monitor] [MON][AXI][RSP] READ id=0xb beats=8
# UVM_INFO ../10_tb/env/scoreboard.sv(506) @ 1775000: uvm_test_top.env.scb [scoreboard] [SCB][AXI][PASS] AXI4 AXI4_READ id=0xb addr=0x70d4 burst=AXI4_BURST_WRAP beats=8 size=4B lock=0 | read beats=8 | total=5
# UVM_INFO ../10_tb/axi4_mst/axi4_mst_driver.sv(105) @ 1775000: uvm_test_top.env.axi_agent.drv [axi4_mst_driver] [DRV][AXI][REQ] AXI4 AXI4_WRITE id=0xa addr=0x7040 burst=AXI4_BURST_WRAP beats=16 size=4B lock=0 | outstanding=1
# UVM_INFO ../10_tb/axi4_mst/axi4_mst_driver.sv(178) @ 1815000: uvm_test_top.env.axi_agent.drv [axi4_mst_driver] [DRV][AXI][AW] id=0xa addr=0x7040 burst=AXI4_BURST_WRAP beats=16 size=4B
# UVM_INFO ../10_tb/axi4_mst/axi4_mst_driver.sv(198) @ 1815000: uvm_test_top.env.axi_agent.drv [axi4_mst_driver] [DRV][AXI][W] id=0xa beat=1/16 data=0x4c494643 strb=0xf last=0
# UVM_INFO ../10_tb/ahb_slv/ahb_slv_driver.sv(87) @ 1825000: uvm_test_top.env.ahb_agent.drv [ahb_slv_driver] [DRV][AHB][REQ] AHB_WRITE addr=0x7040 trans=AHB_TRANS_NONSEQ burst=AHB_BURST_WRAP16 size=4B
# UVM_INFO ../10_tb/seq/ahb_slv_seq/ahb_slv_response_mapping_seq.sv(54) @ 1825000: uvm_test_top.env.ahb_agent.sqr@@ahb_seq [ahb_slv_response_mapping_seq] [RSP][AHB] AHB_WRITE addr=0x7040 resp=AHB_RESP_OKAY waits=3
# UVM_INFO ../10_tb/ahb_slv/ahb_slv_driver.sv(201) @ 1865000: uvm_test_top.env.ahb_agent.drv [ahb_slv_driver] [DRV][AHB][RSP] AHB_WRITE addr=0x7040 data=0x4c494643 resp=AHB_RESP_OKAY ready_delay=3
# UVM_INFO ../10_tb/ahb_slv/ahb_slv_monitor.sv(119) @ 1865000: uvm_test_top.env.ahb_agent.mon [ahb_slv_monitor] [MON][AHB][TR] AHB AHB_WRITE addr=0x7040 trans=AHB_TRANS_NONSEQ burst=AHB_BURST_WRAP16 size=4B mastlock=0 resp=AHB_RESP_OKAY waits=3 | data=0x4c494643
# UVM_INFO ../10_tb/ahb_slv/ahb_slv_driver.sv(87) @ 1875000: uvm_test_top.env.ahb_agent.drv [ahb_slv_driver] [DRV][AHB][REQ] AHB_WRITE addr=0x7044 trans=AHB_TRANS_SEQ burst=AHB_BURST_WRAP16 size=4B
# UVM_INFO ../10_tb/axi4_mst/axi4_mst_driver.sv(198) @ 1875000: uvm_test_top.env.axi_agent.drv [axi4_mst_driver] [DRV][AXI][W] id=0xa beat=2/16 data=0x514e4b48 strb=0xf last=0
# UVM_INFO ../10_tb/seq/ahb_slv_seq/ahb_slv_response_mapping_seq.sv(54) @ 1875000: uvm_test_top.env.ahb_agent.sqr@@ahb_seq [ahb_slv_response_mapping_seq] [RSP][AHB] AHB_WRITE addr=0x7044 resp=AHB_RESP_ERROR waits=0
# UVM_INFO ../10_tb/ahb_slv/ahb_slv_driver.sv(201) @ 1895000: uvm_test_top.env.ahb_agent.drv [ahb_slv_driver] [DRV][AHB][RSP] AHB_WRITE addr=0x7044 data=0x514e4b48 resp=AHB_RESP_ERROR ready_delay=0
# UVM_INFO ../10_tb/ahb_slv/ahb_slv_monitor.sv(119) @ 1895000: uvm_test_top.env.ahb_agent.mon [ahb_slv_monitor] [MON][AHB][TR] AHB AHB_WRITE addr=0x7044 trans=AHB_TRANS_SEQ burst=AHB_BURST_WRAP16 size=4B mastlock=0 resp=AHB_RESP_ERROR waits=1 | data=0x514e4b48
# UVM_INFO ../10_tb/ahb_slv/ahb_slv_driver.sv(87) @ 1905000: uvm_test_top.env.ahb_agent.drv [ahb_slv_driver] [DRV][AHB][REQ] AHB_WRITE addr=0x7048 trans=AHB_TRANS_SEQ burst=AHB_BURST_WRAP16 size=4B
# UVM_INFO ../10_tb/axi4_mst/axi4_mst_driver.sv(198) @ 1905000: uvm_test_top.env.axi_agent.drv [axi4_mst_driver] [DRV][AXI][W] id=0xa beat=3/16 data=0x5653504d strb=0xf last=0
# UVM_INFO ../10_tb/seq/ahb_slv_seq/ahb_slv_response_mapping_seq.sv(54) @ 1905000: uvm_test_top.env.ahb_agent.sqr@@ahb_seq [ahb_slv_response_mapping_seq] [RSP][AHB] AHB_WRITE addr=0x7048 resp=AHB_RESP_OKAY waits=0
# UVM_INFO ../10_tb/ahb_slv/ahb_slv_driver.sv(201) @ 1915000: uvm_test_top.env.ahb_agent.drv [ahb_slv_driver] [DRV][AHB][RSP] AHB_WRITE addr=0x7048 data=0x5653504d resp=AHB_RESP_OKAY ready_delay=0
# UVM_INFO ../10_tb/ahb_slv/ahb_slv_monitor.sv(119) @ 1915000: uvm_test_top.env.ahb_agent.mon [ahb_slv_monitor] [MON][AHB][TR] AHB AHB_WRITE addr=0x7048 trans=AHB_TRANS_SEQ burst=AHB_BURST_WRAP16 size=4B mastlock=0 resp=AHB_RESP_OKAY waits=0 | data=0x5653504d
# UVM_INFO ../10_tb/ahb_slv/ahb_slv_driver.sv(87) @ 1925000: uvm_test_top.env.ahb_agent.drv [ahb_slv_driver] [DRV][AHB][REQ] AHB_WRITE addr=0x704c trans=AHB_TRANS_SEQ burst=AHB_BURST_WRAP16 size=4B
# UVM_INFO ../10_tb/axi4_mst/axi4_mst_driver.sv(198) @ 1925000: uvm_test_top.env.axi_agent.drv [axi4_mst_driver] [DRV][AXI][W] id=0xa beat=4/16 data=0x5b585552 strb=0xf last=0
# UVM_INFO ../10_tb/seq/ahb_slv_seq/ahb_slv_response_mapping_seq.sv(54) @ 1925000: uvm_test_top.env.ahb_agent.sqr@@ahb_seq [ahb_slv_response_mapping_seq] [RSP][AHB] AHB_WRITE addr=0x704c resp=AHB_RESP_OKAY waits=4
# UVM_INFO ../10_tb/ahb_slv/ahb_slv_driver.sv(201) @ 1975000: uvm_test_top.env.ahb_agent.drv [ahb_slv_driver] [DRV][AHB][RSP] AHB_WRITE addr=0x704c data=0x5b585552 resp=AHB_RESP_OKAY ready_delay=4
# UVM_INFO ../10_tb/ahb_slv/ahb_slv_monitor.sv(119) @ 1975000: uvm_test_top.env.ahb_agent.mon [ahb_slv_monitor] [MON][AHB][TR] AHB AHB_WRITE addr=0x704c trans=AHB_TRANS_SEQ burst=AHB_BURST_WRAP16 size=4B mastlock=0 resp=AHB_RESP_OKAY waits=4 | data=0x5b585552
# UVM_INFO ../10_tb/ahb_slv/ahb_slv_driver.sv(87) @ 1985000: uvm_test_top.env.ahb_agent.drv [ahb_slv_driver] [DRV][AHB][REQ] AHB_WRITE addr=0x7050 trans=AHB_TRANS_SEQ burst=AHB_BURST_WRAP16 size=4B
# UVM_INFO ../10_tb/axi4_mst/axi4_mst_driver.sv(198) @ 1985000: uvm_test_top.env.axi_agent.drv [axi4_mst_driver] [DRV][AXI][W] id=0xa beat=5/16 data=0x605d5a57 strb=0xf last=0
# UVM_INFO ../10_tb/seq/ahb_slv_seq/ahb_slv_response_mapping_seq.sv(54) @ 1985000: uvm_test_top.env.ahb_agent.sqr@@ahb_seq [ahb_slv_response_mapping_seq] [RSP][AHB] AHB_WRITE addr=0x7050 resp=AHB_RESP_OKAY waits=1
# UVM_INFO ../10_tb/ahb_slv/ahb_slv_driver.sv(201) @ 2005000: uvm_test_top.env.ahb_agent.drv [ahb_slv_driver] [DRV][AHB][RSP] AHB_WRITE addr=0x7050 data=0x605d5a57 resp=AHB_RESP_OKAY ready_delay=1
# UVM_INFO ../10_tb/ahb_slv/ahb_slv_monitor.sv(119) @ 2005000: uvm_test_top.env.ahb_agent.mon [ahb_slv_monitor] [MON][AHB][TR] AHB AHB_WRITE addr=0x7050 trans=AHB_TRANS_SEQ burst=AHB_BURST_WRAP16 size=4B mastlock=0 resp=AHB_RESP_OKAY waits=1 | data=0x605d5a57
# UVM_INFO ../10_tb/ahb_slv/ahb_slv_driver.sv(87) @ 2015000: uvm_test_top.env.ahb_agent.drv [ahb_slv_driver] [DRV][AHB][REQ] AHB_WRITE addr=0x7054 trans=AHB_TRANS_SEQ burst=AHB_BURST_WRAP16 size=4B
# UVM_INFO ../10_tb/axi4_mst/axi4_mst_driver.sv(198) @ 2015000: uvm_test_top.env.axi_agent.drv [axi4_mst_driver] [DRV][AXI][W] id=0xa beat=6/16 data=0x65625f5c strb=0xf last=0
# UVM_INFO ../10_tb/seq/ahb_slv_seq/ahb_slv_response_mapping_seq.sv(54) @ 2015000: uvm_test_top.env.ahb_agent.sqr@@ahb_seq [ahb_slv_response_mapping_seq] [RSP][AHB] AHB_WRITE addr=0x7054 resp=AHB_RESP_OKAY waits=0
# UVM_INFO ../10_tb/ahb_slv/ahb_slv_driver.sv(201) @ 2025000: uvm_test_top.env.ahb_agent.drv [ahb_slv_driver] [DRV][AHB][RSP] AHB_WRITE addr=0x7054 data=0x65625f5c resp=AHB_RESP_OKAY ready_delay=0
# UVM_INFO ../10_tb/ahb_slv/ahb_slv_monitor.sv(119) @ 2025000: uvm_test_top.env.ahb_agent.mon [ahb_slv_monitor] [MON][AHB][TR] AHB AHB_WRITE addr=0x7054 trans=AHB_TRANS_SEQ burst=AHB_BURST_WRAP16 size=4B mastlock=0 resp=AHB_RESP_OKAY waits=0 | data=0x65625f5c
# UVM_INFO ../10_tb/ahb_slv/ahb_slv_driver.sv(87) @ 2035000: uvm_test_top.env.ahb_agent.drv [ahb_slv_driver] [DRV][AHB][REQ] AHB_WRITE addr=0x7058 trans=AHB_TRANS_SEQ burst=AHB_BURST_WRAP16 size=4B
# UVM_INFO ../10_tb/axi4_mst/axi4_mst_driver.sv(198) @ 2035000: uvm_test_top.env.axi_agent.drv [axi4_mst_driver] [DRV][AXI][W] id=0xa beat=7/16 data=0x6a676461 strb=0xf last=0
# UVM_INFO ../10_tb/seq/ahb_slv_seq/ahb_slv_response_mapping_seq.sv(54) @ 2035000: uvm_test_top.env.ahb_agent.sqr@@ahb_seq [ahb_slv_response_mapping_seq] [RSP][AHB] AHB_WRITE addr=0x7058 resp=AHB_RESP_ERROR waits=0
# UVM_INFO ../10_tb/ahb_slv/ahb_slv_driver.sv(201) @ 2055000: uvm_test_top.env.ahb_agent.drv [ahb_slv_driver] [DRV][AHB][RSP] AHB_WRITE addr=0x7058 data=0x6a676461 resp=AHB_RESP_ERROR ready_delay=0
# UVM_INFO ../10_tb/ahb_slv/ahb_slv_monitor.sv(119) @ 2055000: uvm_test_top.env.ahb_agent.mon [ahb_slv_monitor] [MON][AHB][TR] AHB AHB_WRITE addr=0x7058 trans=AHB_TRANS_SEQ burst=AHB_BURST_WRAP16 size=4B mastlock=0 resp=AHB_RESP_ERROR waits=1 | data=0x6a676461
# UVM_INFO ../10_tb/ahb_slv/ahb_slv_driver.sv(87) @ 2065000: uvm_test_top.env.ahb_agent.drv [ahb_slv_driver] [DRV][AHB][REQ] AHB_WRITE addr=0x705c trans=AHB_TRANS_SEQ burst=AHB_BURST_WRAP16 size=4B
# UVM_INFO ../10_tb/axi4_mst/axi4_mst_driver.sv(198) @ 2065000: uvm_test_top.env.axi_agent.drv [axi4_mst_driver] [DRV][AXI][W] id=0xa beat=8/16 data=0x6f6c6966 strb=0xf last=0
# UVM_INFO ../10_tb/seq/ahb_slv_seq/ahb_slv_response_mapping_seq.sv(54) @ 2065000: uvm_test_top.env.ahb_agent.sqr@@ahb_seq [ahb_slv_response_mapping_seq] [RSP][AHB] AHB_WRITE addr=0x705c resp=AHB_RESP_OKAY waits=0
# UVM_INFO ../10_tb/ahb_slv/ahb_slv_driver.sv(201) @ 2075000: uvm_test_top.env.ahb_agent.drv [ahb_slv_driver] [DRV][AHB][RSP] AHB_WRITE addr=0x705c data=0x6f6c6966 resp=AHB_RESP_OKAY ready_delay=0
# UVM_INFO ../10_tb/ahb_slv/ahb_slv_monitor.sv(119) @ 2075000: uvm_test_top.env.ahb_agent.mon [ahb_slv_monitor] [MON][AHB][TR] AHB AHB_WRITE addr=0x705c trans=AHB_TRANS_SEQ burst=AHB_BURST_WRAP16 size=4B mastlock=0 resp=AHB_RESP_OKAY waits=0 | data=0x6f6c6966
# UVM_INFO ../10_tb/ahb_slv/ahb_slv_driver.sv(87) @ 2085000: uvm_test_top.env.ahb_agent.drv [ahb_slv_driver] [DRV][AHB][REQ] AHB_WRITE addr=0x7060 trans=AHB_TRANS_SEQ burst=AHB_BURST_WRAP16 size=4B
# UVM_INFO ../10_tb/axi4_mst/axi4_mst_driver.sv(198) @ 2085000: uvm_test_top.env.axi_agent.drv [axi4_mst_driver] [DRV][AXI][W] id=0xa beat=9/16 data=0x74716e6b strb=0xf last=0
# UVM_INFO ../10_tb/seq/ahb_slv_seq/ahb_slv_response_mapping_seq.sv(54) @ 2085000: uvm_test_top.env.ahb_agent.sqr@@ahb_seq [ahb_slv_response_mapping_seq] [RSP][AHB] AHB_WRITE addr=0x7060 resp=AHB_RESP_OKAY waits=0
# UVM_INFO ../10_tb/ahb_slv/ahb_slv_driver.sv(201) @ 2095000: uvm_test_top.env.ahb_agent.drv [ahb_slv_driver] [DRV][AHB][RSP] AHB_WRITE addr=0x7060 data=0x74716e6b resp=AHB_RESP_OKAY ready_delay=0
# UVM_INFO ../10_tb/ahb_slv/ahb_slv_monitor.sv(119) @ 2095000: uvm_test_top.env.ahb_agent.mon [ahb_slv_monitor] [MON][AHB][TR] AHB AHB_WRITE addr=0x7060 trans=AHB_TRANS_SEQ burst=AHB_BURST_WRAP16 size=4B mastlock=0 resp=AHB_RESP_OKAY waits=0 | data=0x74716e6b
# UVM_INFO ../10_tb/ahb_slv/ahb_slv_driver.sv(87) @ 2105000: uvm_test_top.env.ahb_agent.drv [ahb_slv_driver] [DRV][AHB][REQ] AHB_WRITE addr=0x7064 trans=AHB_TRANS_SEQ burst=AHB_BURST_WRAP16 size=4B
# UVM_INFO ../10_tb/axi4_mst/axi4_mst_driver.sv(198) @ 2105000: uvm_test_top.env.axi_agent.drv [axi4_mst_driver] [DRV][AXI][W] id=0xa beat=10/16 data=0x79767370 strb=0xf last=0
# UVM_INFO ../10_tb/seq/ahb_slv_seq/ahb_slv_response_mapping_seq.sv(54) @ 2105000: uvm_test_top.env.ahb_agent.sqr@@ahb_seq [ahb_slv_response_mapping_seq] [RSP][AHB] AHB_WRITE addr=0x7064 resp=AHB_RESP_OKAY waits=0
# UVM_INFO ../10_tb/ahb_slv/ahb_slv_driver.sv(201) @ 2115000: uvm_test_top.env.ahb_agent.drv [ahb_slv_driver] [DRV][AHB][RSP] AHB_WRITE addr=0x7064 data=0x79767370 resp=AHB_RESP_OKAY ready_delay=0
# UVM_INFO ../10_tb/ahb_slv/ahb_slv_monitor.sv(119) @ 2115000: uvm_test_top.env.ahb_agent.mon [ahb_slv_monitor] [MON][AHB][TR] AHB AHB_WRITE addr=0x7064 trans=AHB_TRANS_SEQ burst=AHB_BURST_WRAP16 size=4B mastlock=0 resp=AHB_RESP_OKAY waits=0 | data=0x79767370
# UVM_INFO ../10_tb/ahb_slv/ahb_slv_driver.sv(87) @ 2125000: uvm_test_top.env.ahb_agent.drv [ahb_slv_driver] [DRV][AHB][REQ] AHB_WRITE addr=0x7068 trans=AHB_TRANS_SEQ burst=AHB_BURST_WRAP16 size=4B
# UVM_INFO ../10_tb/axi4_mst/axi4_mst_driver.sv(198) @ 2125000: uvm_test_top.env.axi_agent.drv [axi4_mst_driver] [DRV][AXI][W] id=0xa beat=11/16 data=0x7e7b7875 strb=0xf last=0
# UVM_INFO ../10_tb/seq/ahb_slv_seq/ahb_slv_response_mapping_seq.sv(54) @ 2125000: uvm_test_top.env.ahb_agent.sqr@@ahb_seq [ahb_slv_response_mapping_seq] [RSP][AHB] AHB_WRITE addr=0x7068 resp=AHB_RESP_OKAY waits=0
# UVM_INFO ../10_tb/ahb_slv/ahb_slv_driver.sv(201) @ 2135000: uvm_test_top.env.ahb_agent.drv [ahb_slv_driver] [DRV][AHB][RSP] AHB_WRITE addr=0x7068 data=0x7e7b7875 resp=AHB_RESP_OKAY ready_delay=0
# UVM_INFO ../10_tb/ahb_slv/ahb_slv_monitor.sv(119) @ 2135000: uvm_test_top.env.ahb_agent.mon [ahb_slv_monitor] [MON][AHB][TR] AHB AHB_WRITE addr=0x7068 trans=AHB_TRANS_SEQ burst=AHB_BURST_WRAP16 size=4B mastlock=0 resp=AHB_RESP_OKAY waits=0 | data=0x7e7b7875
# UVM_INFO ../10_tb/ahb_slv/ahb_slv_driver.sv(87) @ 2145000: uvm_test_top.env.ahb_agent.drv [ahb_slv_driver] [DRV][AHB][REQ] AHB_WRITE addr=0x706c trans=AHB_TRANS_SEQ burst=AHB_BURST_WRAP16 size=4B
# UVM_INFO ../10_tb/axi4_mst/axi4_mst_driver.sv(198) @ 2145000: uvm_test_top.env.axi_agent.drv [axi4_mst_driver] [DRV][AXI][W] id=0xa beat=12/16 data=0x83807d7a strb=0xf last=0
# UVM_INFO ../10_tb/seq/ahb_slv_seq/ahb_slv_response_mapping_seq.sv(54) @ 2145000: uvm_test_top.env.ahb_agent.sqr@@ahb_seq [ahb_slv_response_mapping_seq] [RSP][AHB] AHB_WRITE addr=0x706c resp=AHB_RESP_ERROR waits=0
# UVM_INFO ../10_tb/ahb_slv/ahb_slv_driver.sv(201) @ 2165000: uvm_test_top.env.ahb_agent.drv [ahb_slv_driver] [DRV][AHB][RSP] AHB_WRITE addr=0x706c data=0x83807d7a resp=AHB_RESP_ERROR ready_delay=0
# UVM_INFO ../10_tb/ahb_slv/ahb_slv_monitor.sv(119) @ 2165000: uvm_test_top.env.ahb_agent.mon [ahb_slv_monitor] [MON][AHB][TR] AHB AHB_WRITE addr=0x706c trans=AHB_TRANS_SEQ burst=AHB_BURST_WRAP16 size=4B mastlock=0 resp=AHB_RESP_ERROR waits=1 | data=0x83807d7a
# UVM_INFO ../10_tb/ahb_slv/ahb_slv_driver.sv(87) @ 2175000: uvm_test_top.env.ahb_agent.drv [ahb_slv_driver] [DRV][AHB][REQ] AHB_WRITE addr=0x7070 trans=AHB_TRANS_SEQ burst=AHB_BURST_WRAP16 size=4B
# UVM_INFO ../10_tb/axi4_mst/axi4_mst_driver.sv(198) @ 2175000: uvm_test_top.env.axi_agent.drv [axi4_mst_driver] [DRV][AXI][W] id=0xa beat=13/16 data=0x8885827f strb=0xf last=0
# UVM_INFO ../10_tb/seq/ahb_slv_seq/ahb_slv_response_mapping_seq.sv(54) @ 2175000: uvm_test_top.env.ahb_agent.sqr@@ahb_seq [ahb_slv_response_mapping_seq] [RSP][AHB] AHB_WRITE addr=0x7070 resp=AHB_RESP_OKAY waits=4
# UVM_INFO ../10_tb/ahb_slv/ahb_slv_driver.sv(201) @ 2225000: uvm_test_top.env.ahb_agent.drv [ahb_slv_driver] [DRV][AHB][RSP] AHB_WRITE addr=0x7070 data=0x8885827f resp=AHB_RESP_OKAY ready_delay=4
# UVM_INFO ../10_tb/ahb_slv/ahb_slv_monitor.sv(119) @ 2225000: uvm_test_top.env.ahb_agent.mon [ahb_slv_monitor] [MON][AHB][TR] AHB AHB_WRITE addr=0x7070 trans=AHB_TRANS_SEQ burst=AHB_BURST_WRAP16 size=4B mastlock=0 resp=AHB_RESP_OKAY waits=4 | data=0x8885827f
# UVM_INFO ../10_tb/ahb_slv/ahb_slv_driver.sv(87) @ 2235000: uvm_test_top.env.ahb_agent.drv [ahb_slv_driver] [DRV][AHB][REQ] AHB_WRITE addr=0x7074 trans=AHB_TRANS_SEQ burst=AHB_BURST_WRAP16 size=4B
# UVM_INFO ../10_tb/axi4_mst/axi4_mst_driver.sv(198) @ 2235000: uvm_test_top.env.axi_agent.drv [axi4_mst_driver] [DRV][AXI][W] id=0xa beat=14/16 data=0x8d8a8784 strb=0xf last=0
# UVM_INFO ../10_tb/seq/ahb_slv_seq/ahb_slv_response_mapping_seq.sv(54) @ 2235000: uvm_test_top.env.ahb_agent.sqr@@ahb_seq [ahb_slv_response_mapping_seq] [RSP][AHB] AHB_WRITE addr=0x7074 resp=AHB_RESP_OKAY waits=0
# UVM_INFO ../10_tb/ahb_slv/ahb_slv_driver.sv(201) @ 2245000: uvm_test_top.env.ahb_agent.drv [ahb_slv_driver] [DRV][AHB][RSP] AHB_WRITE addr=0x7074 data=0x8d8a8784 resp=AHB_RESP_OKAY ready_delay=0
# UVM_INFO ../10_tb/ahb_slv/ahb_slv_monitor.sv(119) @ 2245000: uvm_test_top.env.ahb_agent.mon [ahb_slv_monitor] [MON][AHB][TR] AHB AHB_WRITE addr=0x7074 trans=AHB_TRANS_SEQ burst=AHB_BURST_WRAP16 size=4B mastlock=0 resp=AHB_RESP_OKAY waits=0 | data=0x8d8a8784
# UVM_INFO ../10_tb/ahb_slv/ahb_slv_driver.sv(87) @ 2255000: uvm_test_top.env.ahb_agent.drv [ahb_slv_driver] [DRV][AHB][REQ] AHB_WRITE addr=0x7078 trans=AHB_TRANS_SEQ burst=AHB_BURST_WRAP16 size=4B
# UVM_INFO ../10_tb/axi4_mst/axi4_mst_driver.sv(198) @ 2255000: uvm_test_top.env.axi_agent.drv [axi4_mst_driver] [DRV][AXI][W] id=0xa beat=15/16 data=0x928f8c89 strb=0xf last=0
# UVM_INFO ../10_tb/seq/ahb_slv_seq/ahb_slv_response_mapping_seq.sv(54) @ 2255000: uvm_test_top.env.ahb_agent.sqr@@ahb_seq [ahb_slv_response_mapping_seq] [RSP][AHB] AHB_WRITE addr=0x7078 resp=AHB_RESP_OKAY waits=0
# UVM_INFO ../10_tb/ahb_slv/ahb_slv_driver.sv(201) @ 2265000: uvm_test_top.env.ahb_agent.drv [ahb_slv_driver] [DRV][AHB][RSP] AHB_WRITE addr=0x7078 data=0x928f8c89 resp=AHB_RESP_OKAY ready_delay=0
# UVM_INFO ../10_tb/ahb_slv/ahb_slv_monitor.sv(119) @ 2265000: uvm_test_top.env.ahb_agent.mon [ahb_slv_monitor] [MON][AHB][TR] AHB AHB_WRITE addr=0x7078 trans=AHB_TRANS_SEQ burst=AHB_BURST_WRAP16 size=4B mastlock=0 resp=AHB_RESP_OKAY waits=0 | data=0x928f8c89
# UVM_INFO ../10_tb/ahb_slv/ahb_slv_driver.sv(87) @ 2275000: uvm_test_top.env.ahb_agent.drv [ahb_slv_driver] [DRV][AHB][REQ] AHB_WRITE addr=0x707c trans=AHB_TRANS_SEQ burst=AHB_BURST_WRAP16 size=4B
# UVM_INFO ../10_tb/axi4_mst/axi4_mst_driver.sv(198) @ 2275000: uvm_test_top.env.axi_agent.drv [axi4_mst_driver] [DRV][AXI][W] id=0xa beat=16/16 data=0x9794918e strb=0xf last=1
# UVM_INFO ../10_tb/seq/ahb_slv_seq/ahb_slv_response_mapping_seq.sv(54) @ 2275000: uvm_test_top.env.ahb_agent.sqr@@ahb_seq [ahb_slv_response_mapping_seq] [RSP][AHB] AHB_WRITE addr=0x707c resp=AHB_RESP_OKAY waits=0
# UVM_INFO ../10_tb/axi4_mst/axi4_mst_monitor.sv(151) @ 2275000: uvm_test_top.env.axi_agent.mon [axi4_mst_monitor] [MON][AXI][REQ] AXI4 AXI4_WRITE id=0xa addr=0x7040 burst=AXI4_BURST_WRAP beats=16 size=4B lock=0
# UVM_INFO ../10_tb/env/predictor.sv(75) @ 2275000: uvm_test_top.env.pred [predictor] [PRED][AXI][IN] AXI4 AXI4_WRITE id=0xa addr=0x7040 burst=AXI4_BURST_WRAP beats=16 size=4B lock=0 | queued=1
# UVM_INFO ../10_tb/env/predictor.sv(138) @ 2275000: uvm_test_top.env.pred [predictor] [PRED][MAP] AXI4 AXI4_WRITE id=0xa addr=0x7040 burst=AXI4_BURST_WRAP beats=16 size=4B lock=0 -> AHB burst=AHB_BURST_WRAP16 size=4B crosses_1kb=0
# UVM_INFO ../10_tb/env/predictor.sv(169) @ 2275000: uvm_test_top.env.pred [predictor] [PRED][AHB] beat=1/16 | AHB AHB_WRITE addr=0x7040 trans=AHB_TRANS_NONSEQ burst=AHB_BURST_WRAP16 size=4B mastlock=0 resp=AHB_RESP_OKAY waits=0 | wdata=0x4c494643
# UVM_INFO ../10_tb/env/scoreboard.sv(359) @ 2275000: uvm_test_top.env.scb [scoreboard] [SCB][AHB][PASS] AHB AHB_WRITE addr=0x7040 trans=AHB_TRANS_NONSEQ burst=AHB_BURST_WRAP16 size=4B mastlock=0 resp=AHB_RESP_OKAY waits=3 | data=0x4c494643 | total=40
# UVM_INFO ../10_tb/env/predictor.sv(169) @ 2275000: uvm_test_top.env.pred [predictor] [PRED][AHB] beat=2/16 | AHB AHB_WRITE addr=0x7044 trans=AHB_TRANS_SEQ burst=AHB_BURST_WRAP16 size=4B mastlock=0 resp=AHB_RESP_OKAY waits=0 | wdata=0x514e4b48
# UVM_INFO ../10_tb/env/scoreboard.sv(359) @ 2275000: uvm_test_top.env.scb [scoreboard] [SCB][AHB][PASS] AHB AHB_WRITE addr=0x7044 trans=AHB_TRANS_SEQ burst=AHB_BURST_WRAP16 size=4B mastlock=0 resp=AHB_RESP_ERROR waits=1 | data=0x514e4b48 | total=41
# UVM_INFO ../10_tb/env/predictor.sv(169) @ 2275000: uvm_test_top.env.pred [predictor] [PRED][AHB] beat=3/16 | AHB AHB_WRITE addr=0x7048 trans=AHB_TRANS_SEQ burst=AHB_BURST_WRAP16 size=4B mastlock=0 resp=AHB_RESP_OKAY waits=0 | wdata=0x5653504d
# UVM_INFO ../10_tb/env/scoreboard.sv(359) @ 2275000: uvm_test_top.env.scb [scoreboard] [SCB][AHB][PASS] AHB AHB_WRITE addr=0x7048 trans=AHB_TRANS_SEQ burst=AHB_BURST_WRAP16 size=4B mastlock=0 resp=AHB_RESP_OKAY waits=0 | data=0x5653504d | total=42
# UVM_INFO ../10_tb/env/predictor.sv(169) @ 2275000: uvm_test_top.env.pred [predictor] [PRED][AHB] beat=4/16 | AHB AHB_WRITE addr=0x704c trans=AHB_TRANS_SEQ burst=AHB_BURST_WRAP16 size=4B mastlock=0 resp=AHB_RESP_OKAY waits=0 | wdata=0x5b585552
# UVM_INFO ../10_tb/env/scoreboard.sv(359) @ 2275000: uvm_test_top.env.scb [scoreboard] [SCB][AHB][PASS] AHB AHB_WRITE addr=0x704c trans=AHB_TRANS_SEQ burst=AHB_BURST_WRAP16 size=4B mastlock=0 resp=AHB_RESP_OKAY waits=4 | data=0x5b585552 | total=43
# UVM_INFO ../10_tb/env/predictor.sv(169) @ 2275000: uvm_test_top.env.pred [predictor] [PRED][AHB] beat=5/16 | AHB AHB_WRITE addr=0x7050 trans=AHB_TRANS_SEQ burst=AHB_BURST_WRAP16 size=4B mastlock=0 resp=AHB_RESP_OKAY waits=0 | wdata=0x605d5a57
# UVM_INFO ../10_tb/env/scoreboard.sv(359) @ 2275000: uvm_test_top.env.scb [scoreboard] [SCB][AHB][PASS] AHB AHB_WRITE addr=0x7050 trans=AHB_TRANS_SEQ burst=AHB_BURST_WRAP16 size=4B mastlock=0 resp=AHB_RESP_OKAY waits=1 | data=0x605d5a57 | total=44
# UVM_INFO ../10_tb/env/predictor.sv(169) @ 2275000: uvm_test_top.env.pred [predictor] [PRED][AHB] beat=6/16 | AHB AHB_WRITE addr=0x7054 trans=AHB_TRANS_SEQ burst=AHB_BURST_WRAP16 size=4B mastlock=0 resp=AHB_RESP_OKAY waits=0 | wdata=0x65625f5c
# UVM_INFO ../10_tb/env/scoreboard.sv(359) @ 2275000: uvm_test_top.env.scb [scoreboard] [SCB][AHB][PASS] AHB AHB_WRITE addr=0x7054 trans=AHB_TRANS_SEQ burst=AHB_BURST_WRAP16 size=4B mastlock=0 resp=AHB_RESP_OKAY waits=0 | data=0x65625f5c | total=45
# UVM_INFO ../10_tb/env/predictor.sv(169) @ 2275000: uvm_test_top.env.pred [predictor] [PRED][AHB] beat=7/16 | AHB AHB_WRITE addr=0x7058 trans=AHB_TRANS_SEQ burst=AHB_BURST_WRAP16 size=4B mastlock=0 resp=AHB_RESP_OKAY waits=0 | wdata=0x6a676461
# UVM_INFO ../10_tb/env/scoreboard.sv(359) @ 2275000: uvm_test_top.env.scb [scoreboard] [SCB][AHB][PASS] AHB AHB_WRITE addr=0x7058 trans=AHB_TRANS_SEQ burst=AHB_BURST_WRAP16 size=4B mastlock=0 resp=AHB_RESP_ERROR waits=1 | data=0x6a676461 | total=46
# UVM_INFO ../10_tb/env/predictor.sv(169) @ 2275000: uvm_test_top.env.pred [predictor] [PRED][AHB] beat=8/16 | AHB AHB_WRITE addr=0x705c trans=AHB_TRANS_SEQ burst=AHB_BURST_WRAP16 size=4B mastlock=0 resp=AHB_RESP_OKAY waits=0 | wdata=0x6f6c6966
# UVM_INFO ../10_tb/env/scoreboard.sv(359) @ 2275000: uvm_test_top.env.scb [scoreboard] [SCB][AHB][PASS] AHB AHB_WRITE addr=0x705c trans=AHB_TRANS_SEQ burst=AHB_BURST_WRAP16 size=4B mastlock=0 resp=AHB_RESP_OKAY waits=0 | data=0x6f6c6966 | total=47
